time	V(out)	V(n001)
0.000000000000000e+000	0.000000e+000	0.000000e+000
1.953124992195698e-015	0.000000e+000	2.604167e-007
3.906249984391395e-015	0.000000e+000	5.208333e-007
4.574776767434381e-012	-2.426534e-043	6.099702e-004
9.145647284884371e-012	-2.159144e-043	1.219420e-003
1.371651780233436e-011	8.021719e-044	1.828869e-003
1.828738831978435e-011	6.457412e-043	2.438318e-003
2.285825883723434e-011	1.480658e-042	3.047768e-003
2.742912935468433e-011	2.584967e-042	3.657217e-003
3.199999987213431e-011	3.958668e-042	4.266667e-003
6.399999974426862e-011	2.472659e-038	8.533333e-003
1.101865910514692e-010	5.555867e-037	1.469155e-002
1.518283170774923e-010	4.658339e-036	2.024378e-002
1.886125910536936e-010	2.798050e-035	2.514835e-002
2.234275502837838e-010	2.222438e-034	2.979034e-002
2.660292732369286e-010	1.862684e-033	3.547057e-002
3.074334186163046e-010	2.194953e-032	4.099112e-002
3.608476060732223e-010	3.046011e-031	4.811301e-002
4.179952393686653e-010	5.810221e-030	5.573270e-002
4.891580293033175e-010	1.100257e-028	6.522107e-002
5.680736373325263e-010	2.560632e-027	7.574315e-002
6.641208263950112e-010	2.275808e-026	8.854944e-002
7.426813351474913e-010	1.346680e-025	9.902418e-002
8.285345141860017e-010	7.658505e-025	1.104713e-001
9.107915190103786e-010	4.334044e-024	1.214389e-001
1.007870678158534e-009	2.735576e-023	1.343828e-001
1.108680830507005e-009	1.782957e-022	1.478241e-001
1.225505037921539e-009	1.246634e-021	1.634007e-001
1.350328407991337e-009	6.176153e-021	1.800438e-001
1.455594320720257e-009	2.508534e-020	1.940793e-001
1.578830595461709e-009	1.074663e-019	2.105107e-001
1.692877567002574e-009	4.184111e-019	2.257170e-001
1.827909090260396e-009	1.808174e-018	2.437212e-001
1.962660486380070e-009	7.515344e-018	2.616881e-001
2.117588383411623e-009	3.075315e-017	2.823451e-001
2.259488223096706e-009	1.064085e-016	3.012651e-001
2.414527115696590e-009	3.615141e-016	3.219369e-001
2.556220879464593e-009	1.102709e-015	3.408295e-001
2.719667914822786e-009	3.663851e-015	3.626224e-001
2.881791130099251e-009	1.162037e-014	3.842388e-001
3.064717173703078e-009	3.661162e-014	4.086290e-001
3.225341511015314e-009	9.656048e-014	4.300455e-001
3.397431224812672e-009	2.623024e-013	4.529908e-001
3.569419973003303e-009	6.897922e-013	4.759227e-001
3.756799183727982e-009	1.878927e-012	5.009066e-001
3.950026686943050e-009	4.946713e-012	5.266702e-001
4.145339186943050e-009	1.246335e-011	5.527119e-001
4.340651686943050e-009	2.990794e-011	5.787535e-001
4.533678824743606e-009	6.852302e-011	6.044905e-001
4.728991324743606e-009	1.529362e-010	6.305322e-001
4.924303824743606e-009	3.295357e-010	6.565738e-001
5.119616324743606e-009	6.881490e-010	6.826155e-001
5.314928824743605e-009	1.395826e-009	7.086572e-001
5.510241324743605e-009	2.755582e-009	7.346988e-001
5.705553824743605e-009	5.303909e-009	7.607405e-001
5.900866324743605e-009	9.969305e-009	7.867822e-001
6.096178824743605e-009	1.832462e-008	8.128238e-001
6.291491324743604e-009	3.298081e-008	8.388655e-001
6.486803824743604e-009	5.818981e-008	8.649072e-001
6.682116324743604e-009	1.007509e-007	8.909488e-001
6.877428824743604e-009	1.713502e-007	9.169905e-001
7.072741324743604e-009	2.865076e-007	9.430322e-001
7.268053824743603e-009	4.495798e-007	9.690738e-001
7.304687499999999e-009	4.899697e-007	9.739583e-001
7.377954850512790e-009	5.923987e-007	9.837273e-001
7.499999999999999e-009	7.871329e-007	1.000000e+000
7.512204514948721e-009	8.110688e-007	1.000000e+000
7.536613544846164e-009	8.610147e-007	1.000000e+000
7.585431604641047e-009	9.719842e-007	1.000000e+000
7.683067724230815e-009	1.249481e-006	1.000000e+000
7.878339963410351e-009	2.008782e-006	1.000000e+000
8.073652463410351e-009	3.116562e-006	1.000000e+000
8.268964963410350e-009	4.772700e-006	1.000000e+000
8.464277463410350e-009	7.218123e-006	1.000000e+000
8.659589963410350e-009	1.078609e-005	1.000000e+000
8.854902463410350e-009	1.593225e-005	1.000000e+000
9.050214963410350e-009	2.327260e-005	1.000000e+000
9.245527463410349e-009	3.363076e-005	1.000000e+000
9.440839963410349e-009	4.809626e-005	1.000000e+000
9.636152463410349e-009	6.809544e-005	1.000000e+000
9.831464963410349e-009	9.547657e-005	1.000000e+000
1.002677746341035e-008	1.326110e-004	1.000000e+000
1.022208996341035e-008	1.825115e-004	1.000000e+000
1.041740246341035e-008	2.489694e-004	1.000000e+000
1.061271496341035e-008	3.367111e-004	1.000000e+000
1.080802746341035e-008	4.515741e-004	1.000000e+000
1.100333996341035e-008	6.007026e-004	1.000000e+000
1.119865246341035e-008	7.927614e-004	1.000000e+000
1.139396496341035e-008	1.038166e-003	1.000000e+000
1.158927746341035e-008	1.349324e-003	1.000000e+000
1.178458996341035e-008	1.740890e-003	1.000000e+000
1.197990246341035e-008	2.230014e-003	1.000000e+000
1.217521496341035e-008	2.836597e-003	1.000000e+000
1.237052746341035e-008	3.583524e-003	1.000000e+000
1.256583996341035e-008	4.496879e-003	1.000000e+000
1.276115246341035e-008	5.606131e-003	1.000000e+000
1.295646496341035e-008	6.944266e-003	1.000000e+000
1.315177746341035e-008	8.547870e-003	1.000000e+000
1.334708996341035e-008	1.045714e-002	1.000000e+000
1.354240246341035e-008	1.271582e-002	1.000000e+000
1.373771496341034e-008	1.537102e-002	1.000000e+000
1.393302746341034e-008	1.847298e-002	1.000000e+000
1.412833996341034e-008	2.207466e-002	1.000000e+000
1.432365246341034e-008	2.623129e-002	1.000000e+000
1.451896496341034e-008	3.099972e-002	1.000000e+000
1.471427746341034e-008	3.643771e-002	1.000000e+000
1.490958996341035e-008	4.260311e-002	1.000000e+000
1.510490246341035e-008	4.955287e-002	1.000000e+000
1.530021496341035e-008	5.734207e-002	1.000000e+000
1.549552746341035e-008	6.602278e-002	1.000000e+000
1.569083996341035e-008	7.564293e-002	1.000000e+000
1.588615246341035e-008	8.624516e-002	1.000000e+000
1.608146496341035e-008	9.786567e-002	1.000000e+000
1.627677746341036e-008	1.105331e-001	1.000000e+000
1.647208996341036e-008	1.242675e-001	1.000000e+000
1.666740246341036e-008	1.390796e-001	1.000000e+000
1.686271496341036e-008	1.549696e-001	1.000000e+000
1.705802746341036e-008	1.719273e-001	1.000000e+000
1.725333996341036e-008	1.899311e-001	1.000000e+000
1.744865246341036e-008	2.089482e-001	1.000000e+000
1.764396496341037e-008	2.289345e-001	1.000000e+000
1.783927746341037e-008	2.498355e-001	1.000000e+000
1.803458996341037e-008	2.715861e-001	1.000000e+000
1.822990246341037e-008	2.941122e-001	1.000000e+000
1.842521496341037e-008	3.173314e-001	1.000000e+000
1.862052746341037e-008	3.411547e-001	1.000000e+000
1.881583996341037e-008	3.654872e-001	1.000000e+000
1.901115246341038e-008	3.902308e-001	1.000000e+000
1.920646496341038e-008	4.152846e-001	1.000000e+000
1.940177746341038e-008	4.405478e-001	1.000000e+000
1.959708996341038e-008	4.659202e-001	1.000000e+000
1.979240246341038e-008	4.913046e-001	1.000000e+000
1.998771496341038e-008	5.166078e-001	1.000000e+000
2.018302746341038e-008	5.417417e-001	1.000000e+000
2.037833996341039e-008	5.666246e-001	1.000000e+000
2.057365246341039e-008	5.911813e-001	1.000000e+000
2.076896496341039e-008	6.153445e-001	1.000000e+000
2.096427746341039e-008	6.390538e-001	1.000000e+000
2.115958996341039e-008	6.622564e-001	1.000000e+000
2.135490246341039e-008	6.849062e-001	1.000000e+000
2.155021496341039e-008	7.069635e-001	1.000000e+000
2.174552746341040e-008	7.283939e-001	1.000000e+000
2.194083996341040e-008	7.491677e-001	1.000000e+000
2.213615246341040e-008	7.692584e-001	1.000000e+000
2.233146496341040e-008	7.886422e-001	1.000000e+000
2.252677746341040e-008	8.072969e-001	1.000000e+000
2.272208996341040e-008	8.252009e-001	1.000000e+000
2.291740246341040e-008	8.423328e-001	1.000000e+000
2.311271496341041e-008	8.586708e-001	1.000000e+000
2.330802746341041e-008	8.741929e-001	1.000000e+000
2.350333996341041e-008	8.888766e-001	1.000000e+000
2.369865246341041e-008	9.026994e-001	1.000000e+000
2.389396496341041e-008	9.156400e-001	1.000000e+000
2.408927746341041e-008	9.276786e-001	1.000000e+000
2.428458996341041e-008	9.387985e-001	1.000000e+000
2.447990246341042e-008	9.489869e-001	1.000000e+000
2.467521496341042e-008	9.582368e-001	1.000000e+000
2.487052746341042e-008	9.665481e-001	1.000000e+000
2.506583996341042e-008	9.739285e-001	1.000000e+000
2.526115246341042e-008	9.803950e-001	1.000000e+000
2.545646496341042e-008	9.859746e-001	1.000000e+000
2.565177746341042e-008	9.907045e-001	1.000000e+000
2.584708996341043e-008	9.946328e-001	1.000000e+000
2.604240246341043e-008	9.978173e-001	1.000000e+000
2.623771496341043e-008	1.000326e+000	1.000000e+000
2.643302746341043e-008	1.002233e+000	1.000000e+000
2.662833996341043e-008	1.003623e+000	1.000000e+000
2.682365246341043e-008	1.004581e+000	1.000000e+000
2.701896496341043e-008	1.005198e+000	1.000000e+000
2.721427746341044e-008	1.005563e+000	1.000000e+000
2.740958996341044e-008	1.005764e+000	1.000000e+000
2.760490246341044e-008	1.005883e+000	1.000000e+000
2.780021496341044e-008	1.005995e+000	1.000000e+000
2.799552746341044e-008	1.006165e+000	1.000000e+000
2.819083996341044e-008	1.006449e+000	1.000000e+000
2.838615246341044e-008	1.006888e+000	1.000000e+000
2.858146496341045e-008	1.007511e+000	1.000000e+000
2.877677746341045e-008	1.008330e+000	1.000000e+000
2.897208996341045e-008	1.009349e+000	1.000000e+000
2.916740246341045e-008	1.010552e+000	1.000000e+000
2.936271496341045e-008	1.011918e+000	1.000000e+000
2.955802746341045e-008	1.013412e+000	1.000000e+000
2.975333996341045e-008	1.014992e+000	1.000000e+000
2.994865246341046e-008	1.016610e+000	1.000000e+000
3.014396496341045e-008	1.018218e+000	1.000000e+000
3.033927746341045e-008	1.019765e+000	1.000000e+000
3.053458996341045e-008	1.021205e+000	1.000000e+000
3.072990246341045e-008	1.022494e+000	1.000000e+000
3.092521496341045e-008	1.023597e+000	1.000000e+000
3.112052746341044e-008	1.024488e+000	1.000000e+000
3.131583996341044e-008	1.025151e+000	1.000000e+000
3.151115246341044e-008	1.025578e+000	1.000000e+000
3.170646496341044e-008	1.025775e+000	1.000000e+000
3.190177746341044e-008	1.025756e+000	1.000000e+000
3.209708996341044e-008	1.025545e+000	1.000000e+000
3.229240246341043e-008	1.025175e+000	1.000000e+000
3.248771496341043e-008	1.024683e+000	1.000000e+000
3.268302746341043e-008	1.024111e+000	1.000000e+000
3.287833996341043e-008	1.023502e+000	1.000000e+000
3.307365246341043e-008	1.022899e+000	1.000000e+000
3.326896496341042e-008	1.022343e+000	1.000000e+000
3.346427746341042e-008	1.021868e+000	1.000000e+000
3.365958996341042e-008	1.021504e+000	1.000000e+000
3.385490246341042e-008	1.021271e+000	1.000000e+000
3.405021496341042e-008	1.021183e+000	1.000000e+000
3.424552746341041e-008	1.021242e+000	1.000000e+000
3.444083996341041e-008	1.021443e+000	1.000000e+000
3.463615246341041e-008	1.021774e+000	1.000000e+000
3.483146496341041e-008	1.022213e+000	1.000000e+000
3.502677746341041e-008	1.022734e+000	1.000000e+000
3.522208996341041e-008	1.023309e+000	1.000000e+000
3.541740246341040e-008	1.023904e+000	1.000000e+000
3.561271496341040e-008	1.024488e+000	1.000000e+000
3.580802746341040e-008	1.025030e+000	1.000000e+000
3.600333996341040e-008	1.025503e+000	1.000000e+000
3.619865246341040e-008	1.025887e+000	1.000000e+000
3.639396496341039e-008	1.026165e+000	1.000000e+000
3.658927746341039e-008	1.026330e+000	1.000000e+000
3.678458996341039e-008	1.026381e+000	1.000000e+000
3.697990246341039e-008	1.026323e+000	1.000000e+000
3.717521496341039e-008	1.026171e+000	1.000000e+000
3.737052746341038e-008	1.025944e+000	1.000000e+000
3.756583996341038e-008	1.025665e+000	1.000000e+000
3.776115246341038e-008	1.025362e+000	1.000000e+000
3.795646496341038e-008	1.025066e+000	1.000000e+000
3.815177746341038e-008	1.024805e+000	1.000000e+000
3.834708996341038e-008	1.024608e+000	1.000000e+000
3.854240246341037e-008	1.024501e+000	1.000000e+000
3.873771496341037e-008	1.024505e+000	1.000000e+000
3.893302746341037e-008	1.024638e+000	1.000000e+000
3.912833996341037e-008	1.024911e+000	1.000000e+000
3.932365246341037e-008	1.025331e+000	1.000000e+000
3.951896496341036e-008	1.025899e+000	1.000000e+000
3.971427746341036e-008	1.026611e+000	1.000000e+000
3.990958996341036e-008	1.027459e+000	1.000000e+000
4.010490246341036e-008	1.028433e+000	1.000000e+000
4.030021496341036e-008	1.029521e+000	1.000000e+000
4.049552746341036e-008	1.030710e+000	1.000000e+000
4.069083996341035e-008	1.031990e+000	1.000000e+000
4.088615246341035e-008	1.033352e+000	1.000000e+000
4.108146496341035e-008	1.034791e+000	1.000000e+000
4.127677746341035e-008	1.036307e+000	1.000000e+000
4.147208996341035e-008	1.037905e+000	1.000000e+000
4.166740246341034e-008	1.039594e+000	1.000000e+000
4.186271496341034e-008	1.041389e+000	1.000000e+000
4.205802746341034e-008	1.043312e+000	1.000000e+000
4.225333996341034e-008	1.045387e+000	1.000000e+000
4.244865246341034e-008	1.047640e+000	1.000000e+000
4.264396496341033e-008	1.050102e+000	1.000000e+000
4.283927746341033e-008	1.052804e+000	1.000000e+000
4.303458996341033e-008	1.055775e+000	1.000000e+000
4.322990246341033e-008	1.059043e+000	1.000000e+000
4.342521496341033e-008	1.062633e+000	1.000000e+000
4.362052746341033e-008	1.066565e+000	1.000000e+000
4.381583996341032e-008	1.070853e+000	1.000000e+000
4.401115246341032e-008	1.075508e+000	1.000000e+000
4.420646496341032e-008	1.080530e+000	1.000000e+000
4.440177746341032e-008	1.085917e+000	1.000000e+000
4.459708996341032e-008	1.091657e+000	1.000000e+000
4.479240246341031e-008	1.097736e+000	1.000000e+000
4.498771496341031e-008	1.104131e+000	1.000000e+000
4.518302746341031e-008	1.110816e+000	1.000000e+000
4.537833996341031e-008	1.117761e+000	1.000000e+000
4.557365246341031e-008	1.124935e+000	1.000000e+000
4.576896496341030e-008	1.132300e+000	1.000000e+000
4.596427746341030e-008	1.139822e+000	1.000000e+000
4.615958996341030e-008	1.147464e+000	1.000000e+000
4.635490246341030e-008	1.155187e+000	1.000000e+000
4.655021496341030e-008	1.162954e+000	1.000000e+000
4.674552746341030e-008	1.170728e+000	1.000000e+000
4.694083996341029e-008	1.178472e+000	1.000000e+000
4.713615246341029e-008	1.186147e+000	1.000000e+000
4.733146496341029e-008	1.193715e+000	1.000000e+000
4.752677746341029e-008	1.201137e+000	1.000000e+000
4.772208996341029e-008	1.208372e+000	1.000000e+000
4.791740246341028e-008	1.215376e+000	1.000000e+000
4.811271496341028e-008	1.222107e+000	1.000000e+000
4.830802746341028e-008	1.228516e+000	1.000000e+000
4.850333996341028e-008	1.234555e+000	1.000000e+000
4.869865246341028e-008	1.240176e+000	1.000000e+000
4.889396496341027e-008	1.245325e+000	1.000000e+000
4.908927746341027e-008	1.249952e+000	1.000000e+000
4.928458996341027e-008	1.254006e+000	1.000000e+000
4.947990246341027e-008	1.257439e+000	1.000000e+000
4.967521496341027e-008	1.260203e+000	1.000000e+000
4.987052746341027e-008	1.262258e+000	1.000000e+000
5.006583996341026e-008	1.263567e+000	1.000000e+000
5.026115246341026e-008	1.264101e+000	1.000000e+000
5.045646496341026e-008	1.263839e+000	1.000000e+000
5.065177746341026e-008	1.262769e+000	1.000000e+000
5.084708996341026e-008	1.260886e+000	1.000000e+000
5.104240246341025e-008	1.258200e+000	1.000000e+000
5.123771496341025e-008	1.254725e+000	1.000000e+000
5.143302746341025e-008	1.250489e+000	1.000000e+000
5.162833996341025e-008	1.245529e+000	1.000000e+000
5.182365246341025e-008	1.239887e+000	1.000000e+000
5.201896496341024e-008	1.233616e+000	1.000000e+000
5.221427746341024e-008	1.226775e+000	1.000000e+000
5.240958996341024e-008	1.219425e+000	1.000000e+000
5.260490246341024e-008	1.211633e+000	1.000000e+000
5.280021496341024e-008	1.203467e+000	1.000000e+000
5.299552746341024e-008	1.194996e+000	1.000000e+000
5.319083996341023e-008	1.186288e+000	1.000000e+000
5.338615246341023e-008	1.177407e+000	1.000000e+000
5.358146496341023e-008	1.168418e+000	1.000000e+000
5.377677746341023e-008	1.159379e+000	1.000000e+000
5.397208996341023e-008	1.150344e+000	1.000000e+000
5.416740246341022e-008	1.141364e+000	1.000000e+000
5.436271496341022e-008	1.132483e+000	1.000000e+000
5.455802746341022e-008	1.123742e+000	1.000000e+000
5.475333996341022e-008	1.115175e+000	1.000000e+000
5.494865246341022e-008	1.106814e+000	1.000000e+000
5.514396496341021e-008	1.098686e+000	1.000000e+000
5.533927746341021e-008	1.090815e+000	1.000000e+000
5.553458996341021e-008	1.083221e+000	1.000000e+000
5.572990246341021e-008	1.075923e+000	1.000000e+000
5.592521496341021e-008	1.068936e+000	1.000000e+000
5.612052746341021e-008	1.062274e+000	1.000000e+000
5.631583996341020e-008	1.055949e+000	1.000000e+000
5.651115246341020e-008	1.049970e+000	1.000000e+000
5.670646496341020e-008	1.044347e+000	1.000000e+000
5.690177746341020e-008	1.039086e+000	1.000000e+000
5.709708996341020e-008	1.034192e+000	1.000000e+000
5.729240246341019e-008	1.029668e+000	1.000000e+000
5.748771496341019e-008	1.025515e+000	1.000000e+000
5.768302746341019e-008	1.021730e+000	1.000000e+000
5.787833996341019e-008	1.018311e+000	1.000000e+000
5.807365246341019e-008	1.015250e+000	1.000000e+000
5.826896496341018e-008	1.012538e+000	1.000000e+000
5.846427746341018e-008	1.010164e+000	1.000000e+000
5.865958996341018e-008	1.008113e+000	1.000000e+000
5.885490246341018e-008	1.006369e+000	1.000000e+000
5.905021496341018e-008	1.004915e+000	1.000000e+000
5.924552746341018e-008	1.003730e+000	1.000000e+000
5.944083996341017e-008	1.002792e+000	1.000000e+000
5.963615246341018e-008	1.002078e+000	1.000000e+000
5.983146496341018e-008	1.001565e+000	1.000000e+000
6.002677746341019e-008	1.001229e+000	1.000000e+000
6.022208996341019e-008	1.001045e+000	1.000000e+000
6.041740246341020e-008	1.000986e+000	1.000000e+000
6.061271496341020e-008	1.001030e+000	1.000000e+000
6.080802746341021e-008	1.001151e+000	1.000000e+000
6.100333996341021e-008	1.001324e+000	1.000000e+000
6.119865246341022e-008	1.001527e+000	1.000000e+000
6.139396496341022e-008	1.001735e+000	1.000000e+000
6.158927746341023e-008	1.001927e+000	1.000000e+000
6.178458996341023e-008	1.002082e+000	1.000000e+000
6.197990246341024e-008	1.002181e+000	1.000000e+000
6.217521496341024e-008	1.002206e+000	1.000000e+000
6.237052746341024e-008	1.002142e+000	1.000000e+000
6.256583996341025e-008	1.001976e+000	1.000000e+000
6.276115246341025e-008	1.001698e+000	1.000000e+000
6.295646496341026e-008	1.001301e+000	1.000000e+000
6.315177746341026e-008	1.000784e+000	1.000000e+000
6.334708996341027e-008	1.000147e+000	1.000000e+000
6.354240246341027e-008	9.993955e-001	1.000000e+000
6.373771496341028e-008	9.985406e-001	1.000000e+000
6.393302746341028e-008	9.975966e-001	1.000000e+000
6.412833996341029e-008	9.965820e-001	1.000000e+000
6.432365246341029e-008	9.955198e-001	1.000000e+000
6.451896496341030e-008	9.944356e-001	1.000000e+000
6.471427746341030e-008	9.933583e-001	1.000000e+000
6.490958996341031e-008	9.923178e-001	1.000000e+000
6.510490246341031e-008	9.913451e-001	1.000000e+000
6.530021496341032e-008	9.904706e-001	1.000000e+000
6.549552746341032e-008	9.897232e-001	1.000000e+000
6.569083996341033e-008	9.891286e-001	1.000000e+000
6.588615246341033e-008	9.887089e-001	1.000000e+000
6.608146496341034e-008	9.884811e-001	1.000000e+000
6.627677746341034e-008	9.884564e-001	1.000000e+000
6.647208996341034e-008	9.886397e-001	1.000000e+000
6.666740246341035e-008	9.890288e-001	1.000000e+000
6.686271496341035e-008	9.896149e-001	1.000000e+000
6.705802746341036e-008	9.903827e-001	1.000000e+000
6.725333996341036e-008	9.913104e-001	1.000000e+000
6.744865246341037e-008	9.923713e-001	1.000000e+000
6.764396496341037e-008	9.935347e-001	1.000000e+000
6.783927746341038e-008	9.947667e-001	1.000000e+000
6.803458996341038e-008	9.960324e-001	1.000000e+000
6.822990246341039e-008	9.972971e-001	1.000000e+000
6.842521496341039e-008	9.985281e-001	1.000000e+000
6.862052746341040e-008	9.996960e-001	1.000000e+000
6.881583996341040e-008	1.000776e+000	1.000000e+000
6.901115246341041e-008	1.001751e+000	1.000000e+000
6.920646496341041e-008	1.002609e+000	1.000000e+000
6.940177746341042e-008	1.003346e+000	1.000000e+000
6.959708996341042e-008	1.003967e+000	1.000000e+000
6.979240246341043e-008	1.004484e+000	1.000000e+000
6.998771496341043e-008	1.004917e+000	1.000000e+000
7.018302746341043e-008	1.005291e+000	1.000000e+000
7.037833996341044e-008	1.005640e+000	1.000000e+000
