time	V(out)	V(n001)
0.000000000000000e+000	0.000000e+000	0.000000e+000
9.142857106324092e-012	-2.483959e-042	1.219048e-003
1.828571421264818e-011	-2.207874e-042	2.438095e-003
2.742857131897227e-011	8.282532e-043	3.657143e-003
3.657142842529637e-011	6.624424e-042	4.876191e-003
4.571428553162046e-011	1.518064e-041	6.095238e-003
5.485714263794455e-011	2.649690e-041	7.314286e-003
6.399999974426862e-011	4.057320e-041	8.533333e-003
1.279999994885372e-010	1.730712e-039	1.706667e-002
1.894984301540214e-010	1.844532e-038	2.526646e-002
2.440427897260272e-010	1.289129e-037	3.253904e-002
2.955546488745592e-010	8.417870e-037	3.940729e-002
3.489885435089712e-010	6.118825e-036	4.653181e-002
4.069613378577792e-010	5.943777e-035	5.426151e-002
4.746565949996771e-010	7.810055e-034	6.328755e-002
5.526320233984945e-010	1.315262e-032	7.368427e-002
6.442586492373374e-010	2.547072e-031	8.590116e-002
7.505136077453728e-010	5.528772e-030	1.000685e-001
8.752509905353015e-010	1.269404e-028	1.167001e-001
1.020654962636555e-009	1.145628e-027	1.360873e-001
1.143887517543385e-009	6.327441e-027	1.525183e-001
1.266470473455644e-009	3.454109e-026	1.688627e-001
1.397058435478880e-009	2.008429e-025	1.862745e-001
1.540516697707865e-009	1.252961e-024	2.054022e-001
1.698238751855343e-009	8.274096e-024	2.264318e-001
1.872811592154977e-009	5.733485e-023	2.497082e-001
2.065677981272996e-009	3.588510e-022	2.754237e-001
2.260990481272996e-009	1.852110e-021	3.014654e-001
2.456302981272995e-009	8.091206e-021	3.275071e-001
2.645651036299638e-009	3.146208e-020	3.527535e-001
2.840963536299638e-009	1.164894e-019	3.787951e-001
3.036276036299638e-009	3.954085e-019	4.048368e-001
3.231588536299637e-009	1.251778e-018	4.308785e-001
3.426901036299637e-009	3.726356e-018	4.569201e-001
3.622213536299637e-009	1.050020e-017	4.829618e-001
3.817526036299637e-009	2.816128e-017	5.090035e-001
4.012838536299637e-009	7.221950e-017	5.350451e-001
4.208151036299636e-009	1.777933e-016	5.610868e-001
4.403463536299636e-009	4.216106e-016	5.871285e-001
4.598776036299636e-009	9.658918e-016	6.131701e-001
4.794088536299636e-009	2.143361e-015	6.392118e-001
4.989401036299636e-009	4.617540e-015	6.652535e-001
5.184713536299635e-009	9.677499e-015	6.912951e-001
5.380026036299635e-009	1.976732e-014	7.173368e-001
5.575338536299635e-009	3.941663e-014	7.433785e-001
5.770651036299635e-009	7.684297e-014	7.694201e-001
5.965963536299634e-009	1.466585e-013	7.954618e-001
6.161276036299634e-009	2.743603e-013	8.215035e-001
6.356588536299634e-009	5.036548e-013	8.475451e-001
6.551901036299634e-009	9.082128e-013	8.735868e-001
6.747213536299634e-009	1.610254e-012	8.996285e-001
6.942526036299633e-009	2.809503e-012	9.256701e-001
7.137838536299633e-009	4.770326e-012	9.517118e-001
7.304687500000000e-009	7.503496e-012	9.739583e-001
7.499999999999999e-009	1.190534e-011	1.000000e+000
7.558593749999999e-009	1.392095e-011	1.000000e+000
7.636718749999998e-009	1.725302e-011	1.000000e+000
7.792968749999998e-009	2.632115e-011	1.000000e+000
7.988281249999998e-009	4.309264e-011	1.000000e+000
8.183593749999998e-009	6.906067e-011	1.000000e+000
8.378906249999998e-009	1.094221e-010	1.000000e+000
8.574218749999997e-009	1.714877e-010	1.000000e+000
8.769531249999997e-009	2.659551e-010	1.000000e+000
8.964843749999997e-009	4.083312e-010	1.000000e+000
9.160156249999997e-009	6.208926e-010	1.000000e+000
9.355468749999997e-009	9.353633e-010	1.000000e+000
9.550781249999996e-009	1.396545e-009	1.000000e+000
9.746093749999996e-009	2.067201e-009	1.000000e+000
9.941406249999996e-009	3.034574e-009	1.000000e+000
1.013671875000000e-008	4.419028e-009	1.000000e+000
1.033203125000000e-008	6.385423e-009	1.000000e+000
1.052734375000000e-008	9.157983e-009	1.000000e+000
1.072265625000000e-008	1.303961e-008	1.000000e+000
1.091796875000000e-008	1.843683e-008	1.000000e+000
1.111328125000000e-008	2.589173e-008	1.000000e+000
1.130859374999999e-008	3.612277e-008	1.000000e+000
1.150390624999999e-008	5.007646e-008	1.000000e+000
1.169921874999999e-008	6.899250e-008	1.000000e+000
1.189453124999999e-008	9.448544e-008	1.000000e+000
1.208984374999999e-008	1.286466e-007	1.000000e+000
1.228515624999999e-008	1.741701e-007	1.000000e+000
1.248046874999999e-008	2.345092e-007	1.000000e+000
1.267578124999999e-008	3.140671e-007	1.000000e+000
1.287109374999999e-008	4.184311e-007	1.000000e+000
1.306640624999999e-008	5.546568e-007	1.000000e+000
1.326171874999999e-008	7.316121e-007	1.000000e+000
1.345703124999999e-008	9.603920e-007	1.000000e+000
1.365234374999999e-008	1.254815e-006	1.000000e+000
1.384765624999999e-008	1.632018e-006	1.000000e+000
1.404296874999999e-008	2.113160e-006	1.000000e+000
1.423828124999999e-008	2.724260e-006	1.000000e+000
1.443359374999999e-008	3.497177e-006	1.000000e+000
1.462890624999999e-008	4.470774e-006	1.000000e+000
1.482421874999999e-008	5.692258e-006	1.000000e+000
1.501953124999999e-008	7.218764e-006	1.000000e+000
1.521484374999999e-008	9.119173e-006	1.000000e+000
1.541015625000000e-008	1.147622e-005	1.000000e+000
1.560546875000000e-008	1.438893e-005	1.000000e+000
1.580078125000000e-008	1.797537e-005	1.000000e+000
1.599609375000000e-008	2.237585e-005	1.000000e+000
1.619140625000000e-008	2.775655e-005	1.000000e+000
1.638671875000000e-008	3.431353e-005	1.000000e+000
1.658203125000000e-008	4.227745e-005	1.000000e+000
1.677734375000001e-008	5.191872e-005	1.000000e+000
1.697265625000001e-008	6.355328e-005	1.000000e+000
1.716796875000001e-008	7.754915e-005	1.000000e+000
1.736328125000001e-008	9.433366e-005	1.000000e+000
1.755859375000001e-008	1.144014e-004	1.000000e+000
1.775390625000001e-008	1.383231e-004	1.000000e+000
1.794921875000001e-008	1.667553e-004	1.000000e+000
1.814453125000002e-008	2.004510e-004	1.000000e+000
1.833984375000002e-008	2.402713e-004	1.000000e+000
1.853515625000002e-008	2.871981e-004	1.000000e+000
1.873046875000002e-008	3.423473e-004	1.000000e+000
1.892578125000002e-008	4.069842e-004	1.000000e+000
1.912109375000002e-008	4.825388e-004	1.000000e+000
1.931640625000002e-008	5.706226e-004	1.000000e+000
1.951171875000003e-008	6.730472e-004	1.000000e+000
1.970703125000003e-008	7.918425e-004	1.000000e+000
1.990234375000003e-008	9.292773e-004	1.000000e+000
2.009765625000003e-008	1.087880e-003	1.000000e+000
2.029296875000003e-008	1.270462e-003	1.000000e+000
2.048828125000003e-008	1.480137e-003	1.000000e+000
2.068359375000003e-008	1.720350e-003	1.000000e+000
2.087890625000004e-008	1.994894e-003	1.000000e+000
2.107421875000004e-008	2.307943e-003	1.000000e+000
2.126953125000004e-008	2.664070e-003	1.000000e+000
2.146484375000004e-008	3.068276e-003	1.000000e+000
2.166015625000004e-008	3.526014e-003	1.000000e+000
2.185546875000004e-008	4.043211e-003	1.000000e+000
2.205078125000004e-008	4.626296e-003	1.000000e+000
2.224609375000005e-008	5.282217e-003	1.000000e+000
2.244140625000005e-008	6.018471e-003	1.000000e+000
2.263671875000005e-008	6.843113e-003	1.000000e+000
2.283203125000005e-008	7.764785e-003	1.000000e+000
2.302734375000005e-008	8.792722e-003	1.000000e+000
2.322265625000005e-008	9.936769e-003	1.000000e+000
2.341796875000005e-008	1.120739e-002	1.000000e+000
2.361328125000006e-008	1.261568e-002	1.000000e+000
2.380859375000006e-008	1.417334e-002	1.000000e+000
2.400390625000006e-008	1.589272e-002	1.000000e+000
2.419921875000006e-008	1.778677e-002	1.000000e+000
2.439453125000006e-008	1.986903e-002	1.000000e+000
2.458984375000006e-008	2.215364e-002	1.000000e+000
2.478515625000006e-008	2.465529e-002	1.000000e+000
2.498046875000007e-008	2.738917e-002	1.000000e+000
2.517578125000007e-008	3.037099e-002	1.000000e+000
2.537109375000007e-008	3.361686e-002	1.000000e+000
2.556640625000007e-008	3.714328e-002	1.000000e+000
2.576171875000007e-008	4.096708e-002	1.000000e+000
2.595703125000007e-008	4.510532e-002	1.000000e+000
2.615234375000007e-008	4.957521e-002	1.000000e+000
2.634765625000008e-008	5.439407e-002	1.000000e+000
2.654296875000008e-008	5.957917e-002	1.000000e+000
2.673828125000008e-008	6.514769e-002	1.000000e+000
2.693359375000008e-008	7.111654e-002	1.000000e+000
2.712890625000008e-008	7.750231e-002	1.000000e+000
2.732421875000008e-008	8.432107e-002	1.000000e+000
2.751953125000008e-008	9.158831e-002	1.000000e+000
2.771484375000009e-008	9.931874e-002	1.000000e+000
2.791015625000009e-008	1.075262e-001	1.000000e+000
2.810546875000009e-008	1.162235e-001	1.000000e+000
2.830078125000009e-008	1.254221e-001	1.000000e+000
2.849609375000009e-008	1.351324e-001	1.000000e+000
2.869140625000009e-008	1.453630e-001	1.000000e+000
2.888671875000009e-008	1.561211e-001	1.000000e+000
2.908203125000010e-008	1.674118e-001	1.000000e+000
2.927734375000010e-008	1.792385e-001	1.000000e+000
2.947265625000010e-008	1.916023e-001	1.000000e+000
2.966796875000010e-008	2.045021e-001	1.000000e+000
2.986328125000010e-008	2.179345e-001	1.000000e+000
3.005859375000010e-008	2.318936e-001	1.000000e+000
3.025390625000010e-008	2.463707e-001	1.000000e+000
3.044921875000010e-008	2.613546e-001	1.000000e+000
3.064453125000009e-008	2.768311e-001	1.000000e+000
3.083984375000009e-008	2.927833e-001	1.000000e+000
3.103515625000009e-008	3.091913e-001	1.000000e+000
3.123046875000009e-008	3.260323e-001	1.000000e+000
3.142578125000009e-008	3.432803e-001	1.000000e+000
3.162109375000008e-008	3.609068e-001	1.000000e+000
3.181640625000008e-008	3.788799e-001	1.000000e+000
3.201171875000008e-008	3.971652e-001	1.000000e+000
3.220703125000008e-008	4.157252e-001	1.000000e+000
3.240234375000008e-008	4.345198e-001	1.000000e+000
3.259765625000008e-008	4.535066e-001	1.000000e+000
3.279296875000007e-008	4.726405e-001	1.000000e+000
3.298828125000007e-008	4.918741e-001	1.000000e+000
3.318359375000007e-008	5.111584e-001	1.000000e+000
3.337890625000007e-008	5.304422e-001	1.000000e+000
3.357421875000007e-008	5.496731e-001	1.000000e+000
3.376953125000006e-008	5.687970e-001	1.000000e+000
3.396484375000006e-008	5.877593e-001	1.000000e+000
3.416015625000006e-008	6.065043e-001	1.000000e+000
3.435546875000006e-008	6.249765e-001	1.000000e+000
3.455078125000006e-008	6.431200e-001	1.000000e+000
3.474609375000005e-008	6.608794e-001	1.000000e+000
3.494140625000005e-008	6.782001e-001	1.000000e+000
3.513671875000005e-008	6.950287e-001	1.000000e+000
3.533203125000005e-008	7.113131e-001	1.000000e+000
3.552734375000005e-008	7.270032e-001	1.000000e+000
3.572265625000005e-008	7.420511e-001	1.000000e+000
3.591796875000004e-008	7.564117e-001	1.000000e+000
3.611328125000004e-008	7.700426e-001	1.000000e+000
3.630859375000004e-008	7.829050e-001	1.000000e+000
3.650390625000004e-008	7.949637e-001	1.000000e+000
3.669921875000004e-008	8.061874e-001	1.000000e+000
3.689453125000003e-008	8.165489e-001	1.000000e+000
3.708984375000003e-008	8.260260e-001	1.000000e+000
3.728515625000003e-008	8.346006e-001	1.000000e+000
3.748046875000003e-008	8.422601e-001	1.000000e+000
3.767578125000003e-008	8.489965e-001	1.000000e+000
3.787109375000003e-008	8.548075e-001	1.000000e+000
3.806640625000002e-008	8.596956e-001	1.000000e+000
3.826171875000002e-008	8.636687e-001	1.000000e+000
3.845703125000002e-008	8.667405e-001	1.000000e+000
3.865234375000002e-008	8.689293e-001	1.000000e+000
3.884765625000002e-008	8.702588e-001	1.000000e+000
3.904296875000001e-008	8.707578e-001	1.000000e+000
3.923828125000001e-008	8.704600e-001	1.000000e+000
3.943359375000001e-008	8.694032e-001	1.000000e+000
3.962890625000001e-008	8.676302e-001	1.000000e+000
3.982421875000001e-008	8.651872e-001	1.000000e+000
4.001953125000000e-008	8.621244e-001	1.000000e+000
4.021484375000000e-008	8.584954e-001	1.000000e+000
4.041015625000000e-008	8.543560e-001	1.000000e+000
4.060546875000000e-008	8.497650e-001	1.000000e+000
4.080078125000000e-008	8.447830e-001	1.000000e+000
4.099609375000000e-008	8.394719e-001	1.000000e+000
4.119140624999999e-008	8.338946e-001	1.000000e+000
4.138671874999999e-008	8.281144e-001	1.000000e+000
4.158203124999999e-008	8.221943e-001	1.000000e+000
4.177734374999999e-008	8.161971e-001	1.000000e+000
4.197265624999999e-008	8.101840e-001	1.000000e+000
4.216796874999998e-008	8.042146e-001	1.000000e+000
4.236328124999998e-008	7.983465e-001	1.000000e+000
4.255859374999998e-008	7.926345e-001	1.000000e+000
4.275390624999998e-008	7.871304e-001	1.000000e+000
4.294921874999998e-008	7.818824e-001	1.000000e+000
4.314453124999997e-008	7.769347e-001	1.000000e+000
4.333984374999997e-008	7.723275e-001	1.000000e+000
4.353515624999997e-008	7.680962e-001	1.000000e+000
4.373046874999997e-008	7.642715e-001	1.000000e+000
4.392578124999997e-008	7.608790e-001	1.000000e+000
4.412109374999997e-008	7.579394e-001	1.000000e+000
4.431640624999996e-008	7.554677e-001	1.000000e+000
4.451171874999996e-008	7.534737e-001	1.000000e+000
4.470703124999996e-008	7.519620e-001	1.000000e+000
4.490234374999996e-008	7.509318e-001	1.000000e+000
4.509765624999996e-008	7.503772e-001	1.000000e+000
4.529296874999995e-008	7.502873e-001	1.000000e+000
4.548828124999995e-008	7.506463e-001	1.000000e+000
4.568359374999995e-008	7.514340e-001	1.000000e+000
4.587890624999995e-008	7.526261e-001	1.000000e+000
4.607421874999995e-008	7.541941e-001	1.000000e+000
4.626953124999994e-008	7.561064e-001	1.000000e+000
4.646484374999994e-008	7.583283e-001	1.000000e+000
4.666015624999994e-008	7.608223e-001	1.000000e+000
4.685546874999994e-008	7.635490e-001	1.000000e+000
4.705078124999994e-008	7.664675e-001	1.000000e+000
4.724609374999994e-008	7.695353e-001	1.000000e+000
4.744140624999993e-008	7.727098e-001	1.000000e+000
4.763671874999993e-008	7.759482e-001	1.000000e+000
4.783203124999993e-008	7.792081e-001	1.000000e+000
4.802734374999993e-008	7.824479e-001	1.000000e+000
4.822265624999993e-008	7.856275e-001	1.000000e+000
4.841796874999992e-008	7.887085e-001	1.000000e+000
4.861328124999992e-008	7.916551e-001	1.000000e+000
4.880859374999992e-008	7.944338e-001	1.000000e+000
4.900390624999992e-008	7.970142e-001	1.000000e+000
4.919921874999992e-008	7.993693e-001	1.000000e+000
4.939453124999991e-008	8.014757e-001	1.000000e+000
4.958984374999991e-008	8.033136e-001	1.000000e+000
4.978515624999991e-008	8.048673e-001	1.000000e+000
4.998046874999991e-008	8.061252e-001	1.000000e+000
5.017578124999991e-008	8.070797e-001	1.000000e+000
5.037109374999991e-008	8.077274e-001	1.000000e+000
5.056640624999990e-008	8.080691e-001	1.000000e+000
5.076171874999990e-008	8.081095e-001	1.000000e+000
5.095703124999990e-008	8.078572e-001	1.000000e+000
5.115234374999990e-008	8.073242e-001	1.000000e+000
5.134765624999990e-008	8.065264e-001	1.000000e+000
5.154296874999989e-008	8.054824e-001	1.000000e+000
5.173828124999989e-008	8.042139e-001	1.000000e+000
5.193359374999989e-008	8.027449e-001	1.000000e+000
5.212890624999989e-008	8.011017e-001	1.000000e+000
5.232421874999989e-008	7.993121e-001	1.000000e+000
5.251953124999988e-008	7.974052e-001	1.000000e+000
5.271484374999988e-008	7.954113e-001	1.000000e+000
5.291015624999988e-008	7.933607e-001	1.000000e+000
5.310546874999988e-008	7.912841e-001	1.000000e+000
5.330078124999988e-008	7.892115e-001	1.000000e+000
5.349609374999988e-008	7.871722e-001	1.000000e+000
5.369140624999987e-008	7.851945e-001	1.000000e+000
5.388671874999987e-008	7.833049e-001	1.000000e+000
5.408203124999987e-008	7.815280e-001	1.000000e+000
5.427734374999987e-008	7.798864e-001	1.000000e+000
5.447265624999987e-008	7.784001e-001	1.000000e+000
5.466796874999986e-008	7.770864e-001	1.000000e+000
5.486328124999986e-008	7.759596e-001	1.000000e+000
5.505859374999986e-008	7.750312e-001	1.000000e+000
5.525390624999986e-008	7.743094e-001	1.000000e+000
5.544921874999986e-008	7.737993e-001	1.000000e+000
5.564453124999985e-008	7.735027e-001	1.000000e+000
5.583984374999985e-008	7.734183e-001	1.000000e+000
5.603515624999985e-008	7.735417e-001	1.000000e+000
5.623046874999985e-008	7.738658e-001	1.000000e+000
5.642578124999985e-008	7.743802e-001	1.000000e+000
5.662109374999985e-008	7.750723e-001	1.000000e+000
5.681640624999984e-008	7.759272e-001	1.000000e+000
5.701171874999984e-008	7.769277e-001	1.000000e+000
5.720703124999984e-008	7.780550e-001	1.000000e+000
5.740234374999984e-008	7.792888e-001	1.000000e+000
5.759765624999984e-008	7.806074e-001	1.000000e+000
5.779296874999983e-008	7.819888e-001	1.000000e+000
5.798828124999983e-008	7.834103e-001	1.000000e+000
5.818359374999983e-008	7.848489e-001	1.000000e+000
5.837890624999983e-008	7.862822e-001	1.000000e+000
5.857421874999983e-008	7.876883e-001	1.000000e+000
5.876953124999982e-008	7.890460e-001	1.000000e+000
5.896484374999982e-008	7.903357e-001	1.000000e+000
5.916015624999982e-008	7.915388e-001	1.000000e+000
5.935546874999982e-008	7.926388e-001	1.000000e+000
5.955078124999982e-008	7.936209e-001	1.000000e+000
5.974609374999982e-008	7.944726e-001	1.000000e+000
5.994140624999983e-008	7.951838e-001	1.000000e+000
6.013671874999983e-008	7.957464e-001	1.000000e+000
6.033203124999984e-008	7.961553e-001	1.000000e+000
6.052734374999984e-008	7.964075e-001	1.000000e+000
6.072265624999985e-008	7.965027e-001	1.000000e+000
6.091796874999985e-008	7.964430e-001	1.000000e+000
6.111328124999986e-008	7.962329e-001	1.000000e+000
6.130859374999986e-008	7.958792e-001	1.000000e+000
6.150390624999986e-008	7.953907e-001	1.000000e+000
6.169921874999987e-008	7.947785e-001	1.000000e+000
6.189453124999987e-008	7.940549e-001	1.000000e+000
6.208984374999988e-008	7.932341e-001	1.000000e+000
6.228515624999988e-008	7.923314e-001	1.000000e+000
6.248046874999989e-008	7.913632e-001	1.000000e+000
6.267578124999989e-008	7.903464e-001	1.000000e+000
6.287109374999990e-008	7.892986e-001	1.000000e+000
6.306640624999990e-008	7.882373e-001	1.000000e+000
6.326171874999991e-008	7.871800e-001	1.000000e+000
6.345703124999991e-008	7.861437e-001	1.000000e+000
6.365234374999992e-008	7.851449e-001	1.000000e+000
6.384765624999992e-008	7.841988e-001	1.000000e+000
6.404296874999993e-008	7.833198e-001	1.000000e+000
6.423828124999993e-008	7.825208e-001	1.000000e+000
6.443359374999994e-008	7.818131e-001	1.000000e+000
6.462890624999994e-008	7.812063e-001	1.000000e+000
6.482421874999995e-008	7.807081e-001	1.000000e+000
6.501953124999995e-008	7.803246e-001	1.000000e+000
6.521484374999996e-008	7.800594e-001	1.000000e+000
6.541015624999996e-008	7.799145e-001	1.000000e+000
6.560546874999996e-008	7.798897e-001	1.000000e+000
6.580078124999997e-008	7.799828e-001	1.000000e+000
6.599609374999997e-008	7.801899e-001	1.000000e+000
6.619140624999998e-008	7.805050e-001	1.000000e+000
6.638671874999998e-008	7.809207e-001	1.000000e+000
6.658203124999999e-008	7.814279e-001	1.000000e+000
6.677734374999999e-008	7.820163e-001	1.000000e+000
6.697265625000000e-008	7.826742e-001	1.000000e+000
6.716796875000000e-008	7.833893e-001	1.000000e+000
6.736328125000001e-008	7.841483e-001	1.000000e+000
6.755859375000001e-008	7.849375e-001	1.000000e+000
6.775390625000002e-008	7.857431e-001	1.000000e+000
6.794921875000002e-008	7.865511e-001	1.000000e+000
6.814453125000003e-008	7.873476e-001	1.000000e+000
6.833984375000003e-008	7.881196e-001	1.000000e+000
6.853515625000004e-008	7.888542e-001	1.000000e+000
6.873046875000004e-008	7.895399e-001	1.000000e+000
6.892578125000005e-008	7.901659e-001	1.000000e+000
6.912109375000005e-008	7.907226e-001	1.000000e+000
6.931640625000005e-008	7.912018e-001	1.000000e+000
6.951171875000006e-008	7.915969e-001	1.000000e+000
6.970703125000006e-008	7.919028e-001	1.000000e+000
6.990234375000007e-008	7.921157e-001	1.000000e+000
7.009765625000007e-008	7.922338e-001	1.000000e+000
7.029296875000008e-008	7.922570e-001	1.000000e+000
7.048828125000008e-008	7.921863e-001	1.000000e+000
7.068359375000009e-008	7.920249e-001	1.000000e+000
7.087890625000009e-008	7.917771e-001	1.000000e+000
7.107421875000010e-008	7.914489e-001	1.000000e+000
7.126953125000010e-008	7.910472e-001	1.000000e+000
7.146484375000011e-008	7.905803e-001	1.000000e+000
7.166015625000011e-008	7.900573e-001	1.000000e+000
7.185546875000012e-008	7.894884e-001	1.000000e+000
7.205078125000012e-008	7.888840e-001	1.000000e+000
7.224609375000013e-008	7.882554e-001	1.000000e+000
7.244140625000013e-008	7.876136e-001	1.000000e+000
7.263671875000014e-008	7.869700e-001	1.000000e+000
7.283203125000014e-008	7.863356e-001	1.000000e+000
