time	V(out)	V(n001)
0.000000000000000e+000	0.000000e+000	0.000000e+000
4.571428553162046e-012	-1.972113e-043	6.095238e-004
9.142857106324092e-012	-1.754769e-043	1.219048e-003
1.371428565948614e-011	6.520328e-044	1.828571e-003
1.828571421264818e-011	5.248292e-043	2.438095e-003
2.285714276581023e-011	1.203401e-042	3.047619e-003
2.742857131897227e-011	2.100918e-042	3.657143e-003
3.199999987213431e-011	3.217381e-042	4.266667e-003
6.399999974426862e-011	1.118546e-037	8.533333e-003
1.153329161678702e-010	2.628950e-036	1.537772e-002
1.612475900684617e-010	2.058072e-035	2.149968e-002
2.006791160501047e-010	1.126866e-034	2.675722e-002
2.375008306045179e-010	7.834893e-034	3.166678e-002
2.823768716514658e-010	6.185087e-033	3.765025e-002
3.266751988547150e-010	6.924678e-032	4.355669e-002
3.834424859881547e-010	9.487286e-031	5.112566e-002
4.446670519370527e-010	1.802234e-029	5.928894e-002
5.206508061042916e-010	3.480225e-028	6.942011e-002
6.054351962059249e-010	4.459416e-027	8.072469e-002
6.932959505926627e-010	3.022372e-026	9.243946e-002
7.684259296349895e-010	1.860283e-025	1.024568e-001
8.590920054137961e-010	1.135128e-024	1.145456e-001
9.424619561028454e-010	6.687118e-024	1.256616e-001
1.045303948904643e-009	4.430221e-023	1.393739e-001
1.148951527154555e-009	2.976694e-022	1.531935e-001
1.272286184764790e-009	2.153249e-021	1.696382e-001
1.401767559431062e-009	1.075021e-020	1.869023e-001
1.512598770351396e-009	4.297704e-020	2.016798e-001
1.636197237809740e-009	1.796610e-019	2.181596e-001
1.757587829481478e-009	7.184425e-019	2.343450e-001
1.895930301330450e-009	3.092953e-018	2.527907e-001
2.038767969935748e-009	1.318083e-017	2.718357e-001
2.199235758526999e-009	5.130318e-017	2.932314e-001
2.336744003995341e-009	1.654885e-016	3.115659e-001
2.496744535709370e-009	5.672392e-016	3.328993e-001
2.642405175703323e-009	1.732918e-015	3.523207e-001
2.813534783584763e-009	5.847984e-015	3.751380e-001
2.981884833030020e-009	1.868965e-014	3.975846e-001
3.173826138172714e-009	6.257316e-014	4.231768e-001
3.360638147441910e-009	1.791669e-013	4.480851e-001
3.532010734154307e-009	4.682527e-013	4.709348e-001
3.722180317721239e-009	1.291527e-012	4.962907e-001
3.912689319066311e-009	3.362095e-012	5.216919e-001
4.108001819066311e-009	8.518433e-012	5.477336e-001
4.303314319066310e-009	2.048208e-011	5.737752e-001
4.495124592575125e-009	4.686304e-011	5.993499e-001
4.690437092575125e-009	1.050352e-010	6.253916e-001
4.885749592575125e-009	2.270766e-010	6.514333e-001
5.081062092575124e-009	4.756798e-010	6.774749e-001
5.276374592575124e-009	9.677096e-010	7.035166e-001
5.471687092575124e-009	1.915716e-009	7.295583e-001
5.666999592575124e-009	3.696952e-009	7.555999e-001
5.862312092575124e-009	6.965814e-009	7.816416e-001
6.057624592575123e-009	1.283318e-008	8.076833e-001
6.252937092575123e-009	2.314670e-008	8.337249e-001
6.448249592575123e-009	4.092068e-008	8.597666e-001
6.643562092575123e-009	7.098323e-008	8.858083e-001
6.838874592575122e-009	1.209340e-007	9.118499e-001
7.034187092575122e-009	2.025375e-007	9.378916e-001
7.229499592575122e-009	3.214464e-007	9.639333e-001
7.304687500000000e-009	3.819637e-007	9.739583e-001
7.349624185150244e-009	4.262601e-007	9.799499e-001
7.410126629699510e-009	4.960261e-007	9.880169e-001
7.508987337030048e-009	6.251851e-007	1.000000e+000
7.562911359210342e-009	7.132950e-007	1.000000e+000
7.634810055450733e-009	8.546762e-007	1.000000e+000
7.778607447931515e-009	1.223401e-006	1.000000e+000
7.973919947931515e-009	1.929396e-006	1.000000e+000
8.169232447931515e-009	2.970453e-006	1.000000e+000
8.364544947931515e-009	4.515238e-006	1.000000e+000
8.559857447931514e-009	6.779702e-006	1.000000e+000
8.755169947931514e-009	1.006035e-005	1.000000e+000
8.950482447931514e-009	1.475963e-005	1.000000e+000
9.145794947931514e-009	2.141771e-005	1.000000e+000
9.341107447931514e-009	3.075174e-005	1.000000e+000
9.536419947931513e-009	4.370384e-005	1.000000e+000
9.731732447931513e-009	6.149885e-005	1.000000e+000
9.927044947931513e-009	8.571322e-005	1.000000e+000
1.012235744793151e-008	1.183559e-004	1.000000e+000
1.031766994793151e-008	1.619622e-004	1.000000e+000
1.051298244793151e-008	2.197015e-004	1.000000e+000
1.070829494793151e-008	2.954985e-004	1.000000e+000
1.090360744793151e-008	3.941685e-004	1.000000e+000
1.109891994793151e-008	5.215658e-004	1.000000e+000
1.129423244793151e-008	6.847435e-004	1.000000e+000
1.148954494793151e-008	8.921229e-004	1.000000e+000
1.168485744793151e-008	1.153669e-003	1.000000e+000
1.188016994793151e-008	1.481071e-003	1.000000e+000
1.207548244793151e-008	1.887913e-003	1.000000e+000
1.227079494793151e-008	2.389851e-003	1.000000e+000
1.246610744793151e-008	3.004756e-003	1.000000e+000
1.266141994793151e-008	3.752853e-003	1.000000e+000
1.285673244793151e-008	4.656815e-003	1.000000e+000
1.305204494793151e-008	5.741829e-003	1.000000e+000
1.324735744793151e-008	7.035606e-003	1.000000e+000
1.344266994793151e-008	8.568336e-003	1.000000e+000
1.363798244793151e-008	1.037259e-002	1.000000e+000
1.383329494793151e-008	1.248311e-002	1.000000e+000
1.402860744793151e-008	1.493661e-002	1.000000e+000
1.422391994793151e-008	1.777137e-002	1.000000e+000
1.441923244793151e-008	2.102685e-002	1.000000e+000
1.461454494793151e-008	2.474317e-002	1.000000e+000
1.480985744793151e-008	2.896054e-002	1.000000e+000
1.500516994793151e-008	3.371858e-002	1.000000e+000
1.520048244793151e-008	3.905561e-002	1.000000e+000
1.539579494793151e-008	4.500789e-002	1.000000e+000
1.559110744793151e-008	5.160878e-002	1.000000e+000
1.578641994793151e-008	5.888797e-002	1.000000e+000
1.598173244793151e-008	6.687063e-002	1.000000e+000
1.617704494793152e-008	7.557668e-002	1.000000e+000
1.637235744793152e-008	8.502002e-002	1.000000e+000
1.656766994793152e-008	9.520793e-002	1.000000e+000
1.676298244793152e-008	1.061405e-001	1.000000e+000
1.695829494793152e-008	1.178103e-001	1.000000e+000
1.715360744793152e-008	1.302021e-001	1.000000e+000
1.734891994793153e-008	1.432927e-001	1.000000e+000
1.754423244793153e-008	1.570512e-001	1.000000e+000
1.773954494793153e-008	1.714389e-001	1.000000e+000
1.793485744793153e-008	1.864104e-001	1.000000e+000
1.813016994793153e-008	2.019135e-001	1.000000e+000
1.832548244793153e-008	2.178906e-001	1.000000e+000
1.852079494793153e-008	2.342791e-001	1.000000e+000
1.871610744793154e-008	2.510130e-001	1.000000e+000
1.891141994793154e-008	2.680234e-001	1.000000e+000
1.910673244793154e-008	2.852403e-001	1.000000e+000
1.930204494793154e-008	3.025934e-001	1.000000e+000
1.949735744793154e-008	3.200133e-001	1.000000e+000
1.969266994793154e-008	3.374326e-001	1.000000e+000
1.988798244793154e-008	3.547871e-001	1.000000e+000
2.008329494793155e-008	3.720164e-001	1.000000e+000
2.027860744793155e-008	3.890643e-001	1.000000e+000
2.047391994793155e-008	4.058800e-001	1.000000e+000
2.066923244793155e-008	4.224176e-001	1.000000e+000
2.086454494793155e-008	4.386369e-001	1.000000e+000
2.105985744793155e-008	4.545024e-001	1.000000e+000
2.125516994793155e-008	4.699839e-001	1.000000e+000
2.145048244793156e-008	4.850553e-001	1.000000e+000
2.164579494793156e-008	4.996943e-001	1.000000e+000
2.184110744793156e-008	5.138817e-001	1.000000e+000
2.203641994793156e-008	5.276007e-001	1.000000e+000
2.223173244793156e-008	5.408359e-001	1.000000e+000
2.242704494793156e-008	5.535728e-001	1.000000e+000
2.262235744793156e-008	5.657973e-001	1.000000e+000
2.281766994793157e-008	5.774950e-001	1.000000e+000
2.301298244793157e-008	5.886511e-001	1.000000e+000
2.320829494793157e-008	5.992502e-001	1.000000e+000
2.340360744793157e-008	6.092765e-001	1.000000e+000
2.359891994793157e-008	6.187140e-001	1.000000e+000
2.379423244793157e-008	6.275471e-001	1.000000e+000
2.398954494793157e-008	6.357613e-001	1.000000e+000
2.418485744793158e-008	6.433442e-001	1.000000e+000
2.438016994793158e-008	6.502860e-001	1.000000e+000
2.457548244793158e-008	6.565809e-001	1.000000e+000
2.477079494793158e-008	6.622280e-001	1.000000e+000
2.496610744793158e-008	6.672323e-001	1.000000e+000
2.516141994793158e-008	6.716051e-001	1.000000e+000
2.535673244793158e-008	6.753648e-001	1.000000e+000
2.555204494793159e-008	6.785375e-001	1.000000e+000
2.574735744793159e-008	6.811568e-001	1.000000e+000
2.594266994793159e-008	6.832634e-001	1.000000e+000
2.613798244793159e-008	6.849051e-001	1.000000e+000
2.633329494793159e-008	6.861354e-001	1.000000e+000
2.652860744793159e-008	6.870126e-001	1.000000e+000
2.672391994793159e-008	6.875985e-001	1.000000e+000
2.691923244793160e-008	6.879564e-001	1.000000e+000
2.711454494793160e-008	6.881498e-001	1.000000e+000
2.730985744793160e-008	6.882403e-001	1.000000e+000
2.750516994793160e-008	6.882859e-001	1.000000e+000
2.770048244793160e-008	6.883393e-001	1.000000e+000
2.789579494793160e-008	6.884462e-001	1.000000e+000
2.809110744793160e-008	6.886441e-001	1.000000e+000
2.828641994793161e-008	6.889615e-001	1.000000e+000
2.848173244793161e-008	6.894170e-001	1.000000e+000
2.867704494793161e-008	6.900192e-001	1.000000e+000
2.887235744793161e-008	6.907669e-001	1.000000e+000
2.906766994793161e-008	6.916494e-001	1.000000e+000
2.926298244793161e-008	6.926482e-001	1.000000e+000
2.945829494793161e-008	6.937372e-001	1.000000e+000
2.965360744793162e-008	6.948854e-001	1.000000e+000
2.984891994793161e-008	6.960581e-001	1.000000e+000
3.004423244793161e-008	6.972186e-001	1.000000e+000
3.023954494793161e-008	6.983308e-001	1.000000e+000
3.043485744793161e-008	6.993605e-001	1.000000e+000
3.063016994793161e-008	7.002776e-001	1.000000e+000
3.082548244793160e-008	7.010571e-001	1.000000e+000
3.102079494793160e-008	7.016807e-001	1.000000e+000
3.121610744793160e-008	7.021371e-001	1.000000e+000
3.141141994793160e-008	7.024233e-001	1.000000e+000
3.160673244793160e-008	7.025437e-001	1.000000e+000
3.180204494793160e-008	7.025102e-001	1.000000e+000
3.199735744793159e-008	7.023413e-001	1.000000e+000
3.219266994793159e-008	7.020611e-001	1.000000e+000
3.238798244793159e-008	7.016979e-001	1.000000e+000
3.258329494793159e-008	7.012827e-001	1.000000e+000
3.277860744793159e-008	7.008471e-001	1.000000e+000
3.297391994793158e-008	7.004223e-001	1.000000e+000
3.316923244793158e-008	7.000373e-001	1.000000e+000
3.336454494793158e-008	6.997170e-001	1.000000e+000
3.355985744793158e-008	6.994818e-001	1.000000e+000
3.375516994793158e-008	6.993458e-001	1.000000e+000
3.395048244793157e-008	6.993171e-001	1.000000e+000
3.414579494793157e-008	6.993970e-001	1.000000e+000
3.434110744793157e-008	6.995804e-001	1.000000e+000
3.453641994793157e-008	6.998563e-001	1.000000e+000
3.473173244793157e-008	7.002088e-001	1.000000e+000
3.492704494793157e-008	7.006179e-001	1.000000e+000
3.512235744793156e-008	7.010608e-001	1.000000e+000
3.531766994793156e-008	7.015136e-001	1.000000e+000
3.551298244793156e-008	7.019525e-001	1.000000e+000
3.570829494793156e-008	7.023553e-001	1.000000e+000
3.590360744793156e-008	7.027026e-001	1.000000e+000
3.609891994793155e-008	7.029790e-001	1.000000e+000
3.629423244793155e-008	7.031736e-001	1.000000e+000
3.648954494793155e-008	7.032809e-001	1.000000e+000
3.668485744793155e-008	7.033008e-001	1.000000e+000
3.688016994793155e-008	7.032388e-001	1.000000e+000
3.707548244793154e-008	7.031050e-001	1.000000e+000
3.727079494793154e-008	7.029138e-001	1.000000e+000
3.746610744793154e-008	7.026831e-001	1.000000e+000
3.766141994793154e-008	7.024329e-001	1.000000e+000
3.785673244793154e-008	7.021843e-001	1.000000e+000
3.805204494793154e-008	7.019583e-001	1.000000e+000
3.824735744793153e-008	7.017745e-001	1.000000e+000
3.844266994793153e-008	7.016504e-001	1.000000e+000
3.863798244793153e-008	7.016002e-001	1.000000e+000
3.883329494793153e-008	7.016342e-001	1.000000e+000
3.902860744793153e-008	7.017589e-001	1.000000e+000
3.922391994793152e-008	7.019760e-001	1.000000e+000
3.941923244793152e-008	7.022837e-001	1.000000e+000
3.961454494793152e-008	7.026762e-001	1.000000e+000
3.980985744793152e-008	7.031449e-001	1.000000e+000
4.000516994793152e-008	7.036792e-001	1.000000e+000
4.020048244793151e-008	7.042671e-001	1.000000e+000
4.039579494793151e-008	7.048970e-001	1.000000e+000
4.059110744793151e-008	7.055576e-001	1.000000e+000
4.078641994793151e-008	7.062400e-001	1.000000e+000
4.098173244793151e-008	7.069377e-001	1.000000e+000
4.117704494793151e-008	7.076478e-001	1.000000e+000
4.137235744793150e-008	7.083710e-001	1.000000e+000
4.156766994793150e-008	7.091122e-001	1.000000e+000
4.176298244793150e-008	7.098799e-001	1.000000e+000
4.195829494793150e-008	7.106864e-001	1.000000e+000
4.215360744793150e-008	7.115471e-001	1.000000e+000
4.234891994793149e-008	7.124798e-001	1.000000e+000
4.254423244793149e-008	7.135036e-001	1.000000e+000
4.273954494793149e-008	7.146384e-001	1.000000e+000
4.293485744793149e-008	7.159036e-001	1.000000e+000
4.313016994793149e-008	7.173171e-001	1.000000e+000
4.332548244793148e-008	7.188948e-001	1.000000e+000
4.352079494793148e-008	7.206495e-001	1.000000e+000
4.371610744793148e-008	7.225903e-001	1.000000e+000
4.391141994793148e-008	7.247224e-001	1.000000e+000
4.410673244793148e-008	7.270471e-001	1.000000e+000
4.430204494793148e-008	7.295611e-001	1.000000e+000
4.449735744793147e-008	7.322576e-001	1.000000e+000
4.469266994793147e-008	7.351260e-001	1.000000e+000
4.488798244793147e-008	7.381530e-001	1.000000e+000
4.508329494793147e-008	7.413225e-001	1.000000e+000
4.527860744793147e-008	7.446170e-001	1.000000e+000
4.547391994793146e-008	7.480179e-001	1.000000e+000
4.566923244793146e-008	7.515061e-001	1.000000e+000
4.586454494793146e-008	7.550625e-001	1.000000e+000
4.605985744793146e-008	7.586688e-001	1.000000e+000
4.625516994793146e-008	7.623072e-001	1.000000e+000
4.645048244793145e-008	7.659609e-001	1.000000e+000
4.664579494793145e-008	7.696142e-001	1.000000e+000
4.684110744793145e-008	7.732517e-001	1.000000e+000
4.703641994793145e-008	7.768587e-001	1.000000e+000
4.723173244793145e-008	7.804204e-001	1.000000e+000
4.742704494793145e-008	7.839218e-001	1.000000e+000
4.762235744793144e-008	7.873468e-001	1.000000e+000
4.781766994793144e-008	7.906783e-001	1.000000e+000
4.801298244793144e-008	7.938974e-001	1.000000e+000
4.820829494793144e-008	7.969837e-001	1.000000e+000
4.840360744793144e-008	7.999147e-001	1.000000e+000
4.859891994793143e-008	8.026662e-001	1.000000e+000
4.879423244793143e-008	8.052128e-001	1.000000e+000
4.898954494793143e-008	8.075275e-001	1.000000e+000
4.918485744793143e-008	8.095832e-001	1.000000e+000
4.938016994793143e-008	8.113528e-001	1.000000e+000
4.957548244793142e-008	8.128104e-001	1.000000e+000
4.977079494793142e-008	8.139317e-001	1.000000e+000
4.996610744793142e-008	8.146952e-001	1.000000e+000
5.016141994793142e-008	8.150829e-001	1.000000e+000
5.035673244793142e-008	8.150813e-001	1.000000e+000
5.055204494793142e-008	8.146814e-001	1.000000e+000
5.074735744793141e-008	8.138799e-001	1.000000e+000
5.094266994793141e-008	8.126788e-001	1.000000e+000
5.113798244793141e-008	8.110861e-001	1.000000e+000
5.133329494793141e-008	8.091151e-001	1.000000e+000
5.152860744793141e-008	8.067845e-001	1.000000e+000
5.172391994793140e-008	8.041176e-001	1.000000e+000
5.191923244793140e-008	8.011419e-001	1.000000e+000
5.211454494793140e-008	7.978883e-001	1.000000e+000
5.230985744793140e-008	7.943897e-001	1.000000e+000
5.250516994793140e-008	7.906811e-001	1.000000e+000
5.270048244793140e-008	7.867976e-001	1.000000e+000
5.289579494793139e-008	7.827747e-001	1.000000e+000
5.309110744793139e-008	7.786462e-001	1.000000e+000
5.328641994793139e-008	7.744449e-001	1.000000e+000
5.348173244793139e-008	7.702012e-001	1.000000e+000
5.367704494793139e-008	7.659429e-001	1.000000e+000
5.387235744793138e-008	7.616953e-001	1.000000e+000
5.406766994793138e-008	7.574807e-001	1.000000e+000
5.426298244793138e-008	7.533187e-001	1.000000e+000
5.445829494793138e-008	7.492261e-001	1.000000e+000
5.465360744793138e-008	7.452178e-001	1.000000e+000
5.484891994793137e-008	7.413062e-001	1.000000e+000
5.504423244793137e-008	7.375025e-001	1.000000e+000
5.523954494793137e-008	7.338160e-001	1.000000e+000
5.543485744793137e-008	7.302553e-001	1.000000e+000
5.563016994793137e-008	7.268282e-001	1.000000e+000
5.582548244793137e-008	7.235419e-001	1.000000e+000
5.602079494793136e-008	7.204030e-001	1.000000e+000
5.621610744793136e-008	7.174180e-001	1.000000e+000
5.641141994793136e-008	7.145928e-001	1.000000e+000
5.660673244793136e-008	7.119327e-001	1.000000e+000
5.680204494793136e-008	7.094424e-001	1.000000e+000
5.699735744793135e-008	7.071260e-001	1.000000e+000
5.719266994793135e-008	7.049863e-001	1.000000e+000
5.738798244793135e-008	7.030250e-001	1.000000e+000
5.758329494793135e-008	7.012424e-001	1.000000e+000
5.777860744793135e-008	6.996374e-001	1.000000e+000
5.797391994793134e-008	6.982071e-001	1.000000e+000
5.816923244793134e-008	6.969473e-001	1.000000e+000
5.836454494793134e-008	6.958522e-001	1.000000e+000
5.855985744793134e-008	6.949142e-001	1.000000e+000
5.875516994793134e-008	6.941249e-001	1.000000e+000
5.895048244793134e-008	6.934747e-001	1.000000e+000
5.914579494793133e-008	6.929527e-001	1.000000e+000
5.934110744793133e-008	6.925478e-001	1.000000e+000
5.953641994793133e-008	6.922482e-001	1.000000e+000
5.973173244793133e-008	6.920421e-001	1.000000e+000
5.992704494793133e-008	6.919173e-001	1.000000e+000
6.012235744793134e-008	6.918620e-001	1.000000e+000
6.031766994793134e-008	6.918646e-001	1.000000e+000
6.051298244793135e-008	6.919133e-001	1.000000e+000
6.070829494793135e-008	6.919973e-001	1.000000e+000
6.090360744793136e-008	6.921055e-001	1.000000e+000
6.109891994793136e-008	6.922274e-001	1.000000e+000
6.129423244793137e-008	6.923529e-001	1.000000e+000
6.148954494793137e-008	6.924719e-001	1.000000e+000
6.168485744793138e-008	6.925747e-001	1.000000e+000
6.188016994793138e-008	6.926522e-001	1.000000e+000
6.207548244793138e-008	6.926956e-001	1.000000e+000
6.227079494793139e-008	6.926969e-001	1.000000e+000
6.246610744793139e-008	6.926488e-001	1.000000e+000
6.266141994793140e-008	6.925452e-001	1.000000e+000
6.285673244793140e-008	6.923816e-001	1.000000e+000
6.305204494793141e-008	6.921547e-001	1.000000e+000
6.324735744793141e-008	6.918635e-001	1.000000e+000
6.344266994793142e-008	6.915090e-001	1.000000e+000
6.363798244793142e-008	6.910948e-001	1.000000e+000
6.383329494793143e-008	6.906265e-001	1.000000e+000
6.402860744793143e-008	6.901126e-001	1.000000e+000
6.422391994793144e-008	6.895639e-001	1.000000e+000
6.441923244793144e-008	6.889932e-001	1.000000e+000
6.461454494793145e-008	6.884154e-001	1.000000e+000
6.480985744793145e-008	6.878465e-001	1.000000e+000
6.500516994793146e-008	6.873035e-001	1.000000e+000
6.520048244793146e-008	6.868036e-001	1.000000e+000
6.539579494793147e-008	6.863632e-001	1.000000e+000
6.559110744793147e-008	6.859978e-001	1.000000e+000
6.578641994793147e-008	6.857206e-001	1.000000e+000
6.598173244793148e-008	6.855425e-001	1.000000e+000
6.617704494793148e-008	6.854709e-001	1.000000e+000
6.637235744793149e-008	6.855097e-001	1.000000e+000
6.656766994793149e-008	6.856588e-001	1.000000e+000
6.676298244793150e-008	6.859140e-001	1.000000e+000
6.695829494793150e-008	6.862671e-001	1.000000e+000
6.715360744793151e-008	6.867060e-001	1.000000e+000
6.734891994793151e-008	6.872155e-001	1.000000e+000
6.754423244793152e-008	6.877776e-001	1.000000e+000
6.773954494793152e-008	6.883724e-001	1.000000e+000
6.793485744793153e-008	6.889790e-001	1.000000e+000
6.813016994793153e-008	6.895763e-001	1.000000e+000
6.832548244793154e-008	6.901443e-001	1.000000e+000
6.852079494793154e-008	6.906646e-001	1.000000e+000
6.871610744793155e-008	6.911219e-001	1.000000e+000
6.891141994793155e-008	6.915042e-001	1.000000e+000
6.910673244793156e-008	6.918036e-001	1.000000e+000
6.930204494793156e-008	6.920168e-001	1.000000e+000
6.949735744793157e-008	6.921453e-001	1.000000e+000
6.969266994793157e-008	6.921953e-001	1.000000e+000
6.988798244793157e-008	6.921775e-001	1.000000e+000
7.008329494793158e-008	6.921066e-001	1.000000e+000
7.027860744793158e-008	6.920006e-001	1.000000e+000
7.047391994793159e-008	6.918799e-001	1.000000e+000
7.066923244793159e-008	6.917667e-001	1.000000e+000
7.086454494793160e-008	6.916835e-001	1.000000e+000
7.105985744793160e-008	6.916522e-001	1.000000e+000
