time	V(-1)	V(1)
0.000000000000000e+000	0.000000e+000	0.000000e+000
3.486327895075919e-015	0.000000e+000	4.648437e-007
6.972655790151838e-015	0.000000e+000	9.296874e-007
8.165976023952111e-012	0.000000e+000	1.088797e-003
1.632497939211407e-011	0.000000e+000	2.176664e-003
2.448398276027603e-011	0.000000e+000	3.264531e-003
3.264298612843799e-011	0.000000e+000	4.352398e-003
4.080198949659995e-011	0.000000e+000	5.440265e-003
4.896099286476191e-011	0.000000e+000	6.528132e-003
5.711999623292385e-011	0.000000e+000	7.615999e-003
1.142399924658477e-010	0.000000e+000	1.523200e-002
1.659329395221874e-010	0.000000e+000	2.212439e-002
2.057117249795294e-010	0.000000e+000	2.742823e-002
2.438912186161562e-010	0.000000e+000	3.251883e-002
2.840814691409681e-010	0.000000e+000	3.787753e-002
3.317140974439527e-010	0.000000e+000	4.422855e-002
3.859206861877182e-010	0.000000e+000	5.145609e-002
4.501395260554662e-010	0.000000e+000	6.001860e-002
5.240439027799957e-010	0.000000e+000	6.987252e-002
6.112579443177877e-010	0.000000e+000	8.150106e-002
6.902207801778931e-010	0.000000e+000	9.202944e-002
7.636518732869118e-010	0.000000e+000	1.018203e-001
8.441185122776208e-010	0.000000e+000	1.125491e-001
9.297575878683409e-010	0.000000e+000	1.239677e-001
1.025985477341930e-009	0.000000e+000	1.367981e-001
1.130630816521231e-009	0.000000e+000	1.507508e-001
1.247880425563493e-009	0.000000e+000	1.663841e-001
1.376660348400339e-009	0.000000e+000	1.835547e-001
1.487750807839299e-009	0.000000e+000	1.983668e-001
1.604709124958866e-009	0.000000e+000	2.139612e-001
1.725675957752924e-009	0.000000e+000	2.300901e-001
1.858239160437335e-009	0.000000e+000	2.477652e-001
1.999216643272886e-009	0.000000e+000	2.665622e-001
2.153683016175651e-009	0.000000e+000	2.871577e-001
2.286567041633355e-009	0.000000e+000	3.048756e-001
2.440260620769601e-009	0.000000e+000	3.253681e-001
2.582256084697063e-009	0.000000e+000	3.443008e-001
2.747454370837844e-009	0.000000e+000	3.663273e-001
2.911038230725841e-009	0.000000e+000	3.881384e-001
3.096222652557303e-009	0.000000e+000	4.128297e-001
3.260256723834193e-009	0.000000e+000	4.347009e-001
3.432884628870851e-009	0.000000e+000	4.577180e-001
3.607973540509676e-009	0.000000e+000	4.810631e-001
3.796676023310928e-009	0.000000e+000	5.062234e-001
3.993063679427335e-009	0.000000e+000	5.324085e-001
4.171059219747749e-009	0.000000e+000	5.561413e-001
4.371063337330226e-009	0.000000e+000	5.828084e-001
4.559325409421265e-009	0.000000e+000	6.079100e-001
4.771515035309709e-009	0.000000e+000	6.362020e-001
4.982269016823304e-009	0.000000e+000	6.643025e-001
5.177188220764757e-009	0.000000e+000	6.902918e-001
5.398698218638316e-009	0.000000e+000	7.198264e-001
5.604305063745107e-009	0.000000e+000	7.472407e-001
5.837221248603717e-009	0.000000e+000	7.782962e-001
6.066081284102881e-009	0.000000e+000	8.088108e-001
6.280102086787659e-009	0.000000e+000	8.373470e-001
6.509893944805615e-009	0.000000e+000	8.679858e-001
6.740175236027837e-009	0.000000e+000	8.986900e-001
6.987284346343067e-009	0.000000e+000	9.316379e-001
7.245267371136722e-009	0.000000e+000	9.660357e-001
7.291620785328828e-009	0.000000e+000	9.722161e-001
7.394049338989472e-009	0.000000e+000	9.858732e-001
7.409185147705261e-009	0.000000e+000	9.878913e-001
7.424320956421051e-009	0.000000e+000	9.899094e-001
7.439456765136841e-009	0.000000e+000	9.919276e-001
7.454592573852631e-009	0.000000e+000	9.939457e-001
7.469728382568420e-009	0.000000e+000	9.959638e-001
7.484864191284210e-009	0.000000e+000	9.979819e-001
7.499999999999999e-009	0.000000e+000	1.000000e+000
7.500574881028026e-009	0.000000e+000	1.000000e+000
7.501724643084079e-009	0.000000e+000	1.000000e+000
7.576836499057669e-009	0.000000e+000	1.000000e+000
7.651948355031257e-009	0.000000e+000	1.000000e+000
7.727060211004847e-009	0.000000e+000	1.000000e+000
7.802172066978435e-009	0.000000e+000	1.000000e+000
7.877283922952025e-009	0.000000e+000	1.000000e+000
7.952395778925613e-009	0.000000e+000	1.000000e+000
8.027507634899203e-009	0.000000e+000	1.000000e+000
8.277516735554371e-009	0.000000e+000	1.000000e+000
8.521306226992658e-009	0.000000e+000	1.000000e+000
8.781134810552607e-009	0.000000e+000	1.000000e+000
9.044051122658779e-009	0.000000e+000	1.000000e+000
9.323198620340025e-009	0.000000e+000	1.000000e+000
9.609841941220727e-009	0.000000e+000	1.000000e+000
9.872209005701638e-009	0.000000e+000	1.000000e+000
1.016086382345936e-008	0.000000e+000	1.000000e+000
1.044391609996909e-008	0.000000e+000	1.000000e+000
1.071426294269483e-008	0.000000e+000	1.000000e+000
1.100002671500053e-008	0.000000e+000	1.000000e+000
1.128746122685180e-008	0.000000e+000	1.000000e+000
1.159157301919079e-008	0.000000e+000	1.000000e+000
1.190260652903860e-008	0.000000e+000	1.000000e+000
1.219079821870700e-008	0.000000e+000	1.000000e+000
1.250473669060838e-008	0.000000e+000	1.000000e+000
1.281397276453714e-008	0.000000e+000	1.000000e+000
1.311118513541773e-008	0.000000e+000	1.000000e+000
1.342356860679535e-008	0.000000e+000	1.000000e+000
1.373843123966989e-008	0.000000e+000	1.000000e+000
1.407007252921226e-008	0.000000e+000	1.000000e+000
1.440000808943497e-008	0.000000e+000	1.000000e+000
1.472039128581629e-008	0.000000e+000	1.000000e+000
1.505871842647579e-008	0.000000e+000	1.000000e+000
1.540035847067880e-008	0.000000e+000	1.000000e+000
1.572245750650675e-008	0.000000e+000	1.000000e+000
1.606812105791013e-008	0.000000e+000	1.000000e+000
1.641128347269384e-008	0.000000e+000	1.000000e+000
1.675991628519384e-008	0.000000e+000	1.000000e+000
1.709886422072036e-008	0.000000e+000	1.000000e+000
1.744749703322036e-008	0.000000e+000	1.000000e+000
1.779612984572037e-008	0.000000e+000	1.000000e+000
1.814175642957323e-008	0.000000e+000	1.000000e+000
1.849038924207323e-008	0.000000e+000	1.000000e+000
1.883902205457323e-008	0.000000e+000	1.000000e+000
1.918765486707323e-008	0.000000e+000	1.000000e+000
1.953628767957323e-008	0.000000e+000	1.000000e+000
1.988492049207323e-008	0.000000e+000	1.000000e+000
2.023355330457323e-008	0.000000e+000	1.000000e+000
2.058218611707323e-008	0.000000e+000	1.000000e+000
2.093081892957323e-008	0.000000e+000	1.000000e+000
2.127945174207323e-008	0.000000e+000	1.000000e+000
2.162808455457323e-008	0.000000e+000	1.000000e+000
2.197671736707323e-008	0.000000e+000	1.000000e+000
2.232535017957323e-008	0.000000e+000	1.000000e+000
2.267398299207323e-008	0.000000e+000	1.000000e+000
2.302261580457323e-008	0.000000e+000	1.000000e+000
2.337124861707323e-008	0.000000e+000	1.000000e+000
2.371988142957323e-008	0.000000e+000	1.000000e+000
2.406851424207323e-008	0.000000e+000	1.000000e+000
2.441714705457323e-008	0.000000e+000	1.000000e+000
2.476577986707323e-008	0.000000e+000	1.000000e+000
2.511441267957323e-008	0.000000e+000	1.000000e+000
2.546304549207323e-008	0.000000e+000	1.000000e+000
2.581167830457323e-008	0.000000e+000	1.000000e+000
2.616031111707323e-008	0.000000e+000	1.000000e+000
2.650894392957323e-008	0.000000e+000	1.000000e+000
2.685757674207323e-008	0.000000e+000	1.000000e+000
2.720620955457323e-008	0.000000e+000	1.000000e+000
2.755484236707323e-008	0.000000e+000	1.000000e+000
2.790347517957323e-008	0.000000e+000	1.000000e+000
2.825210799207323e-008	0.000000e+000	1.000000e+000
2.860074080457323e-008	0.000000e+000	1.000000e+000
2.894937361707323e-008	0.000000e+000	1.000000e+000
2.929800642957323e-008	0.000000e+000	1.000000e+000
2.964663924207323e-008	0.000000e+000	1.000000e+000
2.999527205457323e-008	0.000000e+000	1.000000e+000
3.034390486707322e-008	0.000000e+000	1.000000e+000
3.069253767957322e-008	0.000000e+000	1.000000e+000
3.104117049207322e-008	0.000000e+000	1.000000e+000
3.138980330457321e-008	0.000000e+000	1.000000e+000
3.173843611707321e-008	0.000000e+000	1.000000e+000
3.208706892957321e-008	0.000000e+000	1.000000e+000
3.243570174207320e-008	0.000000e+000	1.000000e+000
3.278433455457320e-008	0.000000e+000	1.000000e+000
3.313296736707320e-008	0.000000e+000	1.000000e+000
3.348160017957320e-008	0.000000e+000	1.000000e+000
3.383023299207319e-008	0.000000e+000	1.000000e+000
3.417886580457319e-008	0.000000e+000	1.000000e+000
3.452749861707319e-008	0.000000e+000	1.000000e+000
3.487613142957318e-008	0.000000e+000	1.000000e+000
3.522476424207318e-008	0.000000e+000	1.000000e+000
3.557339705457318e-008	0.000000e+000	1.000000e+000
3.592202986707317e-008	0.000000e+000	1.000000e+000
3.627066267957317e-008	0.000000e+000	1.000000e+000
3.661929549207317e-008	0.000000e+000	1.000000e+000
3.696792830457316e-008	0.000000e+000	1.000000e+000
3.731656111707316e-008	0.000000e+000	1.000000e+000
3.766519392957316e-008	0.000000e+000	1.000000e+000
3.801382674207315e-008	0.000000e+000	1.000000e+000
3.836245955457315e-008	0.000000e+000	1.000000e+000
3.871109236707315e-008	0.000000e+000	1.000000e+000
3.905972517957314e-008	0.000000e+000	1.000000e+000
3.940835799207314e-008	0.000000e+000	1.000000e+000
3.975699080457314e-008	0.000000e+000	1.000000e+000
4.010562361707314e-008	0.000000e+000	1.000000e+000
4.045425642957313e-008	0.000000e+000	1.000000e+000
4.080288924207313e-008	0.000000e+000	1.000000e+000
4.115152205457313e-008	0.000000e+000	1.000000e+000
4.150015486707312e-008	0.000000e+000	1.000000e+000
4.184878767957312e-008	0.000000e+000	1.000000e+000
4.219742049207312e-008	0.000000e+000	1.000000e+000
4.254605330457311e-008	0.000000e+000	1.000000e+000
4.289468611707311e-008	0.000000e+000	1.000000e+000
4.324331892957311e-008	0.000000e+000	1.000000e+000
4.359195174207310e-008	0.000000e+000	1.000000e+000
4.394058455457310e-008	0.000000e+000	1.000000e+000
4.428921736707310e-008	0.000000e+000	1.000000e+000
4.463785017957309e-008	0.000000e+000	1.000000e+000
4.498648299207309e-008	0.000000e+000	1.000000e+000
4.533511580457309e-008	0.000000e+000	1.000000e+000
4.568374861707308e-008	0.000000e+000	1.000000e+000
4.603238142957308e-008	0.000000e+000	1.000000e+000
4.638101424207308e-008	0.000000e+000	1.000000e+000
4.672964705457307e-008	0.000000e+000	1.000000e+000
4.707827986707307e-008	0.000000e+000	1.000000e+000
4.742691267957307e-008	0.000000e+000	1.000000e+000
4.777554549207307e-008	0.000000e+000	1.000000e+000
4.812417830457306e-008	0.000000e+000	1.000000e+000
4.847281111707306e-008	0.000000e+000	1.000000e+000
4.882144392957306e-008	0.000000e+000	1.000000e+000
4.917007674207305e-008	0.000000e+000	1.000000e+000
4.951870955457305e-008	0.000000e+000	1.000000e+000
4.986734236707305e-008	0.000000e+000	1.000000e+000
5.021597517957304e-008	0.000000e+000	1.000000e+000
5.056460799207304e-008	0.000000e+000	1.000000e+000
5.091324080457304e-008	0.000000e+000	1.000000e+000
5.126187361707303e-008	0.000000e+000	1.000000e+000
5.161050642957303e-008	0.000000e+000	1.000000e+000
5.195913924207303e-008	0.000000e+000	1.000000e+000
5.230777205457302e-008	0.000000e+000	1.000000e+000
5.265640486707302e-008	0.000000e+000	1.000000e+000
5.300503767957302e-008	0.000000e+000	1.000000e+000
5.335367049207301e-008	0.000000e+000	1.000000e+000
5.370230330457301e-008	0.000000e+000	1.000000e+000
5.405093611707301e-008	0.000000e+000	1.000000e+000
5.439956892957301e-008	0.000000e+000	1.000000e+000
5.474820174207300e-008	0.000000e+000	1.000000e+000
5.509683455457300e-008	0.000000e+000	1.000000e+000
5.544546736707300e-008	0.000000e+000	1.000000e+000
5.579410017957299e-008	0.000000e+000	1.000000e+000
5.614273299207299e-008	0.000000e+000	1.000000e+000
5.649136580457299e-008	0.000000e+000	1.000000e+000
5.683999861707298e-008	0.000000e+000	1.000000e+000
5.718863142957298e-008	0.000000e+000	1.000000e+000
5.753726424207298e-008	0.000000e+000	1.000000e+000
5.788589705457297e-008	0.000000e+000	1.000000e+000
5.823452986707297e-008	0.000000e+000	1.000000e+000
5.858316267957297e-008	0.000000e+000	1.000000e+000
5.893179549207296e-008	0.000000e+000	1.000000e+000
5.928042830457296e-008	0.000000e+000	1.000000e+000
5.962906111707296e-008	0.000000e+000	1.000000e+000
5.997769392957295e-008	0.000000e+000	1.000000e+000
6.032632674207295e-008	0.000000e+000	1.000000e+000
6.067495955457295e-008	0.000000e+000	1.000000e+000
6.102359236707294e-008	0.000000e+000	1.000000e+000
6.137222517957294e-008	0.000000e+000	1.000000e+000
6.172085799207294e-008	0.000000e+000	1.000000e+000
6.206949080457294e-008	0.000000e+000	1.000000e+000
6.241812361707293e-008	0.000000e+000	1.000000e+000
6.276675642957293e-008	0.000000e+000	1.000000e+000
6.311538924207293e-008	0.000000e+000	1.000000e+000
6.346402205457292e-008	0.000000e+000	1.000000e+000
6.381265486707292e-008	1.401298e-045	1.000000e+000
6.416128767957292e-008	2.802597e-045	1.000000e+000
6.450992049207291e-008	8.407791e-045	1.000000e+000
6.485855330457291e-008	1.821688e-044	1.000000e+000
6.520718611707291e-008	4.344025e-044	1.000000e+000
6.555581892957290e-008	9.949219e-044	1.000000e+000
6.590445174207290e-008	2.270104e-043	1.000000e+000
6.625308455457290e-008	5.128752e-043	1.000000e+000
6.660171736707289e-008	1.156071e-042	1.000000e+000
6.695035017957289e-008	2.592402e-042	1.000000e+000
6.729898299207289e-008	5.787363e-042	1.000000e+000
6.764761580457288e-008	1.285972e-041	1.000000e+000
6.799624861707288e-008	2.844215e-041	1.000000e+000
6.834488142957288e-008	6.262123e-041	1.000000e+000
6.869351424207287e-008	1.372446e-040	1.000000e+000
6.904214705457287e-008	2.994407e-040	1.000000e+000
6.939077986707287e-008	6.503889e-040	1.000000e+000
6.973941267957287e-008	1.406364e-039	1.000000e+000
7.008804549207286e-008	3.027591e-039	1.000000e+000
7.043667830457286e-008	6.489088e-039	1.000000e+000
7.078531111707286e-008	1.384745e-038	1.000000e+000
7.113394392957285e-008	2.942167e-038	1.000000e+000
7.148257674207285e-008	6.224274e-038	1.000000e+000
7.183120955457285e-008	1.311130e-037	1.000000e+000
7.217984236707284e-008	2.750109e-037	1.000000e+000
7.252847517957284e-008	5.743983e-037	1.000000e+000
7.287710799207284e-008	1.194666e-036	1.000000e+000
7.322574080457283e-008	2.474352e-036	1.000000e+000
7.357437361707283e-008	5.103512e-036	1.000000e+000
7.392300642957283e-008	1.048287e-035	1.000000e+000
7.427163924207282e-008	2.144401e-035	1.000000e+000
7.462027205457282e-008	4.368745e-035	1.000000e+000
7.496890486707282e-008	8.864271e-035	1.000000e+000
7.531753767957281e-008	1.791329e-034	1.000000e+000
7.566617049207281e-008	3.605487e-034	1.000000e+000
7.601480330457281e-008	7.228014e-034	1.000000e+000
7.636343611707281e-008	1.443279e-033	1.000000e+000
7.671206892957280e-008	2.870569e-033	1.000000e+000
7.706070174207280e-008	5.686977e-033	1.000000e+000
7.740933455457280e-008	1.122278e-032	1.000000e+000
7.775796736707279e-008	2.206149e-032	1.000000e+000
7.810660017957279e-008	4.320096e-032	1.000000e+000
7.845523299207279e-008	8.427244e-032	1.000000e+000
7.880386580457278e-008	1.637648e-031	1.000000e+000
7.915249861707278e-008	3.170350e-031	1.000000e+000
7.950113142957278e-008	6.114409e-031	1.000000e+000
7.984976424207277e-008	1.174819e-030	1.000000e+000
8.019839705457277e-008	2.248878e-030	1.000000e+000
8.054702986707277e-008	4.288911e-030	1.000000e+000
8.089566267957276e-008	8.149357e-030	1.000000e+000
8.124429549207276e-008	1.542776e-029	1.000000e+000
8.159292830457276e-008	2.910007e-029	1.000000e+000
8.194156111707275e-008	5.468959e-029	1.000000e+000
8.229019392957275e-008	1.024101e-028	1.000000e+000
8.263882674207275e-008	1.910807e-028	1.000000e+000
8.298745955457274e-008	3.552498e-028	1.000000e+000
8.333609236707274e-008	6.581153e-028	1.000000e+000
8.368472517957274e-008	1.214867e-027	1.000000e+000
8.403335799207274e-008	2.234711e-027	1.000000e+000
8.438199080457273e-008	4.096260e-027	1.000000e+000
8.473062361707273e-008	7.482289e-027	1.000000e+000
8.507925642957273e-008	1.361976e-026	1.000000e+000
8.542788924207272e-008	2.470582e-026	1.000000e+000
8.577652205457272e-008	4.466129e-026	1.000000e+000
8.612515486707272e-008	8.045856e-026	1.000000e+000
8.647378767957271e-008	1.444538e-025	1.000000e+000
8.682242049207271e-008	2.584689e-025	1.000000e+000
8.717105330457271e-008	4.609108e-025	1.000000e+000
8.751968611707270e-008	8.191456e-025	1.000000e+000
8.786831892957270e-008	1.450934e-024	1.000000e+000
8.821695174207270e-008	2.561431e-024	1.000000e+000
8.856558455457269e-008	4.506845e-024	1.000000e+000
8.891421736707269e-008	7.903578e-024	1.000000e+000
8.926285017957269e-008	1.381472e-023	1.000000e+000
8.961148299207268e-008	2.406765e-023	1.000000e+000
8.996011580457268e-008	4.179310e-023	1.000000e+000
9.030874861707268e-008	7.233702e-023	1.000000e+000
9.065738142957268e-008	1.247980e-022	1.000000e+000
9.100601424207267e-008	2.146106e-022	1.000000e+000
9.135464705457267e-008	3.678722e-022	1.000000e+000
9.170327986707267e-008	6.285656e-022	1.000000e+000
9.205191267957266e-008	1.070576e-021	1.000000e+000
9.240054549207266e-008	1.817621e-021	1.000000e+000
9.274917830457266e-008	3.076190e-021	1.000000e+000
9.309781111707265e-008	5.189820e-021	1.000000e+000
9.344644392957265e-008	8.728224e-021	1.000000e+000
9.379507674207265e-008	1.463319e-020	1.000000e+000
9.414370955457264e-008	2.445664e-020	1.000000e+000
9.449234236707264e-008	4.074780e-020	1.000000e+000
9.484097517957264e-008	6.768085e-020	1.000000e+000
9.518960799207263e-008	1.120693e-019	1.000000e+000
9.553824080457263e-008	1.850000e-019	1.000000e+000
9.588687361707263e-008	3.044565e-019	1.000000e+000
9.623550642957262e-008	4.995190e-019	1.000000e+000
9.658413924207262e-008	8.170647e-019	1.000000e+000
9.693277205457262e-008	1.332426e-018	1.000000e+000
9.728140486707261e-008	2.166288e-018	1.000000e+000
9.763003767957261e-008	3.511399e-018	1.000000e+000
9.797867049207261e-008	5.674653e-018	1.000000e+000
9.832730330457261e-008	9.143187e-018	1.000000e+000
9.867593611707260e-008	1.468789e-017	1.000000e+000
9.902456892957260e-008	2.352493e-017	1.000000e+000
9.937320174207260e-008	3.756718e-017	1.000000e+000
9.972183455457259e-008	5.981418e-017	1.000000e+000
1.000704673670726e-007	9.495519e-017	1.000000e+000
1.004191001795726e-007	1.502990e-016	1.000000e+000
1.007677329920726e-007	2.372029e-016	1.000000e+000
1.011163658045726e-007	3.732621e-016	1.000000e+000
1.014649986170726e-007	5.856545e-016	1.000000e+000
1.018136314295726e-007	9.162336e-016	1.000000e+000
1.021622642420726e-007	1.429261e-015	1.000000e+000
1.025108970545726e-007	2.223109e-015	1.000000e+000
1.028595298670726e-007	3.447920e-015	1.000000e+000
1.032081626795726e-007	5.332172e-015	1.000000e+000
1.035567954920726e-007	8.222513e-015	1.000000e+000
1.039054283045726e-007	1.264334e-014	1.000000e+000
1.042540611170726e-007	1.938557e-014	1.000000e+000
1.046026939295726e-007	2.963862e-014	1.000000e+000
1.049513267420725e-007	4.518592e-014	1.000000e+000
1.052999595545725e-007	6.869365e-014	1.000000e+000
1.056485923670725e-007	1.041361e-013	1.000000e+000
1.059972251795725e-007	1.574199e-013	1.000000e+000
1.063458579920725e-007	2.372983e-013	1.000000e+000
1.066944908045725e-007	3.567045e-013	1.000000e+000
1.070431236170725e-007	5.193979e-013	1.000000e+000
1.071513671875000e-007	5.842936e-013	1.000000e+000
1.072835128591451e-007	6.828638e-013	1.000000e+000
1.075000000000000e-007	8.660128e-013	1.000000e+000
1.075216487140855e-007	8.879800e-013	9.971135e-001
1.075649461422565e-007	9.335837e-013	9.913405e-001
1.076515409985984e-007	1.033656e-012	9.797946e-001
1.078247307112824e-007	1.277782e-012	9.567026e-001
1.081711101366503e-007	1.926962e-012	9.105186e-001
1.085197429491503e-007	2.855625e-012	8.640343e-001
1.088683757616503e-007	4.219229e-012	8.175499e-001
1.092170085741503e-007	6.216694e-012	7.710655e-001
1.095656413866503e-007	9.134448e-012	7.245811e-001
1.099142741991503e-007	1.338454e-011	6.780968e-001
1.102629070116503e-007	1.955803e-011	6.316124e-001
1.106115398241503e-007	2.850027e-011	5.851280e-001
1.109601726366503e-007	4.141681e-011	5.386437e-001
1.113088054491503e-007	6.002194e-011	4.921593e-001
1.116574382616503e-007	8.674624e-011	4.456749e-001
1.120060710741503e-007	1.250259e-010	3.991905e-001
1.123547038866503e-007	1.797049e-010	3.527061e-001
1.127033366991503e-007	2.575914e-010	3.062218e-001
1.130519695116502e-007	3.682273e-010	2.597374e-001
1.134006023241502e-007	5.249464e-010	2.132530e-001
1.137492351366502e-007	7.463275e-010	1.667687e-001
1.140978679491502e-007	1.058183e-009	1.202843e-001
