time	V(-1)	V(1)
0.000000000000000e+000	0.000000e+000	0.000000e+000
2.109375042393330e-015	0.000000e+000	2.812500e-007
4.218750084786661e-015	0.000000e+000	5.625000e-007
4.940759027868722e-012	-4.254571e-042	6.587679e-004
9.877299305652657e-012	-3.782019e-042	1.316973e-003
1.481383958343659e-011	1.417656e-042	1.975179e-003
1.975037986122053e-011	1.134445e-041	2.633384e-003
2.468692013900446e-011	2.599838e-041	3.291589e-003
2.962346041678840e-011	4.537942e-041	3.949795e-003
3.456000069457232e-011	6.948759e-041	4.608000e-003
6.912000138914465e-011	4.422545e-038	9.216000e-003
1.119165928250955e-010	9.116579e-037	1.492221e-002
1.510802698867626e-010	8.440097e-036	2.014404e-002
1.871544265016759e-010	5.808450e-035	2.495392e-002
2.219798790322143e-010	5.506228e-034	2.959732e-002
2.646487976020230e-010	4.995703e-033	3.528650e-002
3.057090774861971e-010	6.366179e-032	4.076121e-002
3.589376111628644e-010	9.154405e-031	4.785835e-002
4.156570665694459e-010	1.801710e-029	5.542094e-002
4.865131260510887e-010	3.441115e-028	6.486842e-002
5.648941741820925e-010	8.074509e-027	7.531922e-002
6.604701683715711e-010	7.255986e-026	8.806269e-002
7.390076884768614e-010	4.408842e-025	9.853436e-002
8.254868542701367e-010	2.525899e-024	1.100649e-001
9.070461862464113e-010	1.423704e-023	1.209395e-001
1.004187878856087e-009	8.987059e-023	1.338917e-001
1.104271757463549e-009	5.829702e-022	1.472362e-001
1.220937842734147e-009	4.064753e-021	1.627917e-001
1.344998900266453e-009	1.990614e-020	1.793332e-001
1.449127308282955e-009	7.435101e-020	1.932170e-001
1.561616936450105e-009	2.962821e-019	2.082156e-001
1.678802937462459e-009	1.185310e-018	2.238404e-001
1.807446536674077e-009	4.948808e-018	2.409929e-001
1.944226341823620e-009	2.092858e-017	2.592302e-001
2.094031649804761e-009	9.156723e-017	2.792042e-001
2.254932729816312e-009	3.537230e-016	3.006577e-001
2.400286400928478e-009	1.126661e-015	3.200382e-001
2.550137534951113e-009	3.585521e-015	3.400183e-001
2.706021761371485e-009	1.139263e-014	3.608029e-001
2.873037979720177e-009	3.694141e-014	3.830717e-001
3.050275254859065e-009	1.112701e-013	4.067034e-001
3.207624451627608e-009	2.928126e-013	4.276833e-001
3.384069521640466e-009	8.112667e-013	4.512093e-001
3.552157059199822e-009	2.092941e-012	4.736210e-001
3.741630735304583e-009	5.746161e-012	4.988841e-001
3.931632838887444e-009	1.473698e-011	5.242177e-001
4.120802326270724e-009	3.672459e-011	5.494403e-001
4.325203051227173e-009	9.108374e-011	5.766937e-001
4.511475706396503e-009	2.055054e-010	6.015301e-001
4.722413206396503e-009	4.944551e-010	6.296551e-001
4.930106180522907e-009	1.116218e-009	6.573475e-001
5.141043680522907e-009	2.460945e-009	6.854725e-001
5.351981180522907e-009	5.233393e-009	7.135975e-001
5.562918680522907e-009	1.078070e-008	7.417225e-001
5.773856180522907e-009	2.156226e-008	7.698475e-001
5.984793680522907e-009	4.195702e-008	7.979725e-001
6.195731180522908e-009	7.957129e-008	8.260975e-001
6.406668680522908e-009	1.473134e-007	8.542225e-001
6.617606180522908e-009	2.666140e-007	8.823475e-001
6.828543680522908e-009	4.723206e-007	9.104725e-001
7.039481180522908e-009	8.199906e-007	9.385975e-001
7.250418680522908e-009	1.322893e-006	9.667225e-001
7.289062499999999e-009	1.446458e-006	9.718750e-001
7.366350138954181e-009	1.764432e-006	9.821800e-001
7.499999999999999e-009	2.397008e-006	1.000000e+000
7.513364986104581e-009	2.475829e-006	1.000000e+000
7.540094958313746e-009	2.640848e-006	1.000000e+000
7.593554902732072e-009	3.010554e-006	1.000000e+000
7.700474791568727e-009	3.949999e-006	1.000000e+000
7.911412291568726e-009	6.537411e-006	1.000000e+000
8.122349791568726e-009	1.039414e-005	1.000000e+000
8.333287291568725e-009	1.627801e-005	1.000000e+000
8.544224791568724e-009	2.512589e-005	1.000000e+000
8.755162291568724e-009	3.824763e-005	1.000000e+000
8.966099791568723e-009	5.744972e-005	1.000000e+000
9.177037291568722e-009	8.519060e-005	1.000000e+000
9.387974791568721e-009	1.247730e-004	1.000000e+000
9.598912291568721e-009	1.805780e-004	1.000000e+000
9.809849791568720e-009	2.583466e-004	1.000000e+000
1.002078729156872e-008	3.655108e-004	1.000000e+000
1.023172479156872e-008	5.115787e-004	1.000000e+000
1.044266229156872e-008	7.085741e-004	1.000000e+000
1.065359979156872e-008	9.715274e-004	1.000000e+000
1.086453729156872e-008	1.319016e-003	1.000000e+000
1.107547479156872e-008	1.773742e-003	1.000000e+000
1.128641229156872e-008	2.363142e-003	1.000000e+000
1.149734979156871e-008	3.120002e-003	1.000000e+000
1.170828729156871e-008	4.083066e-003	1.000000e+000
1.191922479156871e-008	5.297604e-003	1.000000e+000
1.213016229156871e-008	6.815911e-003	1.000000e+000
1.234109979156871e-008	8.697703e-003	1.000000e+000
1.255203729156871e-008	1.101037e-002	1.000000e+000
1.276297479156871e-008	1.382906e-002	1.000000e+000
1.297391229156871e-008	1.723648e-002	1.000000e+000
1.318484979156871e-008	2.132255e-002	1.000000e+000
1.339578729156871e-008	2.618361e-002	1.000000e+000
1.360672479156871e-008	3.192145e-002	1.000000e+000
1.381766229156871e-008	3.864187e-002	1.000000e+000
1.402859979156871e-008	4.645294e-002	1.000000e+000
1.423953729156871e-008	5.546294e-002	1.000000e+000
1.445047479156871e-008	6.577794e-002	1.000000e+000
1.466141229156870e-008	7.749903e-002	1.000000e+000
1.487234979156870e-008	9.071951e-002	1.000000e+000
1.508328729156870e-008	1.055217e-001	1.000000e+000
1.529422479156870e-008	1.219738e-001	1.000000e+000
1.550516229156870e-008	1.401269e-001	1.000000e+000
1.571609979156870e-008	1.600120e-001	1.000000e+000
1.592703729156870e-008	1.816372e-001	1.000000e+000
1.613797479156870e-008	2.049858e-001	1.000000e+000
1.634891229156870e-008	2.300145e-001	1.000000e+000
1.655984979156870e-008	2.566524e-001	1.000000e+000
1.677078729156870e-008	2.848006e-001	1.000000e+000
1.698172479156870e-008	3.143333e-001	1.000000e+000
1.719266229156870e-008	3.450985e-001	1.000000e+000
1.740359979156870e-008	3.769210e-001	1.000000e+000
1.761453729156870e-008	4.096054e-001	1.000000e+000
1.782547479156870e-008	4.429399e-001	1.000000e+000
1.803641229156870e-008	4.767012e-001	1.000000e+000
1.824734979156869e-008	5.106593e-001	1.000000e+000
1.845828729156869e-008	5.445833e-001	1.000000e+000
1.866922479156869e-008	5.782468e-001	1.000000e+000
1.888016229156869e-008	6.114336e-001	1.000000e+000
1.909109979156869e-008	6.439424e-001	1.000000e+000
1.930203729156869e-008	6.755920e-001	1.000000e+000
1.951297479156869e-008	7.062244e-001	1.000000e+000
1.972391229156869e-008	7.357083e-001	1.000000e+000
1.993484979156869e-008	7.639400e-001	1.000000e+000
2.014578729156869e-008	7.908446e-001	1.000000e+000
2.035672479156869e-008	8.163751e-001	1.000000e+000
2.056766229156869e-008	8.405101e-001	1.000000e+000
2.077859979156869e-008	8.632515e-001	1.000000e+000
2.098953729156869e-008	8.846198e-001	1.000000e+000
2.120047479156868e-008	9.046500e-001	1.000000e+000
2.141141229156868e-008	9.233863e-001	1.000000e+000
2.162234979156868e-008	9.408768e-001	1.000000e+000
2.183328729156868e-008	9.571686e-001	1.000000e+000
2.204422479156868e-008	9.723028e-001	1.000000e+000
2.225516229156868e-008	9.863113e-001	1.000000e+000
2.246609979156868e-008	9.992135e-001	1.000000e+000
2.267703729156868e-008	1.011015e+000	1.000000e+000
2.288797479156868e-008	1.021707e+000	1.000000e+000
2.309891229156868e-008	1.031268e+000	1.000000e+000
2.330984979156868e-008	1.039666e+000	1.000000e+000
2.352078729156868e-008	1.046864e+000	1.000000e+000
2.373172479156868e-008	1.052821e+000	1.000000e+000
2.394266229156868e-008	1.057502e+000	1.000000e+000
2.415359979156867e-008	1.060881e+000	1.000000e+000
2.436453729156867e-008	1.062947e+000	1.000000e+000
2.457547479156867e-008	1.063713e+000	1.000000e+000
2.478641229156867e-008	1.063216e+000	1.000000e+000
2.499734979156867e-008	1.061523e+000	1.000000e+000
2.520828729156867e-008	1.058735e+000	1.000000e+000
2.541922479156867e-008	1.054980e+000	1.000000e+000
2.563016229156867e-008	1.050422e+000	1.000000e+000
2.584109979156867e-008	1.045246e+000	1.000000e+000
2.605203729156867e-008	1.039663e+000	1.000000e+000
2.626297479156867e-008	1.033895e+000	1.000000e+000
2.647391229156867e-008	1.028170e+000	1.000000e+000
2.668484979156867e-008	1.022714e+000	1.000000e+000
2.689578729156867e-008	1.017739e+000	1.000000e+000
2.710672479156867e-008	1.013434e+000	1.000000e+000
2.731766229156866e-008	1.009959e+000	1.000000e+000
2.752859979156866e-008	1.007432e+000	1.000000e+000
2.773953729156866e-008	1.005928e+000	1.000000e+000
2.795047479156866e-008	1.005475e+000	1.000000e+000
2.816141229156866e-008	1.006050e+000	1.000000e+000
2.837234979156866e-008	1.007581e+000	1.000000e+000
2.858328729156866e-008	1.009953e+000	1.000000e+000
2.879422479156866e-008	1.013010e+000	1.000000e+000
2.900516229156866e-008	1.016567e+000	1.000000e+000
2.921609979156866e-008	1.020419e+000	1.000000e+000
2.942703729156866e-008	1.024351e+000	1.000000e+000
2.963797479156866e-008	1.028147e+000	1.000000e+000
2.984891229156866e-008	1.031608e+000	1.000000e+000
3.005984979156866e-008	1.034558e+000	1.000000e+000
3.027078729156865e-008	1.036853e+000	1.000000e+000
3.048172479156865e-008	1.038389e+000	1.000000e+000
3.069266229156865e-008	1.039110e+000	1.000000e+000
3.090359979156865e-008	1.039005e+000	1.000000e+000
3.111453729156865e-008	1.038112e+000	1.000000e+000
3.132547479156865e-008	1.036513e+000	1.000000e+000
3.153641229156865e-008	1.034328e+000	1.000000e+000
3.174734979156865e-008	1.031708e+000	1.000000e+000
3.195828729156865e-008	1.028823e+000	1.000000e+000
3.216922479156865e-008	1.025857e+000	1.000000e+000
3.238016229156865e-008	1.022990e+000	1.000000e+000
3.259109979156865e-008	1.020391e+000	1.000000e+000
3.280203729156865e-008	1.018208e+000	1.000000e+000
3.301297479156865e-008	1.016557e+000	1.000000e+000
3.322391229156864e-008	1.015519e+000	1.000000e+000
3.343484979156864e-008	1.015134e+000	1.000000e+000
3.364578729156864e-008	1.015398e+000	1.000000e+000
3.385672479156864e-008	1.016269e+000	1.000000e+000
3.406766229156864e-008	1.017666e+000	1.000000e+000
3.427859979156864e-008	1.019477e+000	1.000000e+000
3.448953729156864e-008	1.021569e+000	1.000000e+000
3.470047479156864e-008	1.023794e+000	1.000000e+000
3.491141229156864e-008	1.025999e+000	1.000000e+000
3.512234979156864e-008	1.028040e+000	1.000000e+000
3.533328729156864e-008	1.029787e+000	1.000000e+000
3.554422479156864e-008	1.031134e+000	1.000000e+000
3.575516229156864e-008	1.032004e+000	1.000000e+000
3.596609979156864e-008	1.032357e+000	1.000000e+000
3.617703729156864e-008	1.032186e+000	1.000000e+000
3.638797479156863e-008	1.031522e+000	1.000000e+000
3.659891229156863e-008	1.030427e+000	1.000000e+000
3.680984979156863e-008	1.028992e+000	1.000000e+000
3.702078729156863e-008	1.027328e+000	1.000000e+000
3.723172479156863e-008	1.025559e+000	1.000000e+000
3.744266229156863e-008	1.023812e+000	1.000000e+000
3.765359979156863e-008	1.022210e+000	1.000000e+000
3.786453729156863e-008	1.020863e+000	1.000000e+000
3.807547479156863e-008	1.019861e+000	1.000000e+000
3.828641229156863e-008	1.019267e+000	1.000000e+000
3.849734979156863e-008	1.019118e+000	1.000000e+000
3.870828729156863e-008	1.019416e+000	1.000000e+000
3.891922479156863e-008	1.020137e+000	1.000000e+000
3.913016229156863e-008	1.021227e+000	1.000000e+000
3.934109979156862e-008	1.022612e+000	1.000000e+000
3.955203729156862e-008	1.024198e+000	1.000000e+000
3.976297479156862e-008	1.025886e+000	1.000000e+000
3.997391229156862e-008	1.027572e+000	1.000000e+000
4.018484979156862e-008	1.029160e+000	1.000000e+000
4.039578729156862e-008	1.030566e+000	1.000000e+000
4.060672479156862e-008	1.031725e+000	1.000000e+000
4.081766229156862e-008	1.032596e+000	1.000000e+000
4.102859979156862e-008	1.033163e+000	1.000000e+000
4.123953729156862e-008	1.033436e+000	1.000000e+000
4.145047479156862e-008	1.033451e+000	1.000000e+000
4.166141229156862e-008	1.033265e+000	1.000000e+000
4.187234979156862e-008	1.032954e+000	1.000000e+000
4.208328729156862e-008	1.032604e+000	1.000000e+000
4.229422479156861e-008	1.032307e+000	1.000000e+000
4.250516229156861e-008	1.032152e+000	1.000000e+000
4.271609979156861e-008	1.032221e+000	1.000000e+000
4.292703729156861e-008	1.032580e+000	1.000000e+000
4.313797479156861e-008	1.033277e+000	1.000000e+000
4.334891229156861e-008	1.034337e+000	1.000000e+000
4.355984979156861e-008	1.035762e+000	1.000000e+000
4.377078729156861e-008	1.037529e+000	1.000000e+000
4.398172479156861e-008	1.039593e+000	1.000000e+000
4.419266229156861e-008	1.041889e+000	1.000000e+000
4.440359979156861e-008	1.044340e+000	1.000000e+000
4.461453729156861e-008	1.046857e+000	1.000000e+000
4.482547479156861e-008	1.049351e+000	1.000000e+000
4.503641229156861e-008	1.051733e+000	1.000000e+000
4.524734979156861e-008	1.053923e+000	1.000000e+000
4.545828729156860e-008	1.055853e+000	1.000000e+000
4.566922479156860e-008	1.057473e+000	1.000000e+000
4.588016229156860e-008	1.058750e+000	1.000000e+000
4.609109979156860e-008	1.059670e+000	1.000000e+000
4.630203729156860e-008	1.060237e+000	1.000000e+000
4.651297479156860e-008	1.060473e+000	1.000000e+000
4.672391229156860e-008	1.060410e+000	1.000000e+000
4.693484979156860e-008	1.060091e+000	1.000000e+000
4.714578729156860e-008	1.059561e+000	1.000000e+000
4.735672479156860e-008	1.058868e+000	1.000000e+000
4.756766229156860e-008	1.058050e+000	1.000000e+000
4.777859979156860e-008	1.057140e+000	1.000000e+000
4.798953729156860e-008	1.056158e+000	1.000000e+000
4.820047479156860e-008	1.055110e+000	1.000000e+000
4.841141229156859e-008	1.053989e+000	1.000000e+000
4.862234979156859e-008	1.052774e+000	1.000000e+000
4.883328729156859e-008	1.051435e+000	1.000000e+000
4.904422479156859e-008	1.049932e+000	1.000000e+000
4.925516229156859e-008	1.048223e+000	1.000000e+000
4.946609979156859e-008	1.046265e+000	1.000000e+000
4.967703729156859e-008	1.044022e+000	1.000000e+000
4.988797479156859e-008	1.041467e+000	1.000000e+000
5.009891229156859e-008	1.038584e+000	1.000000e+000
5.030984979156859e-008	1.035374e+000	1.000000e+000
5.052078729156859e-008	1.031855e+000	1.000000e+000
5.073172479156859e-008	1.028063e+000	1.000000e+000
5.094266229156859e-008	1.024051e+000	1.000000e+000
5.115359979156859e-008	1.019884e+000	1.000000e+000
5.136453729156859e-008	1.015642e+000	1.000000e+000
5.157547479156858e-008	1.011409e+000	1.000000e+000
5.178641229156858e-008	1.007273e+000	1.000000e+000
5.199734979156858e-008	1.003320e+000	1.000000e+000
5.220828729156858e-008	9.996284e-001	1.000000e+000
5.241922479156858e-008	9.962654e-001	1.000000e+000
5.263016229156858e-008	9.932836e-001	1.000000e+000
5.284109979156858e-008	9.907185e-001	1.000000e+000
5.305203729156858e-008	9.885871e-001	1.000000e+000
5.326297479156858e-008	9.868877e-001	1.000000e+000
5.347391229156858e-008	9.856008e-001	1.000000e+000
5.368484979156858e-008	9.846917e-001	1.000000e+000
5.389578729156858e-008	9.841133e-001	1.000000e+000
5.410672479156858e-008	9.838097e-001	1.000000e+000
5.431766229156858e-008	9.837208e-001	1.000000e+000
5.452859979156857e-008	9.837859e-001	1.000000e+000
5.473953729156857e-008	9.839481e-001	1.000000e+000
5.495047479156857e-008	9.841576e-001	1.000000e+000
5.516141229156857e-008	9.843741e-001	1.000000e+000
5.537234979156857e-008	9.845691e-001	1.000000e+000
5.558328729156857e-008	9.847266e-001	1.000000e+000
5.579422479156857e-008	9.848425e-001	1.000000e+000
5.600516229156857e-008	9.849240e-001	1.000000e+000
5.621609979156857e-008	9.849873e-001	1.000000e+000
5.642703729156857e-008	9.850551e-001	1.000000e+000
5.663797479156857e-008	9.851542e-001	1.000000e+000
5.684891229156857e-008	9.853113e-001	1.000000e+000
5.705984979156857e-008	9.855513e-001	1.000000e+000
5.727078729156857e-008	9.858938e-001	1.000000e+000
5.748172479156856e-008	9.863517e-001	1.000000e+000
5.769266229156856e-008	9.869291e-001	1.000000e+000
5.790359979156856e-008	9.876212e-001	1.000000e+000
5.811453729156856e-008	9.884148e-001	1.000000e+000
5.832547479156856e-008	9.892882e-001	1.000000e+000
5.853641229156856e-008	9.902135e-001	1.000000e+000
5.874734979156856e-008	9.911585e-001	1.000000e+000
5.895828729156856e-008	9.920889e-001	1.000000e+000
5.916922479156856e-008	9.929706e-001	1.000000e+000
5.938016229156856e-008	9.937719e-001	1.000000e+000
5.959109979156856e-008	9.944661e-001	1.000000e+000
5.980203729156856e-008	9.950320e-001	1.000000e+000
6.001297479156856e-008	9.954559e-001	1.000000e+000
6.022391229156856e-008	9.957312e-001	1.000000e+000
6.043484979156856e-008	9.958589e-001	1.000000e+000
6.064578729156856e-008	9.958463e-001	1.000000e+000
6.085672479156856e-008	9.957059e-001	1.000000e+000
6.106766229156856e-008	9.954544e-001	1.000000e+000
6.127859979156856e-008	9.951103e-001	1.000000e+000
6.148953729156856e-008	9.946929e-001	1.000000e+000
6.170047479156856e-008	9.942206e-001	1.000000e+000
6.191141229156856e-008	9.937093e-001	1.000000e+000
6.212234979156856e-008	9.931728e-001	1.000000e+000
6.233328729156856e-008	9.926209e-001	1.000000e+000
6.254422479156855e-008	9.920610e-001	1.000000e+000
6.275516229156855e-008	9.914978e-001	1.000000e+000
6.296609979156855e-008	9.909345e-001	1.000000e+000
6.317703729156855e-008	9.903738e-001	1.000000e+000
6.338797479156855e-008	9.898194e-001	1.000000e+000
6.359891229156855e-008	9.892768e-001	1.000000e+000
6.380984979156855e-008	9.887544e-001	1.000000e+000
6.402078729156855e-008	9.882641e-001	1.000000e+000
6.423172479156855e-008	9.878213e-001	1.000000e+000
6.444266229156855e-008	9.874448e-001	1.000000e+000
6.465359979156855e-008	9.871553e-001	1.000000e+000
6.486453729156855e-008	9.869750e-001	1.000000e+000
6.507547479156855e-008	9.869249e-001	1.000000e+000
6.528641229156855e-008	9.870234e-001	1.000000e+000
6.549734979156854e-008	9.872843e-001	1.000000e+000
6.570828729156854e-008	9.877145e-001	1.000000e+000
6.591922479156854e-008	9.883126e-001	1.000000e+000
6.613016229156854e-008	9.890677e-001	1.000000e+000
6.634109979156854e-008	9.899589e-001	1.000000e+000
6.655203729156854e-008	9.909554e-001	1.000000e+000
6.676297479156854e-008	9.920171e-001	1.000000e+000
6.697391229156854e-008	9.930971e-001	1.000000e+000
6.718484979156854e-008	9.941431e-001	1.000000e+000
6.739578729156854e-008	9.951011e-001	1.000000e+000
6.760672479156854e-008	9.959180e-001	1.000000e+000
6.781766229156854e-008	9.965457e-001	1.000000e+000
6.802859979156854e-008	9.969437e-001	1.000000e+000
6.823953729156854e-008	9.970828e-001	1.000000e+000
6.845047479156854e-008	9.969471e-001	1.000000e+000
6.866141229156853e-008	9.965359e-001	1.000000e+000
6.887234979156853e-008	9.958643e-001	1.000000e+000
6.908328729156853e-008	9.949634e-001	1.000000e+000
6.929422479156853e-008	9.938783e-001	1.000000e+000
6.950516229156853e-008	9.926665e-001	1.000000e+000
6.971609979156853e-008	9.913944e-001	1.000000e+000
6.992703729156853e-008	9.901338e-001	1.000000e+000
7.013797479156853e-008	9.889575e-001	1.000000e+000
7.034891229156853e-008	9.879349e-001	1.000000e+000
7.055984979156853e-008	9.871277e-001	1.000000e+000
7.077078729156853e-008	9.865859e-001	1.000000e+000
7.098172479156853e-008	9.863448e-001	1.000000e+000
7.119266229156853e-008	9.864225e-001	1.000000e+000
7.140359979156853e-008	9.868184e-001	1.000000e+000
7.161453729156852e-008	9.875133e-001	1.000000e+000
7.182547479156852e-008	9.884702e-001	1.000000e+000
7.203641229156852e-008	9.896365e-001	1.000000e+000
7.224734979156852e-008	9.909469e-001	1.000000e+000
7.245828729156852e-008	9.923273e-001	1.000000e+000
7.266922479156852e-008	9.936996e-001	1.000000e+000
7.288016229156852e-008	9.949854e-001	1.000000e+000
7.309109979156852e-008	9.961118e-001	1.000000e+000
7.330203729156852e-008	9.970148e-001	1.000000e+000
7.351297479156852e-008	9.976433e-001	1.000000e+000
7.372391229156852e-008	9.979622e-001	1.000000e+000
7.393484979156852e-008	9.979538e-001	1.000000e+000
7.414578729156852e-008	9.976192e-001	1.000000e+000
7.435672479156852e-008	9.969773e-001	1.000000e+000
7.456766229156852e-008	9.960639e-001	1.000000e+000
7.477859979156851e-008	9.949292e-001	1.000000e+000
7.498953729156851e-008	9.936341e-001	1.000000e+000
7.520047479156851e-008	9.922471e-001	1.000000e+000
7.541141229156851e-008	9.908395e-001	1.000000e+000
7.562234979156851e-008	9.894814e-001	1.000000e+000
