time	V(1)	V(3)
0.000000000000000e+000	0.000000e+000	0.000000e+000
1.953124992195698e-015	2.604167e-007	3.231600e-016
3.906249984391395e-015	5.208333e-007	8.622635e-016
9.146205320596428e-012	1.219494e-003	-1.352122e-007
1.828850439120846e-011	2.438467e-003	5.910483e-008
2.743080346182050e-011	3.657440e-003	5.829511e-007
3.657310253243254e-011	4.876414e-003	1.436327e-006
4.571540160304457e-011	6.095387e-003	2.619231e-006
5.485770067365661e-011	7.314360e-003	4.131665e-006
6.399999974426862e-011	8.533333e-003	5.973629e-006
1.279999994885372e-010	1.706667e-002	4.272061e-005
2.404828851046297e-010	3.206439e-002	2.119520e-004
3.619500919543539e-010	4.826001e-002	6.038565e-004
4.889487857600347e-010	6.519317e-002	1.346270e-003
6.140192929833014e-010	8.186924e-002	2.553592e-003
7.832837024442594e-010	1.044378e-001	5.078457e-003
9.785962024442595e-010	1.304795e-001	9.319320e-003
1.173908702444260e-009	1.565212e-001	1.519440e-002
1.369221202444260e-009	1.825628e-001	2.290828e-002
1.564533702444260e-009	2.086045e-001	3.256745e-002
1.759846202444260e-009	2.346462e-001	4.423017e-002
1.955158702444259e-009	2.606878e-001	5.791138e-002
2.150471202444259e-009	2.867295e-001	7.358767e-002
2.345783702444259e-009	3.127712e-001	9.120238e-002
2.541096202444259e-009	3.388128e-001	1.106707e-001
2.736408702444258e-009	3.648545e-001	1.318848e-001
2.931721202444258e-009	3.908962e-001	1.547181e-001
3.127033702444258e-009	4.169378e-001	1.790307e-001
3.322346202444258e-009	4.429795e-001	2.046725e-001
3.517658702444258e-009	4.690212e-001	2.314881e-001
3.712971202444257e-009	4.950628e-001	2.593196e-001
3.908283702444257e-009	5.211045e-001	2.880103e-001
4.298908702444257e-009	5.731878e-001	3.473617e-001
4.689533702444256e-009	6.252711e-001	4.083992e-001
5.080158702444256e-009	6.773545e-001	4.701277e-001
5.666096202444255e-009	7.554795e-001	5.622901e-001
5.928082459237933e-009	7.904110e-001	6.029461e-001
6.190068716031611e-009	8.253425e-001	6.429559e-001
6.452054972825289e-009	8.602740e-001	6.823196e-001
6.714041229618967e-009	8.952055e-001	7.210372e-001
6.976027486412645e-009	9.301370e-001	7.591086e-001
7.238013743206322e-009	9.650685e-001	7.965339e-001
7.499999999999999e-009	1.000000e+000	8.333131e-001
7.508625980977701e-009	1.000000e+000	8.345111e-001
7.525877942933104e-009	1.000000e+000	8.369047e-001
7.629389714665522e-009	1.000000e+000	8.511535e-001
7.767405410308746e-009	1.000000e+000	8.697818e-001
7.962717910308746e-009	1.000000e+000	8.953474e-001
8.158030410308746e-009	1.000000e+000	9.197178e-001
8.353342910308746e-009	1.000000e+000	9.425485e-001
8.548655410308745e-009	1.000000e+000	9.636147e-001
8.939280410308745e-009	1.000000e+000	9.998470e-001
9.329905410308745e-009	1.000000e+000	1.027724e+000
9.525217910308744e-009	1.000000e+000	1.038515e+000
9.720530410308744e-009	1.000000e+000	1.047277e+000
9.915842910308744e-009	1.000000e+000	1.054099e+000
1.011115541030874e-008	1.000000e+000	1.059095e+000
1.030646791030874e-008	1.000000e+000	1.062398e+000
1.050178041030874e-008	1.000000e+000	1.064154e+000
1.069709291030874e-008	1.000000e+000	1.064521e+000
1.089240541030874e-008	1.000000e+000	1.063662e+000
1.108771791030874e-008	1.000000e+000	1.061742e+000
1.128303041030874e-008	1.000000e+000	1.058926e+000
1.147834291030874e-008	1.000000e+000	1.055374e+000
1.167365541030874e-008	1.000000e+000	1.051241e+000
1.186896791030874e-008	1.000000e+000	1.046671e+000
1.206428041030874e-008	1.000000e+000	1.041802e+000
1.225959291030874e-008	1.000000e+000	1.036757e+000
1.245490541030874e-008	1.000000e+000	1.031650e+000
1.265021791030874e-008	1.000000e+000	1.026580e+000
1.284553041030874e-008	1.000000e+000	1.021635e+000
1.304084291030874e-008	1.000000e+000	1.016889e+000
1.323615541030874e-008	1.000000e+000	1.012403e+000
1.343146791030874e-008	1.000000e+000	1.008227e+000
1.362678041030874e-008	1.000000e+000	1.004398e+000
1.401740541030874e-008	1.000000e+000	9.978803e-001
1.440803041030874e-008	1.000000e+000	9.929486e-001
1.460334291030874e-008	1.000000e+000	9.910723e-001
1.479865541030874e-008	1.000000e+000	9.895727e-001
1.499396791030874e-008	1.000000e+000	9.884309e-001
1.518928041030874e-008	1.000000e+000	9.876239e-001
1.538459291030874e-008	1.000000e+000	9.871253e-001
1.557990541030874e-008	1.000000e+000	9.869064e-001
1.577521791030874e-008	1.000000e+000	9.869371e-001
1.597053041030875e-008	1.000000e+000	9.871863e-001
1.616584291030875e-008	1.000000e+000	9.876228e-001
1.636115541030875e-008	1.000000e+000	9.882158e-001
1.655646791030875e-008	1.000000e+000	9.889354e-001
1.675178041030875e-008	1.000000e+000	9.897532e-001
1.694709291030875e-008	1.000000e+000	9.906424e-001
1.714240541030875e-008	1.000000e+000	9.915782e-001
1.733771791030876e-008	1.000000e+000	9.925379e-001
1.753303041030876e-008	1.000000e+000	9.935013e-001
1.772834291030876e-008	1.000000e+000	9.944504e-001
1.792365541030876e-008	1.000000e+000	9.953700e-001
1.811896791030876e-008	1.000000e+000	9.962468e-001
1.831428041030876e-008	1.000000e+000	9.970704e-001
1.850959291030876e-008	1.000000e+000	9.978323e-001
1.890021791030877e-008	1.000000e+000	9.991480e-001
1.948615541030877e-008	1.000000e+000	1.000564e+000
1.968146791030877e-008	1.000000e+000	1.000888e+000
1.987678041030877e-008	1.000000e+000	1.001143e+000
2.007209291030878e-008	1.000000e+000	1.001332e+000
2.026740541030878e-008	1.000000e+000	1.001459e+000
2.046271791030878e-008	1.000000e+000	1.001531e+000
2.065803041030878e-008	1.000000e+000	1.001552e+000
2.085334291030878e-008	1.000000e+000	1.001528e+000
2.104865541030878e-008	1.000000e+000	1.001465e+000
2.124396791030878e-008	1.000000e+000	1.001370e+000
2.143928041030879e-008	1.000000e+000	1.001248e+000
2.163459291030879e-008	1.000000e+000	1.001103e+000
2.182990541030879e-008	1.000000e+000	1.000943e+000
2.202521791030879e-008	1.000000e+000	1.000771e+000
2.222053041030879e-008	1.000000e+000	1.000592e+000
2.241584291030879e-008	1.000000e+000	1.000410e+000
2.261115541030879e-008	1.000000e+000	1.000229e+000
2.280646791030880e-008	1.000000e+000	1.000051e+000
2.300178041030880e-008	1.000000e+000	9.998809e-001
2.319709291030880e-008	1.000000e+000	9.997193e-001
2.339240541030880e-008	1.000000e+000	9.995685e-001
2.358771791030880e-008	1.000000e+000	9.994299e-001
2.397834291030880e-008	1.000000e+000	9.991929e-001
2.436896791030881e-008	1.000000e+000	9.990124e-001
2.456428041030881e-008	1.000000e+000	9.989432e-001
2.475959291030881e-008	1.000000e+000	9.988875e-001
2.495490541030881e-008	1.000000e+000	9.988447e-001
2.515021791030881e-008	1.000000e+000	9.988140e-001
2.534553041030881e-008	1.000000e+000	9.987944e-001
2.554084291030882e-008	1.000000e+000	9.987850e-001
2.573615541030882e-008	1.000000e+000	9.987847e-001
2.593146791030882e-008	1.000000e+000	9.987924e-001
2.612678041030882e-008	1.000000e+000	9.988068e-001
2.632209291030882e-008	1.000000e+000	9.988271e-001
2.651740541030882e-008	1.000000e+000	9.988521e-001
2.671271791030883e-008	1.000000e+000	9.988807e-001
2.690803041030883e-008	1.000000e+000	9.989120e-001
2.710334291030883e-008	1.000000e+000	9.989452e-001
2.729865541030883e-008	1.000000e+000	9.989793e-001
2.749396791030883e-008	1.000000e+000	9.990136e-001
2.768928041030883e-008	1.000000e+000	9.990476e-001
2.788459291030883e-008	1.000000e+000	9.990805e-001
2.807990541030884e-008	1.000000e+000	9.991121e-001
2.827521791030884e-008	1.000000e+000	9.991418e-001
2.847053041030884e-008	1.000000e+000	9.991693e-001
2.886115541030884e-008	1.000000e+000	9.992171e-001
2.944709291030885e-008	1.000000e+000	9.992689e-001
2.964240541030885e-008	1.000000e+000	9.992809e-001
2.983771791030885e-008	1.000000e+000	9.992904e-001
3.003303041030885e-008	1.000000e+000	9.992975e-001
3.022834291030884e-008	1.000000e+000	9.993024e-001
3.042365541030884e-008	1.000000e+000	9.993052e-001
3.061896791030884e-008	1.000000e+000	9.993063e-001
3.081428041030884e-008	1.000000e+000	9.993057e-001
3.100959291030884e-008	1.000000e+000	9.993037e-001
3.120490541030883e-008	1.000000e+000	9.993005e-001
3.140021791030883e-008	1.000000e+000	9.992963e-001
3.159553041030883e-008	1.000000e+000	9.992912e-001
3.179084291030883e-008	1.000000e+000	9.992856e-001
3.198615541030883e-008	1.000000e+000	9.992796e-001
3.218146791030883e-008	1.000000e+000	9.992732e-001
3.237678041030882e-008	1.000000e+000	9.992667e-001
3.257209291030882e-008	1.000000e+000	9.992602e-001
3.276740541030882e-008	1.000000e+000	9.992539e-001
3.315803041030882e-008	1.000000e+000	9.992419e-001
3.374396791030881e-008	1.000000e+000	9.992269e-001
3.396718219602309e-008	1.000000e+000	9.992224e-001
3.419039648173738e-008	1.000000e+000	9.992184e-001
3.441361076745166e-008	1.000000e+000	9.992151e-001
3.463682505316594e-008	1.000000e+000	9.992124e-001
3.486003933888023e-008	1.000000e+000	9.992104e-001
3.508325362459451e-008	1.000000e+000	9.992090e-001
3.530646791030880e-008	1.000000e+000	9.992082e-001
3.569709291030879e-008	1.000000e+000	9.992077e-001
3.608771791030879e-008	1.000000e+000	9.992084e-001
3.647834291030878e-008	1.000000e+000	9.992099e-001
3.686896791030878e-008	1.000000e+000	9.992120e-001
3.745490541030878e-008	1.000000e+000	9.992157e-001
3.804084291030877e-008	1.000000e+000	9.992192e-001
3.840356612459448e-008	1.000000e+000	9.992211e-001
3.876628933888019e-008	1.000000e+000	9.992227e-001
3.912901255316590e-008	1.000000e+000	9.992241e-001
3.949173576745161e-008	1.000000e+000	9.992251e-001
3.985445898173733e-008	1.000000e+000	9.992258e-001
4.021718219602303e-008	1.000000e+000	9.992262e-001
4.057990541030875e-008	1.000000e+000	9.992263e-001
4.111003933888017e-008	1.000000e+000	9.992259e-001
4.164017326745159e-008	1.000000e+000	9.992255e-001
4.217030719602301e-008	1.000000e+000	9.992251e-001
4.270044112459444e-008	1.000000e+000	9.992246e-001
4.323057505316586e-008	1.000000e+000	9.992241e-001
4.376070898173729e-008	1.000000e+000	9.992236e-001
4.429084291030871e-008	1.000000e+000	9.992231e-001
4.529530719602298e-008	1.000000e+000	9.992231e-001
4.629977148173726e-008	1.000000e+000	9.992230e-001
4.730423576745154e-008	1.000000e+000	9.992230e-001
4.830870005316581e-008	1.000000e+000	9.992231e-001
4.931316433888009e-008	1.000000e+000	9.992232e-001
5.031762862459437e-008	1.000000e+000	9.992233e-001
5.132209291030864e-008	1.000000e+000	9.992234e-001
1.075000000000000e-007	1.000000e+000	9.992234e-001
1.075195312500000e-007	9.973958e-001	9.992225e-001
1.075585937500000e-007	9.921875e-001	9.992158e-001
1.076367187500000e-007	9.817708e-001	9.991562e-001
1.077929687500000e-007	9.609375e-001	9.987861e-001
1.079882812500000e-007	9.348958e-001	9.977022e-001
1.081835937500000e-007	9.088542e-001	9.956210e-001
1.083789062500000e-007	8.828125e-001	9.922093e-001
1.085742187500000e-007	8.567708e-001	9.872207e-001
1.087695312500000e-007	8.307292e-001	9.804676e-001
1.089648437500000e-007	8.046875e-001	9.718169e-001
1.095507812500000e-007	7.265625e-001	9.338804e-001
1.099414062500001e-007	6.744792e-001	8.987188e-001
1.101367187500001e-007	6.484375e-001	8.783839e-001
1.103320312500001e-007	6.223958e-001	8.563626e-001
1.105273437500001e-007	5.963542e-001	8.327888e-001
1.107226562500001e-007	5.703125e-001	8.078077e-001
1.109179687500001e-007	5.442708e-001	7.815726e-001
1.111132812500001e-007	5.182292e-001	7.542406e-001
1.113085937500001e-007	4.921875e-001	7.259694e-001
1.115039062500001e-007	4.661458e-001	6.969144e-001
1.118945312500001e-007	4.140625e-001	6.370487e-001
1.122851562500001e-007	3.619792e-001	5.757552e-001
1.126757812500001e-007	3.098958e-001	5.139869e-001
1.130664062500001e-007	2.578125e-001	4.525103e-001
1.134570312500001e-007	2.057292e-001	3.918962e-001
1.138476562500001e-007	1.536458e-001	3.325262e-001
1.140429687500002e-007	1.276042e-001	3.033794e-001
1.142382812500002e-007	1.015625e-001	2.746102e-001
1.144335937500002e-007	7.552084e-002	2.462222e-001
1.146289062500002e-007	4.947917e-002	2.182027e-001
1.148046875000000e-007	2.604167e-002	1.933078e-001
1.150000000000000e-007	0.000000e+000	1.659074e-001
1.150004296879739e-007	0.000000e+000	1.658477e-001
1.150012890639218e-007	0.000000e+000	1.657282e-001
1.150603739197434e-007	0.000000e+000	1.575335e-001
1.151194587755650e-007	0.000000e+000	1.494186e-001
1.151785436313866e-007	0.000000e+000	1.413837e-001
1.152376284872083e-007	0.000000e+000	1.334288e-001
1.152967133430299e-007	0.000000e+000	1.255538e-001
1.153557981988515e-007	0.000000e+000	1.177588e-001
1.154148830546731e-007	0.000000e+000	1.100437e-001
1.156101955546731e-007	0.000000e+000	8.533670e-002
1.158055080546731e-007	0.000000e+000	6.210497e-002
1.160008205546731e-007	0.000000e+000	4.058850e-002
1.161961330546731e-007	0.000000e+000	2.096692e-002
1.163914455546732e-007	0.000000e+000	3.363634e-003
1.165867580546732e-007	0.000000e+000	-1.214956e-002
1.167820705546732e-007	0.000000e+000	-2.554742e-002
1.169773830546732e-007	0.000000e+000	-3.684607e-002
1.171726955546732e-007	0.000000e+000	-4.609763e-002
1.173680080546732e-007	0.000000e+000	-5.338489e-002
1.175633205546732e-007	0.000000e+000	-5.881603e-002
1.177586330546732e-007	0.000000e+000	-6.251962e-002
1.179539455546732e-007	0.000000e+000	-6.463975e-002
1.181492580546732e-007	0.000000e+000	-6.533154e-002
1.183445705546732e-007	0.000000e+000	-6.475703e-002
1.185398830546732e-007	0.000000e+000	-6.308132e-002
1.187351955546732e-007	0.000000e+000	-6.046929e-002
1.189305080546732e-007	0.000000e+000	-5.708259e-002
1.191258205546732e-007	0.000000e+000	-5.307715e-002
1.193211330546732e-007	0.000000e+000	-4.860101e-002
1.195164455546732e-007	0.000000e+000	-4.379267e-002
1.197117580546732e-007	0.000000e+000	-3.877969e-002
1.199070705546732e-007	0.000000e+000	-3.367776e-002
1.201023830546732e-007	0.000000e+000	-2.859003e-002
1.202976955546732e-007	0.000000e+000	-2.360681e-002
1.204930080546733e-007	0.000000e+000	-1.880547e-002
1.206883205546733e-007	0.000000e+000	-1.425063e-002
1.208836330546733e-007	0.000000e+000	-9.994560e-003
1.210789455546733e-007	0.000000e+000	-6.077750e-003
1.212742580546733e-007	0.000000e+000	-2.529593e-003
1.214695705546733e-007	0.000000e+000	6.307724e-004
1.216648830546733e-007	0.000000e+000	3.393563e-003
1.218601955546733e-007	0.000000e+000	5.757383e-003
1.220555080546733e-007	0.000000e+000	7.728222e-003
1.222508205546733e-007	0.000000e+000	9.318448e-003
1.224461330546733e-007	0.000000e+000	1.054580e-002
1.226414455546733e-007	0.000000e+000	1.143242e-002
1.228367580546733e-007	0.000000e+000	1.200391e-002
1.230320705546733e-007	0.000000e+000	1.228842e-002
1.232273830546733e-007	0.000000e+000	1.231589e-002
1.234226955546733e-007	0.000000e+000	1.211721e-002
1.236180080546733e-007	0.000000e+000	1.172363e-002
1.238133205546733e-007	0.000000e+000	1.116607e-002
1.240086330546733e-007	0.000000e+000	1.047465e-002
1.242039455546733e-007	0.000000e+000	9.678239e-003
1.243992580546733e-007	0.000000e+000	8.804072e-003
1.245945705546734e-007	0.000000e+000	7.877463e-003
1.247898830546734e-007	0.000000e+000	6.921581e-003
1.249851955546734e-007	0.000000e+000	5.957292e-003
1.251805080546734e-007	0.000000e+000	5.003069e-003
1.253758205546734e-007	0.000000e+000	4.074941e-003
1.255711330546734e-007	0.000000e+000	3.186510e-003
1.257664455546734e-007	0.000000e+000	2.348995e-003
1.259617580546734e-007	0.000000e+000	1.571325e-003
1.261570705546734e-007	0.000000e+000	8.602544e-004
1.263523830546734e-007	0.000000e+000	2.205084e-004
1.265476955546734e-007	0.000000e+000	-3.450560e-004
1.267430080546734e-007	0.000000e+000	-8.352723e-004
1.269383205546734e-007	0.000000e+000	-1.250480e-003
1.271336330546734e-007	0.000000e+000	-1.592333e-003
1.273289455546734e-007	0.000000e+000	-1.863612e-003
1.275242580546734e-007	0.000000e+000	-2.068032e-003
1.277195705546734e-007	0.000000e+000	-2.210066e-003
1.279148830546734e-007	0.000000e+000	-2.294766e-003
1.281101955546734e-007	0.000000e+000	-2.327607e-003
1.283055080546734e-007	0.000000e+000	-2.314331e-003
1.285008205546734e-007	0.000000e+000	-2.260813e-003
1.286961330546734e-007	0.000000e+000	-2.172939e-003
1.288914455546735e-007	0.000000e+000	-2.056495e-003
1.290867580546735e-007	0.000000e+000	-1.917080e-003
1.292820705546735e-007	0.000000e+000	-1.760022e-003
1.294773830546735e-007	0.000000e+000	-1.590317e-003
1.296726955546735e-007	0.000000e+000	-1.412582e-003
1.298680080546735e-007	0.000000e+000	-1.231012e-003
1.300633205546735e-007	0.000000e+000	-1.049360e-003
1.302586330546735e-007	0.000000e+000	-8.709218e-004
1.304539455546735e-007	0.000000e+000	-6.985331e-004
1.306492580546735e-007	0.000000e+000	-5.345728e-004
1.308445705546735e-007	0.000000e+000	-3.809769e-004
1.310398830546735e-007	0.000000e+000	-2.392573e-004
1.312351955546735e-007	0.000000e+000	-1.105265e-004
1.314305080546735e-007	0.000000e+000	4.473961e-006
1.316258205546735e-007	0.000000e+000	1.053416e-004
1.318211330546735e-007	0.000000e+000	1.919788e-004
1.320164455546735e-007	0.000000e+000	2.645570e-004
1.322117580546735e-007	0.000000e+000	3.234814e-004
1.324070705546735e-007	0.000000e+000	3.693543e-004
1.326023830546735e-007	0.000000e+000	4.029407e-004
1.327976955546735e-007	0.000000e+000	4.251345e-004
1.329930080546736e-007	0.000000e+000	4.369261e-004
1.331883205546736e-007	0.000000e+000	4.393733e-004
1.333836330546736e-007	0.000000e+000	4.335736e-004
1.335789455546736e-007	0.000000e+000	4.206398e-004
1.337742580546736e-007	0.000000e+000	4.016773e-004
1.339695705546736e-007	0.000000e+000	3.777659e-004
1.341648830546736e-007	0.000000e+000	3.499428e-004
1.343601955546736e-007	0.000000e+000	3.191893e-004
1.345555080546736e-007	0.000000e+000	2.864197e-004
1.347508205546736e-007	0.000000e+000	2.524732e-004
1.349461330546736e-007	0.000000e+000	2.181076e-004
1.351414455546736e-007	0.000000e+000	1.839958e-004
1.353367580546736e-007	0.000000e+000	1.507238e-004
1.355320705546736e-007	0.000000e+000	1.187908e-004
1.357273830546736e-007	0.000000e+000	8.861098e-005
1.359226955546736e-007	0.000000e+000	6.051590e-005
1.361180080546736e-007	0.000000e+000	3.475908e-005
1.363133205546736e-007	0.000000e+000	1.152072e-005
1.365086330546736e-007	0.000000e+000	-9.086543e-006
1.367039455546736e-007	0.000000e+000	-2.701144e-005
1.368992580546736e-007	0.000000e+000	-4.225748e-005
1.370945705546737e-007	0.000000e+000	-5.487622e-005
1.372898830546737e-007	0.000000e+000	-6.496042e-005
1.374851955546737e-007	0.000000e+000	-7.263735e-005
1.376805080546737e-007	0.000000e+000	-7.806231e-005
1.378758205546737e-007	0.000000e+000	-8.141232e-005
1.380711330546737e-007	0.000000e+000	-8.288032e-005
1.382664455546737e-007	0.000000e+000	-8.266973e-005
1.384617580546737e-007	0.000000e+000	-8.098946e-005
1.386570705546737e-007	0.000000e+000	-7.804947e-005
1.388523830546737e-007	0.000000e+000	-7.405688e-005
1.390476955546737e-007	0.000000e+000	-6.921252e-005
1.392430080546737e-007	0.000000e+000	-6.370812e-005
1.394383205546737e-007	0.000000e+000	-5.772388e-005
1.396336330546737e-007	0.000000e+000	-5.142668e-005
1.398289455546737e-007	0.000000e+000	-4.496867e-005
1.400242580546737e-007	0.000000e+000	-3.848634e-005
1.402195705546737e-007	0.000000e+000	-3.209990e-005
1.404148830546737e-007	0.000000e+000	-2.591315e-005
1.406101955546737e-007	0.000000e+000	-2.001363e-005
1.408055080546737e-007	0.000000e+000	-1.447294e-005
1.410008205546737e-007	0.000000e+000	-9.347460e-006
1.411961330546738e-007	0.000000e+000	-4.679179e-006
1.413914455546738e-007	0.000000e+000	-4.966727e-007
1.415867580546738e-007	0.000000e+000	3.183758e-006
1.417820705546738e-007	0.000000e+000	6.356886e-006
1.419773830546738e-007	0.000000e+000	9.027301e-006
1.423680080546738e-007	0.000000e+000	1.291973e-005
1.427586330546738e-007	0.000000e+000	1.504555e-005
1.431492580546738e-007	0.000000e+000	1.566641e-005
1.435398830546738e-007	0.000000e+000	1.508563e-005
1.439305080546738e-007	0.000000e+000	1.361820e-005
1.443211330546738e-007	0.000000e+000	1.156676e-005
1.449070705546738e-007	0.000000e+000	7.979968e-006
1.454930080546739e-007	0.000000e+000	4.421664e-006
1.460789455546739e-007	0.000000e+000	1.387485e-006
1.464416687689596e-007	0.000000e+000	-4.260345e-008
1.468043919832453e-007	0.000000e+000	-1.195505e-006
1.471671151975310e-007	0.000000e+000	-2.071220e-006
1.475298384118168e-007	0.000000e+000	-2.669748e-006
