time	V(-1)	V(1)
0.000000000000000e+000	0.000000e+000	0.000000e+000
8.789062888397113e-015	0.000000e+000	1.171875e-006
1.757812577679423e-014	0.000000e+000	2.343750e-006
5.157924335076479e-012	0.000000e+000	6.877232e-004
1.029827054437616e-011	0.000000e+000	1.373103e-003
1.543861675367585e-011	0.000000e+000	2.058482e-003
2.057896296297553e-011	0.000000e+000	2.743862e-003
2.571930917227522e-011	0.000000e+000	3.429241e-003
3.085965538157490e-011	0.000000e+000	4.114621e-003
3.600000159087458e-011	0.000000e+000	4.800000e-003
7.200000318174915e-011	0.000000e+000	9.600000e-003
1.325794233661035e-010	0.000000e+000	1.767726e-002
1.864337074637762e-010	0.000000e+000	2.485783e-002
2.319822021237009e-010	0.000000e+000	3.093096e-002
2.741750914127380e-010	0.000000e+000	3.655668e-002
3.257198029646638e-010	0.000000e+000	4.342931e-002
3.765728234863633e-010	0.000000e+000	5.020971e-002
4.416415896668359e-010	0.000000e+000	5.888554e-002
5.116428595332055e-010	0.000000e+000	6.821905e-002
5.982862167149714e-010	0.000000e+000	7.977150e-002
6.945989238339477e-010	0.000000e+000	9.261319e-002
8.112456355677239e-010	0.000000e+000	1.081661e-001
9.113057536816813e-010	0.000000e+000	1.215074e-001
1.007949481582651e-009	0.000000e+000	1.343933e-001
1.112384826813982e-009	0.000000e+000	1.483180e-001
1.225448948200161e-009	0.000000e+000	1.633932e-001
1.350887686907096e-009	0.000000e+000	1.801184e-001
1.488466969787347e-009	0.000000e+000	1.984623e-001
1.641238670880245e-009	0.000000e+000	2.188318e-001
1.809704924258455e-009	0.000000e+000	2.412940e-001
1.951133488593507e-009	0.000000e+000	2.601511e-001
2.113593202735042e-009	0.000000e+000	2.818124e-001
2.266174336425407e-009	0.000000e+000	3.021566e-001
2.444438480262063e-009	0.000000e+000	3.259251e-001
2.623734407001495e-009	0.000000e+000	3.498313e-001
2.827974768540181e-009	0.000000e+000	3.770633e-001
3.039850800814619e-009	0.000000e+000	4.053134e-001
3.246505277662169e-009	0.000000e+000	4.328674e-001
3.440729835863300e-009	0.000000e+000	4.587640e-001
3.655315315751796e-009	0.000000e+000	4.873754e-001
3.873448592016730e-009	0.000000e+000	5.164598e-001
4.113527567162546e-009	0.000000e+000	5.484703e-001
4.363375060047439e-009	0.000000e+000	5.817834e-001
4.599398508215574e-009	0.000000e+000	6.132531e-001
4.835499894390564e-009	0.000000e+000	6.447333e-001
5.084359018078711e-009	0.000000e+000	6.779146e-001
5.344258517458585e-009	0.000000e+000	7.125678e-001
5.620897696784201e-009	0.000000e+000	7.494530e-001
5.870650407424370e-009	0.000000e+000	7.827534e-001
6.137339803794358e-009	0.000000e+000	8.183120e-001
6.404864540635042e-009	0.000000e+000	8.539819e-001
6.693136165878170e-009	0.000000e+000	8.924181e-001
6.989576396853287e-009	0.000000e+000	9.319435e-001
7.182242264554539e-009	0.000000e+000	9.576323e-001
7.242847566861928e-009	0.000000e+000	9.657130e-001
7.364058171476707e-009	0.000000e+000	9.818744e-001
7.499999999999999e-009	0.000000e+000	1.000000e+000
7.513594182852329e-009	0.000000e+000	1.000000e+000
7.540782548556987e-009	0.000000e+000	1.000000e+000
7.595159279966305e-009	0.000000e+000	1.000000e+000
7.703912742784939e-009	0.000000e+000	1.000000e+000
7.921419668422206e-009	0.000000e+000	1.000000e+000
8.224549478340952e-009	0.000000e+000	1.000000e+000
8.532539226574853e-009	0.000000e+000	1.000000e+000
8.825704198672887e-009	0.000000e+000	1.000000e+000
9.141609846084118e-009	0.000000e+000	1.000000e+000
9.458569262532231e-009	0.000000e+000	1.000000e+000
9.798183952593363e-009	0.000000e+000	1.000000e+000
1.014545056281940e-008	0.000000e+000	1.000000e+000
1.047039225491635e-008	0.000000e+000	1.000000e+000
1.081392642613179e-008	0.000000e+000	1.000000e+000
1.115931834799286e-008	0.000000e+000	1.000000e+000
1.152627910099725e-008	0.000000e+000	1.000000e+000
1.190227763122094e-008	0.000000e+000	1.000000e+000
1.226358625020376e-008	0.000000e+000	1.000000e+000
1.263247121182507e-008	0.000000e+000	1.000000e+000
1.301143362319650e-008	0.000000e+000	1.000000e+000
1.337221404489116e-008	0.000000e+000	1.000000e+000
1.372791824047503e-008	0.000000e+000	1.000000e+000
1.411261015138383e-008	0.000000e+000	1.000000e+000
1.449837623497586e-008	0.000000e+000	1.000000e+000
1.490956324942799e-008	0.000000e+000	1.000000e+000
1.532819379437404e-008	0.000000e+000	1.000000e+000
1.571621752593507e-008	0.000000e+000	1.000000e+000
1.613814236410737e-008	0.000000e+000	1.000000e+000
1.655379231315386e-008	0.000000e+000	1.000000e+000
1.695192587303713e-008	0.000000e+000	1.000000e+000
1.737076441301335e-008	0.000000e+000	1.000000e+000
1.779188472610567e-008	0.000000e+000	1.000000e+000
1.823542338364231e-008	0.000000e+000	1.000000e+000
1.868824692754862e-008	0.000000e+000	1.000000e+000
1.911017425609743e-008	0.000000e+000	1.000000e+000
1.956690278145756e-008	0.000000e+000	1.000000e+000
2.001716255800788e-008	0.000000e+000	1.000000e+000
2.045100021785526e-008	0.000000e+000	1.000000e+000
2.090552133696298e-008	0.000000e+000	1.000000e+000
2.136318818875274e-008	0.000000e+000	1.000000e+000
2.184349046902490e-008	0.000000e+000	1.000000e+000
2.233055627113133e-008	0.000000e+000	1.000000e+000
2.279155011750881e-008	0.000000e+000	1.000000e+000
2.328530066911956e-008	0.000000e+000	1.000000e+000
2.377576359162050e-008	0.000000e+000	1.000000e+000
2.424537393276073e-008	0.000000e+000	1.000000e+000
2.474214801267697e-008	0.000000e+000	1.000000e+000
2.523894548129171e-008	0.000000e+000	1.000000e+000
2.576292072547389e-008	0.000000e+000	1.000000e+000
2.624367759877891e-008	0.000000e+000	1.000000e+000
2.677045727976047e-008	0.000000e+000	1.000000e+000
2.728327201336002e-008	0.000000e+000	1.000000e+000
2.778424109193161e-008	0.000000e+000	1.000000e+000
2.830576810883267e-008	0.000000e+000	1.000000e+000
2.883309540340400e-008	0.000000e+000	1.000000e+000
2.938226687175948e-008	0.000000e+000	1.000000e+000
2.989391497361163e-008	0.000000e+000	1.000000e+000
3.044811455779584e-008	0.000000e+000	1.000000e+000
3.099204346604479e-008	0.000000e+000	1.000000e+000
3.152201079643749e-008	0.000000e+000	1.000000e+000
3.207514258788785e-008	0.000000e+000	1.000000e+000
3.263303294220380e-008	0.000000e+000	1.000000e+000
3.316602515941959e-008	0.000000e+000	1.000000e+000
3.373085937705752e-008	0.000000e+000	1.000000e+000
3.429326626786950e-008	0.000000e+000	1.000000e+000
3.485202058704461e-008	0.000000e+000	1.000000e+000
3.541563931380988e-008	0.000000e+000	1.000000e+000
3.599537563678216e-008	0.000000e+000	1.000000e+000
3.658367011495398e-008	0.000000e+000	1.000000e+000
3.714897444235407e-008	0.000000e+000	1.000000e+000
3.774722783402436e-008	0.000000e+000	1.000000e+000
3.834425505997861e-008	0.000000e+000	1.000000e+000
3.892193011144921e-008	0.000000e+000	1.000000e+000
3.952849914384417e-008	0.000000e+000	1.000000e+000
4.013670653100816e-008	0.000000e+000	1.000000e+000
4.072360294426612e-008	0.000000e+000	1.000000e+000
4.134110165891978e-008	0.000000e+000	1.000000e+000
4.195899862001788e-008	0.000000e+000	1.000000e+000
4.255689649892824e-008	2.802597e-045	1.000000e+000
4.318460158212779e-008	1.401298e-044	1.000000e+000
4.381356429797683e-008	6.445973e-044	1.000000e+000
4.442218745135253e-008	2.816610e-043	1.000000e+000
4.506118753729230e-008	1.275182e-042	1.000000e+000
4.570063215081718e-008	5.407611e-042	1.000000e+000
4.632109156739857e-008	2.259454e-041	1.000000e+000
4.697132775646075e-008	9.532193e-041	1.000000e+000
4.760057481687153e-008	3.806655e-040	1.000000e+000
4.824280552355845e-008	1.554123e-039	1.000000e+000
4.889400478012062e-008	6.067353e-039	1.000000e+000
4.951861130621937e-008	2.302940e-038	1.000000e+000
5.017769420071067e-008	9.159276e-038	1.000000e+000
5.083369676698509e-008	3.440522e-037	1.000000e+000
5.147421024498578e-008	1.273654e-036	1.000000e+000
5.214148866785732e-008	4.888384e-036	1.000000e+000
5.281258460864330e-008	1.792284e-035	1.000000e+000
5.346312839994236e-008	6.432705e-035	1.000000e+000
5.414496279469755e-008	2.403893e-034	1.000000e+000
5.482759102235551e-008	8.567909e-034	1.000000e+000
5.549217680521693e-008	2.997750e-033	1.000000e+000
5.618658863037150e-008	1.069197e-032	1.000000e+000
5.686529170420259e-008	3.642589e-032	1.000000e+000
5.755126461471679e-008	1.254188e-031	1.000000e+000
5.825100069531893e-008	4.211540e-031	1.000000e+000
5.892136331333220e-008	1.367463e-030	1.000000e+000
5.962964538579429e-008	4.643388e-030	1.000000e+000
6.033336957251627e-008	1.505599e-029	1.000000e+000
6.102398786316551e-008	4.813399e-029	1.000000e+000
6.174095070591030e-008	1.572643e-028	1.000000e+000
6.245356321835686e-008	4.959723e-028	1.000000e+000
6.315989086398643e-008	1.553278e-027	1.000000e+000
6.388981830135912e-008	4.825959e-027	1.000000e+000
6.458296259284124e-008	1.437002e-026	1.000000e+000
6.532036653199971e-008	4.490369e-026	1.000000e+000
6.604874188107753e-008	1.340598e-025	1.000000e+000
6.676816247526046e-008	3.961144e-025	1.000000e+000
6.751141117153783e-008	1.164873e-024	1.000000e+000
6.821759131671407e-008	3.282755e-024	1.000000e+000
6.896816499677626e-008	9.685246e-024	1.000000e+000
6.970954949297902e-008	2.739747e-023	1.000000e+000
7.044262362681976e-008	7.670353e-023	1.000000e+000
7.119921157056822e-008	2.151278e-022	1.000000e+000
7.192867327046274e-008	5.813964e-022	1.000000e+000
7.268859133069329e-008	1.617154e-021	1.000000e+000
7.344892763373153e-008	4.372091e-021	1.000000e+000
7.419335261962168e-008	1.159844e-020	1.000000e+000
7.496745516150111e-008	3.103751e-020	1.000000e+000
7.570902444979530e-008	7.970160e-020	1.000000e+000
7.648633130755238e-008	2.113386e-019	1.000000e+000
7.726036091332859e-008	5.438224e-019	1.000000e+000
7.802184692923045e-008	1.377635e-018	1.000000e+000
7.881079133822098e-008	3.501640e-018	1.000000e+000
7.956114756905027e-008	8.535064e-018	1.000000e+000
8.035820727889467e-008	2.165529e-017	1.000000e+000
8.114530544212301e-008	5.307034e-017	1.000000e+000
8.192604278075812e-008	1.287773e-016	1.000000e+000
8.273007098620586e-008	3.123759e-016	1.000000e+000
8.349916976111766e-008	7.299956e-016	1.000000e+000
8.431271405709377e-008	1.762970e-015	1.000000e+000
8.511223277995414e-008	4.117080e-015	1.000000e+000
8.591342370410712e-008	9.582715e-015	1.000000e+000
8.673348129115888e-008	2.220903e-014	1.000000e+000
8.752282028845811e-008	4.982682e-014	1.000000e+000
8.835418747599318e-008	1.137520e-013	1.000000e+000
8.913636595502664e-008	2.473537e-013	1.000000e+000
8.997449690150595e-008	5.605616e-013	1.000000e+000
9.079621187661617e-008	1.226328e-012	1.000000e+000
9.161757424673298e-008	2.667194e-012	1.000000e+000
9.245859334630883e-008	5.784659e-012	1.000000e+000
9.326843027743284e-008	1.215411e-011	1.000000e+000
9.412104649116682e-008	2.597103e-011	1.000000e+000
9.492439635937153e-008	5.298931e-011	1.000000e+000
9.578436093848479e-008	1.116117e-010	1.000000e+000
9.660316791824674e-008	2.248306e-010	1.000000e+000
9.745866715879019e-008	4.625166e-010	1.000000e+000
9.830970811568523e-008	9.310290e-010	1.000000e+000
9.915057263526358e-008	1.847119e-009	1.000000e+000
1.000189130880129e-007	3.677256e-009	1.000000e+000
1.008506534691730e-007	7.074626e-009	1.000000e+000
1.017295597191730e-007	1.385840e-008	1.000000e+000
1.025567487214068e-007	2.593349e-008	1.000000e+000
1.034356549714068e-007	4.973872e-008	1.000000e+000
1.042790283679349e-007	9.199880e-008	1.000000e+000
1.051579346179349e-007	1.728547e-007	1.000000e+000
1.060361517401040e-007	3.090037e-007	1.000000e+000
1.066334231156826e-007	4.683544e-007	1.000000e+000
1.075000000000000e-007	7.935977e-007	1.000000e+000
1.075866576884317e-007	8.423938e-007	9.884456e-001
1.077599730652952e-007	9.490067e-007	9.653369e-001
1.081066038190222e-007	1.209409e-006	9.191195e-001
1.086863655614006e-007	1.813091e-006	8.418179e-001
1.094694212088637e-007	3.059271e-006	7.374105e-001
1.102982552909510e-007	5.215757e-006	6.268993e-001
1.111771615409510e-007	9.041229e-006	5.097118e-001
1.120560677909510e-007	1.543806e-005	3.925243e-001
1.129349740409510e-007	2.605229e-005	2.753368e-001
1.138138802909510e-007	4.163994e-005	1.581493e-001
1.141210937500000e-007	4.896852e-005	1.171875e-001
1.143855730819019e-007	5.657572e-005	8.192359e-002
1.144710413361962e-007	5.931849e-005	7.052782e-002
1.146419778447846e-007	6.519925e-005	4.773629e-002
1.146581269828230e-007	6.577768e-005	4.558307e-002
1.146904252588998e-007	6.697833e-005	4.127663e-002
1.147550218110534e-007	6.945475e-005	3.266376e-002
1.148708068956928e-007	7.410203e-005	1.722575e-002
1.150000000000000e-007	7.950314e-005	0.000000e+000
1.150002842250959e-007	7.951562e-005	0.000000e+000
1.150008526752878e-007	7.954058e-005	0.000000e+000
1.150214792965358e-007	8.045218e-005	0.000000e+000
1.150421059177837e-007	8.137678e-005	0.000000e+000
1.150627325390317e-007	8.231438e-005	0.000000e+000
1.150833591602797e-007	8.326497e-005	0.000000e+000
1.151039857815276e-007	8.422857e-005	0.000000e+000
1.151246124027756e-007	8.520516e-005	0.000000e+000
1.151452390240236e-007	8.619475e-005	0.000000e+000
1.152907622731431e-007	9.358937e-005	0.000000e+000
1.155818087713821e-007	1.108196e-004	0.000000e+000
1.161639017678600e-007	1.531330e-004	0.000000e+000
1.166666570019760e-007	2.001006e-004	0.000000e+000
1.172039144284191e-007	2.660129e-004	0.000000e+000
1.177526410467322e-007	3.540745e-004	0.000000e+000
1.183165422474884e-007	4.726002e-004	0.000000e+000
1.188757537601053e-007	6.251906e-004	0.000000e+000
1.193920547633224e-007	8.051762e-004	0.000000e+000
1.198571954805694e-007	1.009043e-003	0.000000e+000
1.203161630255273e-007	1.257075e-003	0.000000e+000
1.207346018108850e-007	1.528761e-003	0.000000e+000
1.210537675604779e-007	1.772789e-003	0.000000e+000
1.213583121682915e-007	2.042084e-003	0.000000e+000
1.216627486509874e-007	2.352634e-003	0.000000e+000
1.220490089301608e-007	2.814822e-003	0.000000e+000
1.225253958806787e-007	3.491898e-003	0.000000e+000
1.229750244771119e-007	4.252875e-003	0.000000e+000
1.233541309823481e-007	5.008673e-003	0.000000e+000
1.236811499073163e-007	5.765627e-003	0.000000e+000
1.240296445232222e-007	6.691584e-003	0.000000e+000
1.243763715998282e-007	7.738092e-003	0.000000e+000
1.246681124355279e-007	8.733347e-003	0.000000e+000
1.249626630152292e-007	9.863607e-003	0.000000e+000
1.252751179335043e-007	1.122719e-002	0.000000e+000
1.257344038685319e-007	1.352034e-002	0.000000e+000
1.261225088210796e-007	1.575078e-002	0.000000e+000
1.265128680757708e-007	1.834049e-002	0.000000e+000
1.269042386935650e-007	2.128915e-002	0.000000e+000
1.272071320326604e-007	2.385584e-002	0.000000e+000
1.275079576529431e-007	2.669646e-002	0.000000e+000
1.278106249115756e-007	2.985277e-002	0.000000e+000
1.281069122048947e-007	3.326596e-002	0.000000e+000
1.284305293679894e-007	3.739081e-002	0.000000e+000
1.287714516728644e-007	4.225848e-002	0.000000e+000
1.292430612841874e-007	4.982189e-002	0.000000e+000
1.296188844245594e-007	5.656721e-002	0.000000e+000
1.299366977432366e-007	6.292096e-002	0.000000e+000
1.302587151192293e-007	7.001592e-002	0.000000e+000
1.306050213444667e-007	7.836218e-002	0.000000e+000
1.309033298470005e-007	8.620290e-002	0.000000e+000
1.312061093282225e-007	9.486903e-002	0.000000e+000
1.315349212724144e-007	1.051175e-001	0.000000e+000
1.319069896365182e-007	1.177771e-001	0.000000e+000
1.322793470242582e-007	1.316109e-001	0.000000e+000
1.326285927504997e-007	1.457567e-001	0.000000e+000
1.329780613481494e-007	1.610990e-001	0.000000e+000
1.332968495495068e-007	1.761721e-001	0.000000e+000
1.335993379330494e-007	1.915056e-001	0.000000e+000
1.339066633828834e-007	2.081304e-001	0.000000e+000
1.342089511895919e-007	2.255552e-001	0.000000e+000
1.345389977867011e-007	2.457959e-001	0.000000e+000
1.348550469962103e-007	2.664315e-001	0.000000e+000
1.352253464209591e-007	2.922454e-001	0.000000e+000
1.356493297768720e-007	3.236932e-001	0.000000e+000
1.359733087433706e-007	3.491756e-001	0.000000e+000
1.362849378768261e-007	3.750307e-001	0.000000e+000
1.365992542441656e-007	4.023322e-001	0.000000e+000
1.368964628376929e-007	4.292629e-001	0.000000e+000
1.371911113870408e-007	4.570516e-001	0.000000e+000
1.375105595984810e-007	4.883685e-001	0.000000e+000
1.378721538595366e-007	5.251552e-001	0.000000e+000
1.382151212754254e-007	5.612805e-001	0.000000e+000
1.385446269081703e-007	5.971051e-001	0.000000e+000
1.388809868373240e-007	6.346907e-001	0.000000e+000
1.392127992944536e-007	6.726540e-001	0.000000e+000
1.395514289863467e-007	7.121645e-001	0.000000e+000
1.398584423576394e-007	7.485475e-001	0.000000e+000
1.401746663122567e-007	7.864590e-001	0.000000e+000
1.404919814651509e-007	8.247870e-001	0.000000e+000
1.408381045206676e-007	8.667358e-001	0.000000e+000
1.411677180587708e-007	9.066274e-001	0.000000e+000
1.415194822506630e-007	9.488955e-001	0.000000e+000
1.419148040607207e-007	9.957939e-001	0.000000e+000
1.422343527532332e-007	1.033002e+000	0.000000e+000
1.425428366067019e-007	1.068060e+000	0.000000e+000
1.428541230866122e-007	1.102433e+000	0.000000e+000
1.431485852334608e-007	1.133829e+000	0.000000e+000
1.434607034877606e-007	1.165705e+000	0.000000e+000
1.437959964419005e-007	1.198145e+000	0.000000e+000
1.441702241010144e-007	1.232097e+000	0.000000e+000
1.444769817892488e-007	1.257874e+000	0.000000e+000
1.448015597068947e-007	1.282788e+000	0.000000e+000
1.451376672429534e-007	1.306057e+000	0.000000e+000
1.454629349462406e-007	1.325994e+000	0.000000e+000
1.457669585847115e-007	1.342143e+000	0.000000e+000
1.460721626193470e-007	1.355762e+000	0.000000e+000
1.464090981472984e-007	1.367837e+000	0.000000e+000
1.467449793498055e-007	1.376875e+000	0.000000e+000
1.470489413304546e-007	1.382430e+000	0.000000e+000
1.473039094119472e-007	1.385073e+000	0.000000e+000
1.475388049365364e-007	1.385598e+000	0.000000e+000
1.479217096199165e-007	1.383255e+000	0.000000e+000
1.482872867429239e-007	1.377929e+000	0.000000e+000
1.485997256569880e-007	1.370648e+000	0.000000e+000
1.489434737894380e-007	1.359925e+000	0.000000e+000
1.492795007974127e-007	1.347087e+000	0.000000e+000
1.496052998022865e-007	1.332624e+000	0.000000e+000
1.498822240930726e-007	1.318915e+000	0.000000e+000
1.501414824679804e-007	1.304924e+000	0.000000e+000
1.505211163947690e-007	1.283036e+000	0.000000e+000
1.508679967788753e-007	1.262040e+000	0.000000e+000
1.511825205321824e-007	1.242360e+000	0.000000e+000
1.515311702163675e-007	1.220240e+000	0.000000e+000
1.518616845290945e-007	1.199330e+000	0.000000e+000
1.521577612544346e-007	1.180945e+000	0.000000e+000
1.524751034307587e-007	1.161920e+000	0.000000e+000
1.528139857198871e-007	1.142700e+000	0.000000e+000
1.531882872858870e-007	1.123074e+000	0.000000e+000
1.535356568566401e-007	1.106663e+000	0.000000e+000
1.538608563329082e-007	1.093275e+000	0.000000e+000
1.542189060323686e-007	1.080960e+000	0.000000e+000
1.545901309701079e-007	1.070915e+000	0.000000e+000
1.549426144102677e-007	1.064120e+000	0.000000e+000
1.552805718106454e-007	1.060309e+000	0.000000e+000
1.556386458150798e-007	1.059110e+000	0.000000e+000
1.559903863888038e-007	1.060671e+000	0.000000e+000
1.563427365968699e-007	1.064947e+000	0.000000e+000
1.567273751208382e-007	1.072269e+000	0.000000e+000
1.570194030760022e-007	1.079633e+000	0.000000e+000
1.573515702285378e-007	1.089797e+000	0.000000e+000
1.576812934570709e-007	1.101335e+000	0.000000e+000
1.580339066632356e-007	1.114964e+000	0.000000e+000
1.583696566787236e-007	1.128842e+000	0.000000e+000
1.587325799333972e-007	1.144434e+000	0.000000e+000
1.590676424905575e-007	1.159003e+000	0.000000e+000
1.593564328779414e-007	1.171421e+000	0.000000e+000
1.596645475045480e-007	1.184184e+000	0.000000e+000
1.600565923123598e-007	1.199416e+000	0.000000e+000
1.604103346802821e-007	1.211856e+000	0.000000e+000
1.607739399891352e-007	1.222975e+000	0.000000e+000
1.611061039975170e-007	1.231401e+000	0.000000e+000
1.614512977537403e-007	1.238177e+000	0.000000e+000
1.617931184098349e-007	1.242815e+000	0.000000e+000
1.621389555028397e-007	1.245291e+000	0.000000e+000
1.624995126175475e-007	1.245480e+000	0.000000e+000
1.628865937572823e-007	1.243134e+000	0.000000e+000
1.632559978646311e-007	1.238588e+000	0.000000e+000
1.636072213708319e-007	1.232294e+000	0.000000e+000
1.639479780702337e-007	1.224587e+000	0.000000e+000
