time	V(-1)	V(1)
0.000000000000000e+000	0.000000e+000	0.000000e+000
2.929687488293547e-015	0.000000e+000	3.906250e-007
5.859374976587093e-015	0.000000e+000	7.812500e-007
6.862165151151572e-012	0.000000e+000	9.149554e-004
1.371847092732656e-011	0.000000e+000	1.829129e-003
2.057477670350154e-011	0.000000e+000	2.743304e-003
2.743108247967653e-011	0.000000e+000	3.657478e-003
3.428738825585152e-011	0.000000e+000	4.571652e-003
4.114369403202650e-011	0.000000e+000	5.485826e-003
4.799999980820147e-011	0.000000e+000	6.400000e-003
9.599999961640293e-011	0.000000e+000	1.280000e-002
1.404606014236565e-010	0.000000e+000	1.872808e-002
1.783236865824398e-010	0.000000e+000	2.377649e-002
2.133624804419516e-010	0.000000e+000	2.844833e-002
2.524063542346297e-010	0.000000e+000	3.365418e-002
2.929017788970762e-010	0.000000e+000	3.905357e-002
3.425937548498220e-010	0.000000e+000	4.567917e-002
3.978514655120642e-010	0.000000e+000	5.304686e-002
4.645797710677486e-010	0.000000e+000	6.194397e-002
5.403068812387476e-010	0.000000e+000	7.204092e-002
6.307358062350090e-010	0.000000e+000	8.409811e-002
7.079893803692061e-010	0.000000e+000	9.439858e-002
7.836459236611387e-010	0.000000e+000	1.044861e-001
8.648150319715850e-010	0.000000e+000	1.153087e-001
9.533838991931495e-010	0.000000e+000	1.271179e-001
1.051271808406195e-009	0.000000e+000	1.401696e-001
1.159241009936828e-009	0.000000e+000	1.545655e-001
1.278989387682822e-009	0.000000e+000	1.705319e-001
1.396557812889042e-009	0.000000e+000	1.862077e-001
1.506237046328307e-009	0.000000e+000	2.008316e-001
1.622814105635592e-009	0.000000e+000	2.163752e-001
1.745252821730090e-009	0.000000e+000	2.327004e-001
1.878826092854392e-009	0.000000e+000	2.505102e-001
2.021722797969882e-009	0.000000e+000	2.695630e-001
2.177735489724570e-009	0.000000e+000	2.903647e-001
2.313196995441448e-009	0.000000e+000	3.084263e-001
2.459900481889272e-009	0.000000e+000	3.279867e-001
2.607287994033612e-009	0.000000e+000	3.476384e-001
2.769490394963849e-009	0.000000e+000	3.692654e-001
2.937795246810041e-009	0.000000e+000	3.917060e-001
3.121752783602838e-009	0.000000e+000	4.162337e-001
3.302567426918073e-009	0.000000e+000	4.403423e-001
3.469663158169185e-009	0.000000e+000	4.626217e-001
3.654689521797214e-009	0.000000e+000	4.872919e-001
3.840326689612211e-009	0.000000e+000	5.120435e-001
4.044539681067157e-009	0.000000e+000	5.392720e-001
4.227764994987606e-009	0.000000e+000	5.637020e-001
4.422060863015607e-009	0.000000e+000	5.896081e-001
4.617703286808859e-009	0.000000e+000	6.156937e-001
4.828249794968700e-009	0.000000e+000	6.437666e-001
5.045663481100010e-009	0.000000e+000	6.727551e-001
5.245441075231733e-009	0.000000e+000	6.993921e-001
5.458755053440760e-009	0.000000e+000	7.278340e-001
5.673038340546209e-009	0.000000e+000	7.564051e-001
5.903234374701521e-009	0.000000e+000	7.870979e-001
6.139853745656884e-009	0.000000e+000	8.186471e-001
6.361321752244273e-009	0.000000e+000	8.481762e-001
6.593822328680316e-009	0.000000e+000	8.791763e-001
6.829555108356707e-009	0.000000e+000	9.106073e-001
7.079883430092167e-009	0.000000e+000	9.439844e-001
7.241472718691558e-009	0.000000e+000	9.655297e-001
7.281792218401954e-009	0.000000e+000	9.709056e-001
7.362431217822746e-009	0.000000e+000	9.816575e-001
7.499999999999999e-009	0.000000e+000	1.000000e+000
7.513756878217725e-009	0.000000e+000	1.000000e+000
7.541270634653175e-009	0.000000e+000	1.000000e+000
7.596298147524077e-009	0.000000e+000	1.000000e+000
7.706353173265880e-009	0.000000e+000	1.000000e+000
7.926463224749485e-009	0.000000e+000	1.000000e+000
8.165171580565447e-009	0.000000e+000	1.000000e+000
8.402737421335003e-009	0.000000e+000	1.000000e+000
8.670384792129401e-009	0.000000e+000	1.000000e+000
8.922443892864793e-009	0.000000e+000	1.000000e+000
9.203252571979989e-009	0.000000e+000	1.000000e+000
9.479896087609552e-009	0.000000e+000	1.000000e+000
9.765674830771160e-009	0.000000e+000	1.000000e+000
1.003512079189841e-008	0.000000e+000	1.000000e+000
1.032786309669213e-008	0.000000e+000	1.000000e+000
1.061910649875856e-008	0.000000e+000	1.000000e+000
1.091207524875856e-008	0.000000e+000	1.000000e+000
1.119789959586993e-008	0.000000e+000	1.000000e+000
1.149086834586993e-008	0.000000e+000	1.000000e+000
1.178383709586993e-008	0.000000e+000	1.000000e+000
1.207680584586993e-008	0.000000e+000	1.000000e+000
1.236977459586993e-008	0.000000e+000	1.000000e+000
1.266274334586993e-008	0.000000e+000	1.000000e+000
1.295571209586993e-008	0.000000e+000	1.000000e+000
1.324868084586993e-008	0.000000e+000	1.000000e+000
1.354164959586993e-008	0.000000e+000	1.000000e+000
1.383461834586993e-008	0.000000e+000	1.000000e+000
1.412758709586993e-008	0.000000e+000	1.000000e+000
1.442055584586993e-008	0.000000e+000	1.000000e+000
1.471352459586993e-008	0.000000e+000	1.000000e+000
1.500649334586993e-008	0.000000e+000	1.000000e+000
1.529946209586993e-008	0.000000e+000	1.000000e+000
1.559243084586993e-008	0.000000e+000	1.000000e+000
1.588539959586994e-008	0.000000e+000	1.000000e+000
1.617836834586994e-008	0.000000e+000	1.000000e+000
1.647133709586994e-008	0.000000e+000	1.000000e+000
1.676430584586994e-008	0.000000e+000	1.000000e+000
1.705727459586994e-008	0.000000e+000	1.000000e+000
1.735024334586994e-008	0.000000e+000	1.000000e+000
1.764321209586994e-008	0.000000e+000	1.000000e+000
1.793618084586994e-008	0.000000e+000	1.000000e+000
1.822914959586994e-008	0.000000e+000	1.000000e+000
1.852211834586994e-008	0.000000e+000	1.000000e+000
1.881508709586994e-008	0.000000e+000	1.000000e+000
1.910805584586994e-008	0.000000e+000	1.000000e+000
1.940102459586994e-008	0.000000e+000	1.000000e+000
1.969399334586994e-008	0.000000e+000	1.000000e+000
1.998696209586994e-008	0.000000e+000	1.000000e+000
2.027993084586994e-008	0.000000e+000	1.000000e+000
2.057289959586994e-008	0.000000e+000	1.000000e+000
2.086586834586994e-008	0.000000e+000	1.000000e+000
2.115883709586994e-008	0.000000e+000	1.000000e+000
2.145180584586994e-008	0.000000e+000	1.000000e+000
2.174477459586995e-008	0.000000e+000	1.000000e+000
2.203774334586995e-008	0.000000e+000	1.000000e+000
2.233071209586995e-008	0.000000e+000	1.000000e+000
2.262368084586995e-008	0.000000e+000	1.000000e+000
2.291664959586995e-008	0.000000e+000	1.000000e+000
2.320961834586995e-008	0.000000e+000	1.000000e+000
2.350258709586995e-008	0.000000e+000	1.000000e+000
2.379555584586995e-008	0.000000e+000	1.000000e+000
2.408852459586995e-008	0.000000e+000	1.000000e+000
2.438149334586995e-008	0.000000e+000	1.000000e+000
2.467446209586995e-008	0.000000e+000	1.000000e+000
2.496743084586995e-008	0.000000e+000	1.000000e+000
2.526039959586995e-008	0.000000e+000	1.000000e+000
2.555336834586995e-008	0.000000e+000	1.000000e+000
2.584633709586995e-008	0.000000e+000	1.000000e+000
2.613930584586995e-008	0.000000e+000	1.000000e+000
2.643227459586995e-008	0.000000e+000	1.000000e+000
2.672524334586995e-008	0.000000e+000	1.000000e+000
2.701821209586995e-008	0.000000e+000	1.000000e+000
2.731118084586995e-008	0.000000e+000	1.000000e+000
2.760414959586996e-008	0.000000e+000	1.000000e+000
2.789711834586996e-008	0.000000e+000	1.000000e+000
2.819008709586996e-008	0.000000e+000	1.000000e+000
2.848305584586996e-008	0.000000e+000	1.000000e+000
2.877602459586996e-008	0.000000e+000	1.000000e+000
2.906899334586996e-008	0.000000e+000	1.000000e+000
2.936196209586996e-008	0.000000e+000	1.000000e+000
2.965493084586996e-008	1.401298e-045	1.000000e+000
2.994789959586996e-008	4.203895e-045	1.000000e+000
3.024086834586996e-008	1.121039e-044	1.000000e+000
3.053383709586996e-008	3.082857e-044	1.000000e+000
3.082680584586996e-008	8.547921e-044	1.000000e+000
3.111977459586996e-008	2.284116e-043	1.000000e+000
3.141274334586996e-008	6.067622e-043	1.000000e+000
3.170571209586996e-008	1.597480e-042	1.000000e+000
3.199868084586996e-008	4.171666e-042	1.000000e+000
3.229164959586996e-008	1.080541e-041	1.000000e+000
3.258461834586996e-008	2.775832e-041	1.000000e+000
3.287758709586996e-008	7.072073e-041	1.000000e+000
3.317055584586997e-008	1.787202e-040	1.000000e+000
3.346352459586997e-008	4.480400e-040	1.000000e+000
3.375649334586997e-008	1.114360e-039	1.000000e+000
3.404946209586997e-008	2.750055e-039	1.000000e+000
3.434243084586997e-008	6.734562e-039	1.000000e+000
3.463539959586997e-008	1.636710e-038	1.000000e+000
3.492836834586997e-008	3.947940e-038	1.000000e+000
3.522133709586997e-008	9.452490e-038	1.000000e+000
3.551430584586997e-008	2.246668e-037	1.000000e+000
3.580727459586997e-008	5.301362e-037	1.000000e+000
3.610024334586997e-008	1.242024e-036	1.000000e+000
3.639321209586997e-008	2.889376e-036	1.000000e+000
3.668618084586997e-008	6.674918e-036	1.000000e+000
3.697914959586997e-008	1.531410e-035	1.000000e+000
3.727211834586997e-008	3.489598e-035	1.000000e+000
3.756508709586997e-008	7.898276e-035	1.000000e+000
3.785805584586997e-008	1.775806e-034	1.000000e+000
3.815102459586997e-008	3.966410e-034	1.000000e+000
3.844399334586997e-008	8.801793e-034	1.000000e+000
3.873696209586997e-008	1.940651e-033	1.000000e+000
3.902993084586998e-008	4.251647e-033	1.000000e+000
3.932289959586998e-008	9.256159e-033	1.000000e+000
3.961586834586998e-008	2.002617e-032	1.000000e+000
3.990883709586998e-008	4.306132e-032	1.000000e+000
4.020180584586998e-008	9.202964e-032	1.000000e+000
4.049477459586998e-008	1.955001e-031	1.000000e+000
4.078774334586998e-008	4.128309e-031	1.000000e+000
4.108071209586998e-008	8.666236e-031	1.000000e+000
4.137368084586998e-008	1.808623e-030	1.000000e+000
4.166664959586998e-008	3.752759e-030	1.000000e+000
4.195961834586998e-008	7.742187e-030	1.000000e+000
4.225258709586998e-008	1.588224e-029	1.000000e+000
4.254555584586998e-008	3.239810e-029	1.000000e+000
4.283852459586998e-008	6.572200e-029	1.000000e+000
4.313149334586998e-008	1.325894e-028	1.000000e+000
4.342446209586998e-008	2.660339e-028	1.000000e+000
4.371743084586998e-008	5.309058e-028	1.000000e+000
4.401039959586998e-008	1.053835e-027	1.000000e+000
4.430336834586998e-008	2.080772e-027	1.000000e+000
4.459633709586998e-008	4.086902e-027	1.000000e+000
4.488930584586999e-008	7.985512e-027	1.000000e+000
4.518227459586999e-008	1.552283e-026	1.000000e+000
4.547524334586999e-008	3.002054e-026	1.000000e+000
4.576821209586999e-008	5.776515e-026	1.000000e+000
4.606118084586999e-008	1.105942e-025	1.000000e+000
4.635414959586999e-008	2.106868e-025	1.000000e+000
4.664711834586999e-008	3.993919e-025	1.000000e+000
4.694008709586999e-008	7.534196e-025	1.000000e+000
4.723305584586999e-008	1.414388e-024	1.000000e+000
4.752602459586999e-008	2.642480e-024	1.000000e+000
4.781899334586999e-008	4.913424e-024	1.000000e+000
4.811196209586999e-008	9.092920e-024	1.000000e+000
4.840493084586999e-008	1.674889e-023	1.000000e+000
4.869789959586999e-008	3.070780e-023	1.000000e+000
4.899086834586999e-008	5.604127e-023	1.000000e+000
4.928383709586999e-008	1.018075e-022	1.000000e+000
4.957680584586999e-008	1.841112e-022	1.000000e+000
4.986977459586999e-008	3.314550e-022	1.000000e+000
5.016274334586999e-008	5.940569e-022	1.000000e+000
5.045571209586999e-008	1.060000e-021	1.000000e+000
5.074868084587000e-008	1.883098e-021	1.000000e+000
5.104164959587000e-008	3.330759e-021	1.000000e+000
5.133461834587000e-008	5.865858e-021	1.000000e+000
5.162758709587000e-008	1.028612e-020	1.000000e+000
5.192055584587000e-008	1.796045e-020	1.000000e+000
5.221352459587000e-008	3.122786e-020	1.000000e+000
5.250649334587000e-008	5.406791e-020	1.000000e+000
5.279946209587000e-008	9.322290e-020	1.000000e+000
5.309243084587000e-008	1.600678e-019	1.000000e+000
5.338539959587000e-008	2.737138e-019	1.000000e+000
5.367836834587000e-008	4.661362e-019	1.000000e+000
5.397133709587000e-008	7.906147e-019	1.000000e+000
5.426430584587000e-008	1.335564e-018	1.000000e+000
5.455727459587000e-008	2.247110e-018	1.000000e+000
5.485024334587000e-008	3.765782e-018	1.000000e+000
5.514321209587000e-008	6.285918e-018	1.000000e+000
5.543618084587000e-008	1.045144e-017	1.000000e+000
5.572914959587000e-008	1.730967e-017	1.000000e+000
5.602211834587000e-008	2.855731e-017	1.000000e+000
5.631508709587000e-008	4.693235e-017	1.000000e+000
5.660805584587001e-008	7.683591e-017	1.000000e+000
5.690102459587001e-008	1.253152e-016	1.000000e+000
5.719399334587001e-008	2.036106e-016	1.000000e+000
5.748696209587001e-008	3.295830e-016	1.000000e+000
5.777993084587001e-008	5.315036e-016	1.000000e+000
5.807289959587001e-008	8.539542e-016	1.000000e+000
5.836586834587001e-008	1.366971e-015	1.000000e+000
5.865883709587001e-008	2.180165e-015	1.000000e+000
5.895180584587001e-008	3.464451e-015	1.000000e+000
5.924477459587001e-008	5.485333e-015	1.000000e+000
5.953774334587001e-008	8.653744e-015	1.000000e+000
5.983071209587001e-008	1.360336e-014	1.000000e+000
6.012368084587000e-008	2.130777e-014	1.000000e+000
6.041664959587000e-008	3.325737e-014	1.000000e+000
6.070961834586999e-008	5.172540e-014	1.000000e+000
6.100258709586999e-008	8.016669e-014	1.000000e+000
6.129555584586998e-008	1.238130e-013	1.000000e+000
6.158852459586997e-008	1.905585e-013	1.000000e+000
6.188149334586997e-008	2.922723e-013	1.000000e+000
6.217446209586996e-008	4.467372e-013	1.000000e+000
6.246743084586996e-008	6.805010e-013	1.000000e+000
6.276039959586995e-008	1.033058e-012	1.000000e+000
6.305336834586994e-008	1.562958e-012	1.000000e+000
6.334633709586994e-008	2.356693e-012	1.000000e+000
6.363930584586993e-008	3.541596e-012	1.000000e+000
6.393227459586993e-008	5.304467e-012	1.000000e+000
6.422524334586992e-008	7.918405e-012	1.000000e+000
6.451821209586991e-008	1.178130e-011	1.000000e+000
6.481118084586991e-008	1.747088e-011	1.000000e+000
6.510414959586990e-008	2.582309e-011	1.000000e+000
6.539711834586989e-008	3.804343e-011	1.000000e+000
6.569008709586989e-008	5.586438e-011	1.000000e+000
6.598305584586988e-008	8.176732e-011	1.000000e+000
6.627602459586988e-008	1.192943e-010	1.000000e+000
6.656899334586987e-008	1.734843e-010	1.000000e+000
6.686196209586986e-008	2.514819e-010	1.000000e+000
6.715493084586986e-008	3.633829e-010	1.000000e+000
6.744789959586985e-008	5.234057e-010	1.000000e+000
6.774086834586985e-008	7.515081e-010	1.000000e+000
6.803383709586984e-008	1.075611e-009	1.000000e+000
6.832680584586983e-008	1.534643e-009	1.000000e+000
6.861977459586983e-008	2.182705e-009	1.000000e+000
6.891274334586982e-008	3.094730e-009	1.000000e+000
6.920571209586982e-008	4.374161e-009	1.000000e+000
6.949868084586981e-008	6.163330e-009	1.000000e+000
6.979164959586980e-008	8.657426e-009	1.000000e+000
7.008461834586980e-008	1.212324e-008	1.000000e+000
7.037758709586979e-008	1.692425e-008	1.000000e+000
7.067055584586978e-008	2.355400e-008	1.000000e+000
7.096352459586978e-008	3.268044e-008	1.000000e+000
7.125649334586977e-008	4.520460e-008	1.000000e+000
7.154946209586977e-008	6.233793e-008	1.000000e+000
7.184243084586976e-008	8.570387e-008	1.000000e+000
7.213539959586975e-008	1.174708e-007	1.000000e+000
7.242836834586975e-008	1.605255e-007	1.000000e+000
7.272133709586974e-008	2.186984e-007	1.000000e+000
7.301430584586974e-008	2.970554e-007	1.000000e+000
7.330727459586973e-008	4.022744e-007	1.000000e+000
7.360024334586972e-008	5.431287e-007	1.000000e+000
7.389321209586972e-008	7.311075e-007	1.000000e+000
7.418618084586971e-008	9.812056e-007	1.000000e+000
7.447914959586971e-008	1.312929e-006	1.000000e+000
7.477211834586970e-008	1.751570e-006	1.000000e+000
7.506508709586969e-008	2.329808e-006	1.000000e+000
7.535805584586969e-008	3.089735e-006	1.000000e+000
7.565102459586968e-008	4.085380e-006	1.000000e+000
7.594399334586967e-008	5.385866e-006	1.000000e+000
7.623696209586967e-008	7.079325e-006	1.000000e+000
7.652993084586966e-008	9.277751e-006	1.000000e+000
7.682289959586966e-008	1.212298e-005	1.000000e+000
7.711586834586965e-008	1.579403e-005	1.000000e+000
7.740883709586964e-008	2.051607e-005	1.000000e+000
7.770180584586964e-008	2.657138e-005	1.000000e+000
7.799477459586963e-008	3.431257e-005	1.000000e+000
7.828774334586963e-008	4.417863e-005	1.000000e+000
7.858071209586962e-008	5.671415e-005	1.000000e+000
7.887368084586961e-008	7.259240e-005	1.000000e+000
7.916664959586961e-008	9.264278e-005	1.000000e+000
7.945961834586960e-008	1.178834e-004	1.000000e+000
7.975258709586960e-008	1.495595e-004	1.000000e+000
8.004555584586959e-008	1.891889e-004	1.000000e+000
8.033852459586958e-008	2.386146e-004	1.000000e+000
8.063149334586958e-008	3.000665e-004	1.000000e+000
8.092446209586957e-008	3.762325e-004	1.000000e+000
8.121743084586956e-008	4.703407e-004	1.000000e+000
8.151039959586956e-008	5.862532e-004	1.000000e+000
8.180336834586955e-008	7.285730e-004	1.000000e+000
8.209633709586955e-008	9.027650e-004	1.000000e+000
8.238930584586954e-008	1.115292e-003	1.000000e+000
8.268227459586953e-008	1.373767e-003	1.000000e+000
8.297524334586953e-008	1.687121e-003	1.000000e+000
8.326821209586952e-008	2.065789e-003	1.000000e+000
8.356118084586952e-008	2.521914e-003	1.000000e+000
8.385414959586951e-008	3.069562e-003	1.000000e+000
8.414711834586950e-008	3.724964e-003	1.000000e+000
8.444008709586950e-008	4.506759e-003	1.000000e+000
8.473305584586949e-008	5.436262e-003	1.000000e+000
8.502602459586949e-008	6.537729e-003	1.000000e+000
8.531899334586948e-008	7.838639e-003	1.000000e+000
8.561196209586947e-008	9.369970e-003	1.000000e+000
8.590493084586947e-008	1.116646e-002	1.000000e+000
8.619789959586946e-008	1.326689e-002	1.000000e+000
8.649086834586945e-008	1.571429e-002	1.000000e+000
8.678383709586945e-008	1.855614e-002	1.000000e+000
8.707680584586944e-008	2.184458e-002	1.000000e+000
8.736977459586944e-008	2.563646e-002	1.000000e+000
8.766274334586943e-008	2.999339e-002	1.000000e+000
8.795571209586942e-008	3.498171e-002	1.000000e+000
8.824868084586942e-008	4.067235e-002	1.000000e+000
8.854164959586941e-008	4.714052e-002	1.000000e+000
8.883461834586941e-008	5.446539e-002	1.000000e+000
8.912758709586940e-008	6.272951e-002	1.000000e+000
8.942055584586939e-008	7.201812e-002	1.000000e+000
8.971352459586939e-008	8.241832e-002	1.000000e+000
9.000649334586938e-008	9.401800e-002	1.000000e+000
9.029946209586938e-008	1.069047e-001	1.000000e+000
9.059243084586937e-008	1.211640e-001	1.000000e+000
9.088539959586936e-008	1.368781e-001	1.000000e+000
9.117836834586936e-008	1.541241e-001	1.000000e+000
9.147133709586935e-008	1.729718e-001	1.000000e+000
9.176430584586934e-008	1.934819e-001	1.000000e+000
9.205727459586934e-008	2.157036e-001	1.000000e+000
9.235024334586933e-008	2.396725e-001	1.000000e+000
9.264321209586933e-008	2.654082e-001	1.000000e+000
9.293618084586932e-008	2.929120e-001	1.000000e+000
9.322914959586931e-008	3.221648e-001	1.000000e+000
9.352211834586931e-008	3.531249e-001	1.000000e+000
9.381508709586930e-008	3.857265e-001	1.000000e+000
9.410805584586930e-008	4.198775e-001	1.000000e+000
9.440102459586929e-008	4.554591e-001	1.000000e+000
9.469399334586928e-008	4.923247e-001	1.000000e+000
9.498696209586928e-008	5.302993e-001	1.000000e+000
9.527993084586927e-008	5.691808e-001	1.000000e+000
9.557289959586926e-008	6.087402e-001	1.000000e+000
9.586586834586926e-008	6.487234e-001	1.000000e+000
9.615883709586925e-008	6.888543e-001	1.000000e+000
9.645180584586925e-008	7.288373e-001	1.000000e+000
9.674477459586924e-008	7.683613e-001	1.000000e+000
9.703774334586923e-008	8.071046e-001	1.000000e+000
9.733071209586923e-008	8.447398e-001	1.000000e+000
9.762368084586922e-008	8.809400e-001	1.000000e+000
9.791664959586922e-008	9.153845e-001	1.000000e+000
9.820961834586921e-008	9.477662e-001	1.000000e+000
9.850258709586920e-008	9.777974e-001	1.000000e+000
9.879555584586920e-008	1.005217e+000	1.000000e+000
9.908852459586919e-008	1.029798e+000	1.000000e+000
9.938149334586919e-008	1.051351e+000	1.000000e+000
9.967446209586918e-008	1.069732e+000	1.000000e+000
9.996743084586917e-008	1.084848e+000	1.000000e+000
1.002603995958692e-007	1.096656e+000	1.000000e+000
1.005533683458692e-007	1.105172e+000	1.000000e+000
1.008463370958692e-007	1.110465e+000	1.000000e+000
1.011393058458692e-007	1.112665e+000	1.000000e+000
1.014322745958691e-007	1.111952e+000	1.000000e+000
1.017252433458691e-007	1.108561e+000	1.000000e+000
1.020182120958691e-007	1.102770e+000	1.000000e+000
