time	V(-1)	V(1)
0.000000000000000e+000	0.000000e+000	0.000000e+000
2.929687488293547e-015	0.000000e+000	3.906250e-007
5.859374976587093e-015	0.000000e+000	7.812500e-007
6.862165151151572e-012	0.000000e+000	9.149554e-004
1.371847092732656e-011	0.000000e+000	1.829129e-003
2.057477670350154e-011	0.000000e+000	2.743304e-003
2.743108247967653e-011	0.000000e+000	3.657478e-003
3.428738825585152e-011	0.000000e+000	4.571652e-003
4.114369403202650e-011	0.000000e+000	5.485826e-003
4.799999980820147e-011	0.000000e+000	6.400000e-003
9.599999961640293e-011	0.000000e+000	1.280000e-002
1.410731006471519e-010	0.000000e+000	1.880975e-002
1.800360484699701e-010	0.000000e+000	2.400481e-002
2.163501570313949e-010	0.000000e+000	2.884669e-002
2.557089429210023e-010	0.000000e+000	3.409453e-002
2.969943986102463e-010	0.000000e+000	3.959925e-002
3.470930070944919e-010	0.000000e+000	4.627907e-002
4.032572126221141e-010	0.000000e+000	5.376763e-002
4.706226872507808e-010	0.000000e+000	6.274969e-002
5.474284788203255e-010	0.000000e+000	7.299046e-002
6.387325747219689e-010	0.000000e+000	8.516435e-002
7.218928646574491e-010	0.000000e+000	9.625238e-002
7.986966359274605e-010	0.000000e+000	1.064929e-001
8.831181213339970e-010	0.000000e+000	1.177491e-001
9.724007427536876e-010	0.000000e+000	1.296534e-001
1.073084174266352e-009	0.000000e+000	1.430779e-001
1.182204533962823e-009	0.000000e+000	1.576273e-001
1.304728466736237e-009	0.000000e+000	1.739638e-001
1.438988760422154e-009	0.000000e+000	1.918652e-001
1.553610844007864e-009	0.000000e+000	2.071481e-001
1.677156280410468e-009	0.000000e+000	2.236208e-001
1.802244199196261e-009	0.000000e+000	2.402992e-001
1.941395076561270e-009	0.000000e+000	2.588527e-001
2.087498883171345e-009	0.000000e+000	2.783332e-001
2.249028145586674e-009	0.000000e+000	2.998704e-001
2.393473443052887e-009	0.000000e+000	3.191298e-001
2.557607730782452e-009	0.000000e+000	3.410144e-001
2.705920629801728e-009	0.000000e+000	3.607894e-001
2.879542706824670e-009	0.000000e+000	3.839390e-001
3.050004811663141e-009	0.000000e+000	4.066673e-001
3.243884494999620e-009	0.000000e+000	4.325179e-001
3.413873002615502e-009	0.000000e+000	4.551831e-001
3.595522273086035e-009	0.000000e+000	4.794030e-001
3.777246855753268e-009	0.000000e+000	5.036329e-001
3.974935598602505e-009	0.000000e+000	5.299914e-001
4.178901439527921e-009	0.000000e+000	5.571868e-001
4.399584584231137e-009	0.000000e+000	5.866113e-001
4.598923817806871e-009	0.000000e+000	6.131898e-001
4.810263740450750e-009	0.000000e+000	6.413685e-001
5.023594239050839e-009	0.000000e+000	6.698126e-001
5.253088382775351e-009	0.000000e+000	7.004118e-001
5.490449317296449e-009	0.000000e+000	7.320599e-001
5.711348991717422e-009	0.000000e+000	7.615132e-001
5.942815853243385e-009	0.000000e+000	7.923754e-001
6.178325802656296e-009	0.000000e+000	8.237768e-001
6.428869668486390e-009	0.000000e+000	8.571826e-001
6.659885873727126e-009	0.000000e+000	8.879848e-001
6.902877270052340e-009	0.000000e+000	9.203836e-001
7.147864594894452e-009	0.000000e+000	9.530486e-001
7.239389682463406e-009	0.000000e+000	9.652520e-001
7.316949824862092e-009	0.000000e+000	9.755933e-001
7.344879715202627e-009	0.000000e+000	9.793173e-001
7.400739495883697e-009	0.000000e+000	9.867653e-001
7.499999999999999e-009	0.000000e+000	1.000000e+000
7.509926050411629e-009	0.000000e+000	1.000000e+000
7.529778151234890e-009	0.000000e+000	1.000000e+000
7.569482352881410e-009	0.000000e+000	1.000000e+000
7.648890756174452e-009	0.000000e+000	1.000000e+000
7.807707562760536e-009	0.000000e+000	1.000000e+000
8.063324941794527e-009	0.000000e+000	1.000000e+000
8.299945837939229e-009	0.000000e+000	1.000000e+000
8.589209301274252e-009	0.000000e+000	1.000000e+000
8.859868091956582e-009	0.000000e+000	1.000000e+000
9.152836841956583e-009	0.000000e+000	1.000000e+000
9.418426852785977e-009	0.000000e+000	1.000000e+000
9.711395602785978e-009	0.000000e+000	1.000000e+000
1.000288658825360e-008	0.000000e+000	1.000000e+000
1.029585533825361e-008	0.000000e+000	1.000000e+000
1.058171604331684e-008	0.000000e+000	1.000000e+000
1.087468479331684e-008	0.000000e+000	1.000000e+000
1.116765354331684e-008	0.000000e+000	1.000000e+000
1.146062229331684e-008	0.000000e+000	1.000000e+000
1.175359104331684e-008	0.000000e+000	1.000000e+000
1.204655979331684e-008	0.000000e+000	1.000000e+000
1.233952854331684e-008	0.000000e+000	1.000000e+000
1.263249729331684e-008	0.000000e+000	1.000000e+000
1.292546604331684e-008	0.000000e+000	1.000000e+000
1.321843479331685e-008	0.000000e+000	1.000000e+000
1.351140354331685e-008	0.000000e+000	1.000000e+000
1.380437229331685e-008	0.000000e+000	1.000000e+000
1.409734104331685e-008	0.000000e+000	1.000000e+000
1.439030979331685e-008	0.000000e+000	1.000000e+000
1.468327854331685e-008	0.000000e+000	1.000000e+000
1.497624729331685e-008	0.000000e+000	1.000000e+000
1.526921604331685e-008	0.000000e+000	1.000000e+000
1.556218479331685e-008	0.000000e+000	1.000000e+000
1.585515354331685e-008	0.000000e+000	1.000000e+000
1.614812229331685e-008	0.000000e+000	1.000000e+000
1.644109104331685e-008	0.000000e+000	1.000000e+000
1.673405979331685e-008	0.000000e+000	1.000000e+000
1.702702854331685e-008	0.000000e+000	1.000000e+000
1.731999729331685e-008	0.000000e+000	1.000000e+000
1.761296604331685e-008	0.000000e+000	1.000000e+000
1.790593479331685e-008	0.000000e+000	1.000000e+000
1.819890354331685e-008	0.000000e+000	1.000000e+000
1.849187229331685e-008	0.000000e+000	1.000000e+000
1.878484104331685e-008	0.000000e+000	1.000000e+000
1.907780979331685e-008	0.000000e+000	1.000000e+000
1.937077854331685e-008	0.000000e+000	1.000000e+000
1.966374729331685e-008	0.000000e+000	1.000000e+000
1.995671604331686e-008	0.000000e+000	1.000000e+000
2.024968479331686e-008	0.000000e+000	1.000000e+000
2.054265354331686e-008	0.000000e+000	1.000000e+000
2.083562229331686e-008	0.000000e+000	1.000000e+000
2.112859104331686e-008	0.000000e+000	1.000000e+000
2.142155979331686e-008	0.000000e+000	1.000000e+000
2.171452854331686e-008	0.000000e+000	1.000000e+000
2.200749729331686e-008	0.000000e+000	1.000000e+000
2.230046604331686e-008	0.000000e+000	1.000000e+000
2.259343479331686e-008	0.000000e+000	1.000000e+000
2.288640354331686e-008	0.000000e+000	1.000000e+000
2.317937229331686e-008	0.000000e+000	1.000000e+000
2.347234104331686e-008	0.000000e+000	1.000000e+000
2.376530979331686e-008	0.000000e+000	1.000000e+000
2.405827854331686e-008	0.000000e+000	1.000000e+000
2.435124729331686e-008	0.000000e+000	1.000000e+000
2.464421604331686e-008	0.000000e+000	1.000000e+000
2.493718479331686e-008	0.000000e+000	1.000000e+000
2.523015354331686e-008	0.000000e+000	1.000000e+000
2.552312229331686e-008	0.000000e+000	1.000000e+000
2.581609104331687e-008	0.000000e+000	1.000000e+000
2.610905979331687e-008	0.000000e+000	1.000000e+000
2.640202854331687e-008	0.000000e+000	1.000000e+000
2.669499729331687e-008	0.000000e+000	1.000000e+000
2.698796604331687e-008	0.000000e+000	1.000000e+000
2.728093479331687e-008	0.000000e+000	1.000000e+000
2.757390354331687e-008	0.000000e+000	1.000000e+000
2.786687229331687e-008	0.000000e+000	1.000000e+000
2.815984104331687e-008	0.000000e+000	1.000000e+000
2.845280979331687e-008	0.000000e+000	1.000000e+000
2.874577854331687e-008	0.000000e+000	1.000000e+000
2.903874729331687e-008	0.000000e+000	1.000000e+000
2.933171604331687e-008	0.000000e+000	1.000000e+000
2.962468479331687e-008	0.000000e+000	1.000000e+000
2.991765354331687e-008	0.000000e+000	1.000000e+000
3.021062229331687e-008	0.000000e+000	1.000000e+000
3.050359104331687e-008	0.000000e+000	1.000000e+000
3.079655979331687e-008	0.000000e+000	1.000000e+000
3.108952854331687e-008	0.000000e+000	1.000000e+000
3.138249729331687e-008	0.000000e+000	1.000000e+000
3.167546604331688e-008	0.000000e+000	1.000000e+000
3.196843479331688e-008	1.401298e-045	1.000000e+000
3.226140354331688e-008	2.802597e-045	1.000000e+000
3.255437229331688e-008	8.407791e-045	1.000000e+000
3.284734104331688e-008	2.382207e-044	1.000000e+000
3.314030979331688e-008	6.165713e-044	1.000000e+000
3.343327854331688e-008	1.541428e-043	1.000000e+000
3.372624729331688e-008	3.881597e-043	1.000000e+000
3.401921604331688e-008	9.682972e-043	1.000000e+000
3.431218479331688e-008	2.394819e-042	1.000000e+000
3.460515354331688e-008	5.877046e-042	1.000000e+000
3.489812229331688e-008	1.431987e-041	1.000000e+000
3.519109104331688e-008	3.463870e-041	1.000000e+000
3.548405979331688e-008	8.318528e-041	1.000000e+000
3.577702854331688e-008	1.983524e-040	1.000000e+000
3.606999729331688e-008	4.696536e-040	1.000000e+000
3.636296604331688e-008	1.104338e-039	1.000000e+000
3.665593479331688e-008	2.578975e-039	1.000000e+000
3.694890354331688e-008	5.982017e-039	1.000000e+000
3.724187229331688e-008	1.378285e-038	1.000000e+000
3.753484104331689e-008	3.154681e-038	1.000000e+000
3.782780979331689e-008	7.173481e-038	1.000000e+000
3.812077854331689e-008	1.620672e-037	1.000000e+000
3.841374729331689e-008	3.638172e-037	1.000000e+000
3.870671604331689e-008	8.115689e-037	1.000000e+000
3.899968479331689e-008	1.799088e-036	1.000000e+000
3.929265354331689e-008	3.963642e-036	1.000000e+000
3.958562229331689e-008	8.679224e-036	1.000000e+000
3.987859104331689e-008	1.889039e-035	1.000000e+000
4.017155979331689e-008	4.086981e-035	1.000000e+000
4.046452854331689e-008	8.790104e-035	1.000000e+000
4.075749729331689e-008	1.879500e-034	1.000000e+000
4.105046604331689e-008	3.995532e-034	1.000000e+000
4.134343479331689e-008	8.445335e-034	1.000000e+000
4.163640354331689e-008	1.774986e-033	1.000000e+000
4.192937229331689e-008	3.709661e-033	1.000000e+000
4.222234104331689e-008	7.710093e-033	1.000000e+000
4.251530979331689e-008	1.593659e-032	1.000000e+000
4.280827854331689e-008	3.276163e-032	1.000000e+000
4.310124729331690e-008	6.698744e-032	1.000000e+000
4.339421604331690e-008	1.362393e-031	1.000000e+000
4.368718479331690e-008	2.756226e-031	1.000000e+000
4.398015354331690e-008	5.546937e-031	1.000000e+000
4.427312229331690e-008	1.110553e-030	1.000000e+000
4.456609104331690e-008	2.212049e-030	1.000000e+000
4.485905979331690e-008	4.383696e-030	1.000000e+000
4.515202854331690e-008	8.643651e-030	1.000000e+000
4.544499729331690e-008	1.695842e-029	1.000000e+000
4.573796604331690e-008	3.310739e-029	1.000000e+000
4.603093479331690e-008	6.431846e-029	1.000000e+000
4.632390354331690e-008	1.243474e-028	1.000000e+000
4.661687229331690e-008	2.392474e-028	1.000000e+000
4.690984104331690e-008	4.581270e-028	1.000000e+000
4.720280979331690e-008	8.731141e-028	1.000000e+000
4.749577854331690e-008	1.656230e-027	1.000000e+000
4.778874729331690e-008	3.127177e-027	1.000000e+000
4.808171604331690e-008	5.877383e-027	1.000000e+000
4.837468479331690e-008	1.099594e-026	1.000000e+000
4.866765354331690e-008	2.047927e-026	1.000000e+000
4.896062229331691e-008	3.797054e-026	1.000000e+000
4.925359104331691e-008	7.008833e-026	1.000000e+000
4.954655979331691e-008	1.288034e-025	1.000000e+000
4.983952854331691e-008	2.356717e-025	1.000000e+000
5.013249729331691e-008	4.293400e-025	1.000000e+000
5.042546604331691e-008	7.787974e-025	1.000000e+000
5.071843479331691e-008	1.406669e-024	1.000000e+000
5.101140354331691e-008	2.529987e-024	1.000000e+000
5.130437229331691e-008	4.531253e-024	1.000000e+000
5.159734104331691e-008	8.081763e-024	1.000000e+000
5.189030979331691e-008	1.435476e-023	1.000000e+000
5.218327854331691e-008	2.539226e-023	1.000000e+000
5.247624729331691e-008	4.473384e-023	1.000000e+000
5.276921604331691e-008	7.848990e-023	1.000000e+000
5.306218479331691e-008	1.371663e-022	1.000000e+000
5.335515354331691e-008	2.387536e-022	1.000000e+000
5.364812229331691e-008	4.139370e-022	1.000000e+000
5.394109104331691e-008	7.148464e-022	1.000000e+000
5.423405979331691e-008	1.229697e-021	1.000000e+000
5.452702854331691e-008	2.107182e-021	1.000000e+000
5.481999729331692e-008	3.596971e-021	1.000000e+000
5.511296604331692e-008	6.116661e-021	1.000000e+000
5.540593479331692e-008	1.036206e-020	1.000000e+000
5.569890354331692e-008	1.748813e-020	1.000000e+000
5.599187229331692e-008	2.940476e-020	1.000000e+000
5.628484104331692e-008	4.925835e-020	1.000000e+000
5.657780979331692e-008	8.221307e-020	1.000000e+000
5.687077854331692e-008	1.367135e-019	1.000000e+000
5.716374729331692e-008	2.265177e-019	1.000000e+000
5.745671604331692e-008	3.739585e-019	1.000000e+000
5.774968479331692e-008	6.151561e-019	1.000000e+000
5.804265354331692e-008	1.008319e-018	1.000000e+000
5.833562229331692e-008	1.646916e-018	1.000000e+000
5.862859104331692e-008	2.680496e-018	1.000000e+000
5.892155979331692e-008	4.347495e-018	1.000000e+000
5.921452854331692e-008	7.026715e-018	1.000000e+000
5.950749729331692e-008	1.131786e-017	1.000000e+000
5.980046604331692e-008	1.816705e-017	1.000000e+000
6.009343479331692e-008	2.906171e-017	1.000000e+000
6.038640354331691e-008	4.633230e-017	1.000000e+000
6.067937229331691e-008	7.361747e-017	1.000000e+000
6.097234104331690e-008	1.165792e-016	1.000000e+000
6.126530979331689e-008	1.839978e-016	1.000000e+000
6.155827854331689e-008	2.894436e-016	1.000000e+000
6.185124729331688e-008	4.538197e-016	1.000000e+000
6.214421604331687e-008	7.092162e-016	1.000000e+000
6.243718479331687e-008	1.104734e-015	1.000000e+000
6.273015354331686e-008	1.715255e-015	1.000000e+000
6.302312229331686e-008	2.654600e-015	1.000000e+000
6.331609104331685e-008	4.095209e-015	1.000000e+000
6.360905979331684e-008	6.297490e-015	1.000000e+000
6.390202854331684e-008	9.653402e-015	1.000000e+000
6.419499729331683e-008	1.475102e-014	1.000000e+000
6.448796604331683e-008	2.246980e-014	1.000000e+000
6.478093479331682e-008	3.412080e-014	1.000000e+000
6.507390354331681e-008	5.165218e-014	1.000000e+000
6.536687229331681e-008	7.794967e-014	1.000000e+000
6.565984104331680e-008	1.172742e-013	1.000000e+000
6.595280979331680e-008	1.758977e-013	1.000000e+000
6.624577854331679e-008	2.630226e-013	1.000000e+000
6.653874729331678e-008	3.921101e-013	1.000000e+000
6.683171604331678e-008	5.827882e-013	1.000000e+000
6.712468479331677e-008	8.635895e-013	1.000000e+000
6.741765354331676e-008	1.275862e-012	1.000000e+000
6.771062229331676e-008	1.879342e-012	1.000000e+000
6.800359104331675e-008	2.760065e-012	1.000000e+000
6.829655979331675e-008	4.041567e-012	1.000000e+000
6.858952854331674e-008	5.900687e-012	1.000000e+000
6.888249729331673e-008	8.589802e-012	1.000000e+000
6.917546604331673e-008	1.246800e-011	1.000000e+000
6.946843479331672e-008	1.804467e-011	1.000000e+000
6.976140354331672e-008	2.604019e-011	1.000000e+000
7.005437229331671e-008	3.747036e-011	1.000000e+000
7.034734104331670e-008	5.376316e-011	1.000000e+000
7.064030979331670e-008	7.692008e-011	1.000000e+000
7.093327854331669e-008	1.097381e-010	1.000000e+000
7.122624729331669e-008	1.561141e-010	1.000000e+000
7.151921604331668e-008	2.214618e-010	1.000000e+000
7.181218479331667e-008	3.132793e-010	1.000000e+000
7.210515354331667e-008	4.419213e-010	1.000000e+000
7.239812229331666e-008	6.216457e-010	1.000000e+000
7.269109104331665e-008	8.720265e-010	1.000000e+000
7.298405979331665e-008	1.219858e-009	1.000000e+000
7.327702854331664e-008	1.701709e-009	1.000000e+000
7.356999729331664e-008	2.367348e-009	1.000000e+000
7.386296604331663e-008	3.284303e-009	1.000000e+000
7.415593479331662e-008	4.543935e-009	1.000000e+000
7.444890354331662e-008	6.269493e-009	1.000000e+000
7.474187229331661e-008	8.626759e-009	1.000000e+000
7.503484104331661e-008	1.183808e-008	1.000000e+000
7.532780979331660e-008	1.620079e-008	1.000000e+000
7.562077854331659e-008	2.211138e-008	1.000000e+000
7.591374729331659e-008	3.009700e-008	1.000000e+000
7.620671604331658e-008	4.085652e-008	1.000000e+000
7.649968479331658e-008	5.531376e-008	1.000000e+000
7.679265354331657e-008	7.468638e-008	1.000000e+000
7.708562229331656e-008	1.005747e-007	1.000000e+000
7.737859104331656e-008	1.350759e-007	1.000000e+000
7.767155979331655e-008	1.809304e-007	1.000000e+000
7.796452854331654e-008	2.417083e-007	1.000000e+000
7.825749729331654e-008	3.220482e-007	1.000000e+000
7.855046604331653e-008	4.279582e-007	1.000000e+000
7.884343479331653e-008	5.671987e-007	1.000000e+000
7.913640354331652e-008	7.497642e-007	1.000000e+000
7.942937229331651e-008	9.884884e-007	1.000000e+000
7.972234104331651e-008	1.299804e-006	1.000000e+000
8.001530979331650e-008	1.704689e-006	1.000000e+000
8.030827854331650e-008	2.229847e-006	1.000000e+000
8.060124729331649e-008	2.909172e-006	1.000000e+000
8.089421604331648e-008	3.785555e-006	1.000000e+000
8.118718479331648e-008	4.913115e-006	1.000000e+000
8.148015354331647e-008	6.359935e-006	1.000000e+000
8.177312229331647e-008	8.211417e-006	1.000000e+000
8.206609104331646e-008	1.057437e-005	1.000000e+000
8.235905979331645e-008	1.358195e-005	1.000000e+000
8.265202854331645e-008	1.739973e-005	1.000000e+000
8.294499729331644e-008	2.223292e-005	1.000000e+000
8.323796604331643e-008	2.833507e-005	1.000000e+000
8.353093479331643e-008	3.601859e-005	1.000000e+000
8.382390354331642e-008	4.566718e-005	1.000000e+000
8.411687229331642e-008	5.775067e-005	1.000000e+000
8.440984104331641e-008	7.284262e-005	1.000000e+000
8.470280979331640e-008	9.164101e-005	1.000000e+000
8.499577854331640e-008	1.149926e-004	1.000000e+000
8.528874729331639e-008	1.439216e-004	1.000000e+000
8.558171604331639e-008	1.796624e-004	1.000000e+000
8.587468479331638e-008	2.236988e-004	1.000000e+000
8.616765354331637e-008	2.778082e-004	1.000000e+000
8.646062229331637e-008	3.441126e-004	1.000000e+000
8.675359104331636e-008	4.251377e-004	1.000000e+000
8.704655979331636e-008	5.238794e-004	1.000000e+000
8.733952854331635e-008	6.438800e-004	1.000000e+000
8.763249729331634e-008	7.893131e-004	1.000000e+000
8.792546604331634e-008	9.650799e-004	1.000000e+000
8.821843479331633e-008	1.176916e-003	1.000000e+000
8.851140354331632e-008	1.431511e-003	1.000000e+000
8.880437229331632e-008	1.736637e-003	1.000000e+000
8.909734104331631e-008	2.101294e-003	1.000000e+000
8.939030979331631e-008	2.535867e-003	1.000000e+000
8.968327854331630e-008	3.052290e-003	1.000000e+000
8.997624729331629e-008	3.664230e-003	1.000000e+000
9.026921604331629e-008	4.387276e-003	1.000000e+000
9.056218479331628e-008	5.239141e-003	1.000000e+000
9.085515354331628e-008	6.239870e-003	1.000000e+000
9.114812229331627e-008	7.412053e-003	1.000000e+000
9.144109104331626e-008	8.781043e-003	1.000000e+000
9.173405979331626e-008	1.037517e-002	1.000000e+000
9.202702854331625e-008	1.222596e-002	1.000000e+000
9.231999729331625e-008	1.436830e-002	1.000000e+000
9.261296604331624e-008	1.684068e-002	1.000000e+000
9.290593479331623e-008	1.968526e-002	1.000000e+000
9.319890354331623e-008	2.294810e-002	1.000000e+000
9.349187229331622e-008	2.667915e-002	1.000000e+000
9.378484104331621e-008	3.093234e-002	1.000000e+000
9.407780979331621e-008	3.576551e-002	1.000000e+000
9.437077854331620e-008	4.124036e-002	1.000000e+000
9.466374729331620e-008	4.742224e-002	1.000000e+000
9.495671604331619e-008	5.437987e-002	1.000000e+000
9.524968479331618e-008	6.218500e-002	1.000000e+000
9.554265354331618e-008	7.091188e-002	1.000000e+000
9.583562229331617e-008	8.063670e-002	1.000000e+000
9.612859104331617e-008	9.143677e-002	1.000000e+000
9.642155979331616e-008	1.033898e-001	1.000000e+000
9.671452854331615e-008	1.165726e-001	1.000000e+000
9.700749729331615e-008	1.310605e-001	1.000000e+000
9.730046604331614e-008	1.469251e-001	1.000000e+000
9.759343479331614e-008	1.642339e-001	1.000000e+000
9.788640354331613e-008	1.830482e-001	1.000000e+000
9.817937229331612e-008	2.034213e-001	1.000000e+000
9.847234104331612e-008	2.253972e-001	1.000000e+000
9.876530979331611e-008	2.490086e-001	1.000000e+000
9.905827854331610e-008	2.742749e-001	1.000000e+000
9.935124729331610e-008	3.012008e-001	1.000000e+000
9.964421604331609e-008	3.297741e-001	1.000000e+000
9.993718479331609e-008	3.599643e-001	1.000000e+000
1.002301535433161e-007	3.917206e-001	1.000000e+000
1.005231222933161e-007	4.249713e-001	1.000000e+000
1.008160910433161e-007	4.596221e-001	1.000000e+000
1.011090597933161e-007	4.955554e-001	1.000000e+000
1.014020285433161e-007	5.326297e-001	1.000000e+000
1.016949972933161e-007	5.706801e-001	1.000000e+000
1.019879660433160e-007	6.095181e-001	1.000000e+000
