time	V(-1)	V(1)
0.000000000000000e+000	0.000000e+000	0.000000e+000
4.882812480489244e-016	0.000000e+000	9.765625e-008
9.765624960978488e-016	0.000000e+000	1.953125e-007
2.286551330149107e-012	0.000000e+000	4.573103e-004
4.572126097802116e-012	0.000000e+000	9.144252e-004
6.857700865455125e-012	0.000000e+000	1.371540e-003
9.143275633108134e-012	0.000000e+000	1.828655e-003
1.142885040076114e-011	0.000000e+000	2.285770e-003
1.371442516841415e-011	0.000000e+000	2.742885e-003
1.599999993606716e-011	0.000000e+000	3.200000e-003
3.199999987213431e-011	0.000000e+000	6.400000e-003
4.743854186629217e-011	0.000000e+000	9.487708e-003
6.110252927687477e-011	0.000000e+000	1.222051e-002
7.398508686009549e-011	0.000000e+000	1.479702e-002
8.773602691301608e-011	0.000000e+000	1.754721e-002
1.021942483524313e-010	0.000000e+000	2.043885e-002
1.198170629797411e-010	0.000000e+000	2.396341e-002
1.397913435918970e-010	0.000000e+000	2.795827e-002
1.640270740559593e-010	0.000000e+000	3.280541e-002
1.872030253149590e-010	0.000000e+000	3.744061e-002
2.080890674816307e-010	0.000000e+000	4.161781e-002
2.315954604549498e-010	0.000000e+000	4.631909e-002
2.557183990020949e-010	0.000000e+000	5.114368e-002
2.838690400293319e-010	0.000000e+000	5.677381e-002
3.142307314492586e-010	0.000000e+000	6.284615e-002
3.415507190778831e-010	0.000000e+000	6.831014e-002
3.693955654209051e-010	0.000000e+000	7.387912e-002
3.989742754312637e-010	0.000000e+000	7.979485e-002
4.311735247301817e-010	0.000000e+000	8.623470e-002
4.662974884432834e-010	0.000000e+000	9.325950e-002
5.000000000000000e-010	0.000000e+000	1.000000e-001
5.033702511556717e-010	0.000000e+000	1.000000e-001
5.101107534670150e-010	0.000000e+000	1.000000e-001
5.235917580897016e-010	0.000000e+000	1.000000e-001
5.456696016500939e-010	0.000000e+000	1.000000e-001
5.835555816329480e-010	0.000000e+000	1.000000e-001
6.178817657727088e-010	0.000000e+000	1.000000e-001
6.566182488105294e-010	0.000000e+000	1.000000e-001
6.928974450748662e-010	0.000000e+000	1.000000e-001
7.317937622755487e-010	0.000000e+000	1.000000e-001
7.720255577329074e-010	0.000000e+000	1.000000e-001
8.159468453905301e-010	0.000000e+000	1.000000e-001
8.554459713996730e-010	0.000000e+000	1.000000e-001
8.999251093914389e-010	0.000000e+000	1.000000e-001
9.420157865303579e-010	0.000000e+000	1.000000e-001
9.901291391467773e-010	0.000000e+000	1.000000e-001
1.038608630932216e-009	0.000000e+000	1.000000e-001
1.082979098449796e-009	0.000000e+000	1.000000e-001
1.131678243073560e-009	0.000000e+000	1.000000e-001
1.180506368073560e-009	0.000000e+000	1.000000e-001
1.229334493073560e-009	0.000000e+000	1.000000e-001
1.276928956672799e-009	0.000000e+000	1.000000e-001
1.325757081672799e-009	0.000000e+000	1.000000e-001
1.374585206672799e-009	0.000000e+000	1.000000e-001
1.423413331672799e-009	0.000000e+000	1.000000e-001
1.451171875000000e-009	0.000000e+000	1.000000e-001
1.500000000000000e-009	0.000000e+000	1.000000e-001
1.504882812500000e-009	0.000000e+000	9.902344e-002
1.514648437500000e-009	0.000000e+000	9.707031e-002
1.534179687500000e-009	0.000000e+000	9.316406e-002
1.571758066237037e-009	0.000000e+000	8.564839e-002
1.620586191237037e-009	0.000000e+000	7.588276e-002
1.669414316237037e-009	0.000000e+000	6.611714e-002
1.718242441237037e-009	0.000000e+000	5.635151e-002
1.767070566237037e-009	0.000000e+000	4.658589e-002
1.815898691237037e-009	0.000000e+000	3.682026e-002
1.864726816237037e-009	0.000000e+000	2.705464e-002
1.913554941237037e-009	0.000000e+000	1.728901e-002
1.951171875000000e-009	0.000000e+000	9.765625e-003
2.000000000000000e-009	0.000000e+000	0.000000e+000
2.000220000000000e-009	0.000000e+000	0.000000e+000
2.000660000000000e-009	0.000000e+000	0.000000e+000
2.006820000000000e-009	0.000000e+000	0.000000e+000
2.013860000000000e-009	0.000000e+000	0.000000e+000
2.027940000000000e-009	0.000000e+000	0.000000e+000
2.056100000000000e-009	0.000000e+000	0.000000e+000
2.104928125000000e-009	0.000000e+000	0.000000e+000
2.153756250000000e-009	0.000000e+000	0.000000e+000
2.196456270186177e-009	0.000000e+000	0.000000e+000
2.240895441761159e-009	0.000000e+000	0.000000e+000
2.287178778573629e-009	0.000000e+000	0.000000e+000
2.332818323021285e-009	0.000000e+000	0.000000e+000
2.378867636435150e-009	0.000000e+000	0.000000e+000
2.424092959732603e-009	0.000000e+000	0.000000e+000
2.468415358532786e-009	0.000000e+000	0.000000e+000
2.510855771169545e-009	0.000000e+000	0.000000e+000
2.551531859822194e-009	0.000000e+000	0.000000e+000
2.590209042077042e-009	0.000000e+000	0.000000e+000
2.619584894537158e-009	0.000000e+000	0.000000e+000
2.635333663575246e-009	0.000000e+000	0.000000e+000
2.652284130738110e-009	0.000000e+000	0.000000e+000
2.669777878272420e-009	0.000000e+000	0.000000e+000
2.695511084002619e-009	0.000000e+000	0.000000e+000
2.725413358516877e-009	0.000000e+000	0.000000e+000
2.763741666808027e-009	0.000000e+000	0.000000e+000
2.796538403257347e-009	0.000000e+000	0.000000e+000
2.825499383966397e-009	0.000000e+000	0.000000e+000
2.853664092982749e-009	0.000000e+000	0.000000e+000
2.888728023305718e-009	0.000000e+000	0.000000e+000
2.929773642294619e-009	0.000000e+000	0.000000e+000
2.973114375866104e-009	0.000000e+000	0.000000e+000
3.009663912906128e-009	0.000000e+000	0.000000e+000
3.034890599574782e-009	0.000000e+000	0.000000e+000
3.059612188965949e-009	0.000000e+000	0.000000e+000
3.083106199127127e-009	0.000000e+000	0.000000e+000
3.121234846455583e-009	0.000000e+000	0.000000e+000
3.163473826429800e-009	0.000000e+000	0.000000e+000
3.204339536784946e-009	0.000000e+000	0.000000e+000
3.249865330361460e-009	0.000000e+000	0.000000e+000
3.289666060654652e-009	0.000000e+000	0.000000e+000
3.316519166956840e-009	0.000000e+000	0.000000e+000
3.343401458757429e-009	0.000000e+000	0.000000e+000
3.372580970133362e-009	0.000000e+000	0.000000e+000
3.405361888672637e-009	0.000000e+000	0.000000e+000
3.450003876312440e-009	0.000000e+000	0.000000e+000
3.492498153880853e-009	0.000000e+000	0.000000e+000
3.532111973827608e-009	0.000000e+000	0.000000e+000
3.560450171347113e-009	0.000000e+000	0.000000e+000
3.592075686232434e-009	0.000000e+000	0.000000e+000
3.616994686993245e-009	0.000000e+000	0.000000e+000
3.651275958536336e-009	0.000000e+000	0.000000e+000
3.683001861064377e-009	0.000000e+000	0.000000e+000
3.731829986064377e-009	0.000000e+000	0.000000e+000
3.775105156710198e-009	0.000000e+000	0.000000e+000
3.805042480262184e-009	0.000000e+000	0.000000e+000
3.834335897835482e-009	0.000000e+000	0.000000e+000
3.866728877974676e-009	0.000000e+000	0.000000e+000
3.892858823280595e-009	0.000000e+000	0.000000e+000
3.920734167272959e-009	0.000000e+000	0.000000e+000
3.954756351277484e-009	0.000000e+000	0.000000e+000
3.989599912049478e-009	0.000000e+000	0.000000e+000
4.024833039846555e-009	0.000000e+000	0.000000e+000
4.059889946207648e-009	0.000000e+000	0.000000e+000
4.094577800645595e-009	0.000000e+000	0.000000e+000
4.128252154301676e-009	0.000000e+000	0.000000e+000
4.155495990969149e-009	0.000000e+000	0.000000e+000
4.182027125484239e-009	0.000000e+000	0.000000e+000
4.210891550441177e-009	0.000000e+000	0.000000e+000
4.246607191711412e-009	0.000000e+000	0.000000e+000
4.278879687512157e-009	0.000000e+000	0.000000e+000
4.304532008559865e-009	0.000000e+000	0.000000e+000
4.334652333391675e-009	0.000000e+000	0.000000e+000
4.369060558111700e-009	0.000000e+000	0.000000e+000
4.399331474911715e-009	0.000000e+000	0.000000e+000
4.431068868911175e-009	0.000000e+000	0.000000e+000
4.461431433632553e-009	0.000000e+000	0.000000e+000
4.491861889470249e-009	0.000000e+000	0.000000e+000
4.525072100602013e-009	0.000000e+000	0.000000e+000
4.564159230490796e-009	0.000000e+000	0.000000e+000
4.593092315946455e-009	0.000000e+000	0.000000e+000
4.625402935228789e-009	0.000000e+000	0.000000e+000
4.658021554137123e-009	0.000000e+000	0.000000e+000
4.688912779343408e-009	0.000000e+000	0.000000e+000
4.722734770265686e-009	0.000000e+000	0.000000e+000
4.757543100445497e-009	0.000000e+000	0.000000e+000
4.791828636996826e-009	1.401298e-045	0.000000e+000
4.824735018115112e-009	1.401298e-045	0.000000e+000
4.861257444068129e-009	4.203895e-045	0.000000e+000
4.889032488836537e-009	8.407791e-045	0.000000e+000
4.915794686127936e-009	1.401298e-044	0.000000e+000
4.941918057585626e-009	2.242078e-044	0.000000e+000
4.972908195810951e-009	4.624285e-044	0.000000e+000
5.012876682507939e-009	1.121039e-043	0.000000e+000
5.055679810408433e-009	2.718519e-043	0.000000e+000
5.095723275170853e-009	6.249791e-043	0.000000e+000
5.136959219702665e-009	1.359260e-042	0.000000e+000
5.163884945092034e-009	2.260294e-042	0.000000e+000
5.190424201157811e-009	3.824144e-042	0.000000e+000
5.217443414798324e-009	6.961651e-042	0.000000e+000
5.260649295803665e-009	1.749241e-041	0.000000e+000
5.302608165385201e-009	4.038542e-041	0.000000e+000
5.344247200165843e-009	9.051968e-041	0.000000e+000
5.382294506496791e-009	1.871995e-040	0.000000e+000
5.418405492811361e-009	3.634268e-040	0.000000e+000
5.447135666522545e-009	6.153228e-040	0.000000e+000
5.474128745386921e-009	1.079367e-039	0.000000e+000
5.516715296675549e-009	2.516981e-039	0.000000e+000
5.555169774292416e-009	5.155214e-039	0.000000e+000
5.592685256767169e-009	1.047934e-038	0.000000e+000
5.631226665029737e-009	2.193501e-038	0.000000e+000
5.672568692736600e-009	4.528558e-038	0.000000e+000
5.701247120287473e-009	7.501182e-038	0.000000e+000
5.731186441566208e-009	1.302794e-037	0.000000e+000
5.763207294675288e-009	2.406538e-037	0.000000e+000
5.803313334232750e-009	5.080993e-037	0.000000e+000
5.842373240425390e-009	1.029653e-036	0.000000e+000
5.881831347512030e-009	2.093673e-036	0.000000e+000
5.921092616049406e-009	4.052787e-036	0.000000e+000
5.949918412366310e-009	6.558527e-036	0.000000e+000
5.976759198849885e-009	1.058431e-035	0.000000e+000
6.009905985628129e-009	1.914477e-035	0.000000e+000
6.044195822221253e-009	3.531350e-035	0.000000e+000
6.083008763595229e-009	7.117307e-035	0.000000e+000
6.126128536417368e-009	1.497012e-034	0.000000e+000
6.165741371331320e-009	2.790157e-034	0.000000e+000
6.191079760326283e-009	4.272037e-034	0.000000e+000
6.225607475494222e-009	7.694495e-034	0.000000e+000
6.256953163819976e-009	1.281675e-033	0.000000e+000
6.285936497829464e-009	2.127860e-033	0.000000e+000
6.326627429729769e-009	4.370984e-033	0.000000e+000
6.371071807890284e-009	9.108083e-033	0.000000e+000
6.411702269507434e-009	1.697587e-032	0.000000e+000
6.440690040461128e-009	2.667830e-032	0.000000e+000
6.470321226209023e-009	4.271684e-032	0.000000e+000
6.497741401274926e-009	6.572098e-032	0.000000e+000
6.523943742621559e-009	9.980570e-032	0.000000e+000
6.552482662759872e-009	1.613715e-031	0.000000e+000
6.592003320290694e-009	2.971242e-031	0.000000e+000
6.617615307508647e-009	4.396314e-031	0.000000e+000
6.647762641999221e-009	7.041727e-031	0.000000e+000
6.675424896901814e-009	1.078997e-030	0.000000e+000
6.704075054031022e-009	1.696978e-030	0.000000e+000
6.737245470122664e-009	2.876346e-030	0.000000e+000
6.774002667039232e-009	5.022406e-030	0.000000e+000
6.805242646097853e-009	8.007505e-030	0.000000e+000
6.835895543748650e-009	1.281352e-029	0.000000e+000
6.869809144502865e-009	2.141784e-029	0.000000e+000
6.902271493322193e-009	3.515522e-029	0.000000e+000
6.939299253502397e-009	6.045668e-029	0.000000e+000
6.968113280015073e-009	9.151953e-029	0.000000e+000
6.996189189321411e-009	1.380902e-028	0.000000e+000
7.023979352692321e-009	2.069216e-028	0.000000e+000
7.050697457048379e-009	3.093823e-028	0.000000e+000
7.085543284967941e-009	5.175080e-028	0.000000e+000
7.117480533764468e-009	8.295836e-028	0.000000e+000
7.155593054879463e-009	1.465212e-027	0.000000e+000
7.196324750728358e-009	2.580798e-027	0.000000e+000
7.226599044184390e-009	3.903413e-027	0.000000e+000
7.254621908757179e-009	5.776762e-027	0.000000e+000
7.282231321534145e-009	8.478453e-027	0.000000e+000
7.307707795644607e-009	1.208406e-026	0.000000e+000
7.333892249061756e-009	1.751756e-026	0.000000e+000
7.364317306499766e-009	2.716976e-026	0.000000e+000
7.400783056766120e-009	4.640437e-026	0.000000e+000
7.445809771987327e-009	8.450017e-026	0.000000e+000
7.473996220436880e-009	1.230621e-025	0.000000e+000
7.507477260239493e-009	1.980520e-025	0.000000e+000
7.547752903768062e-009	3.430486e-025	0.000000e+000
7.584019477025755e-009	5.547223e-025	0.000000e+000
7.618691981080604e-009	8.769593e-025	0.000000e+000
7.651232309816142e-009	1.388413e-024	0.000000e+000
7.699096121829994e-009	2.577550e-024	0.000000e+000
7.727062829320560e-009	3.691165e-024	0.000000e+000
7.762716100801796e-009	5.977066e-024	0.000000e+000
7.801587017982103e-009	9.737847e-024	0.000000e+000
7.828381044167411e-009	1.357416e-023	0.000000e+000
7.854007847363951e-009	1.880372e-023	0.000000e+000
7.879191569529746e-009	2.653222e-023	0.000000e+000
7.922660525360165e-009	4.752115e-023	0.000000e+000
7.964879786345371e-009	7.969299e-023	0.000000e+000
7.997658216621349e-009	1.189524e-022	0.000000e+000
8.029447008003709e-009	1.782841e-022	0.000000e+000
8.067176690444541e-009	2.840083e-022	0.000000e+000
8.098075006512848e-009	4.122986e-022	0.000000e+000
8.127610627713376e-009	5.907523e-022	0.000000e+000
8.156251169488318e-009	8.556430e-022	0.000000e+000
8.200914805078584e-009	1.474835e-021	0.000000e+000
8.232192182106799e-009	2.130370e-021	0.000000e+000
8.264972097009690e-009	3.190850e-021	0.000000e+000
8.303723769189434e-009	5.115892e-021	0.000000e+000
8.342671748375260e-009	7.978336e-021	0.000000e+000
8.368602139761885e-009	1.070685e-020	0.000000e+000
8.393092632306716e-009	1.426519e-020	0.000000e+000
8.419029284725338e-009	1.963705e-020	0.000000e+000
8.459546555742137e-009	3.159253e-020	0.000000e+000
8.489917569361947e-009	4.489236e-020	0.000000e+000
8.527083443949804e-009	6.982867e-020	0.000000e+000
8.567908749413593e-009	1.116217e-019	0.000000e+000
8.605877488577134e-009	1.690471e-019	0.000000e+000
8.632867918204139e-009	2.271233e-019	0.000000e+000
8.658531610549725e-009	3.046609e-019	0.000000e+000
8.691384130874164e-009	4.444897e-019	0.000000e+000
8.726937779077817e-009	6.620372e-019	0.000000e+000
8.761838459692168e-009	9.727488e-019	0.000000e+000
8.795385400282291e-009	1.405569e-018	0.000000e+000
8.828553417284621e-009	2.030772e-018	0.000000e+000
8.865860558409030e-009	3.025799e-018	0.000000e+000
8.893204510358912e-009	4.039253e-018	0.000000e+000
8.920546327480067e-009	5.439750e-018	0.000000e+000
8.951902775966408e-009	7.635866e-018	0.000000e+000
8.983071782089338e-009	1.056923e-017	0.000000e+000
9.006819289977208e-009	1.355440e-017	0.000000e+000
9.032706072651839e-009	1.805576e-017	0.000000e+000
9.072744998996815e-009	2.800298e-017	0.000000e+000
9.114305388118966e-009	4.258913e-017	0.000000e+000
9.141040014852713e-009	5.606442e-017	0.000000e+000
9.175404298263762e-009	8.004304e-017	0.000000e+000
9.204340581829673e-009	1.076658e-016	0.000000e+000
9.236486352961721e-009	1.493636e-016	0.000000e+000
9.264572438605376e-009	1.981284e-016	0.000000e+000
9.292206514779484e-009	2.642502e-016	0.000000e+000
9.330412354670872e-009	3.941102e-016	0.000000e+000
9.372701579623588e-009	5.948270e-016	0.000000e+000
9.400262064192214e-009	7.771452e-016	0.000000e+000
9.430203791534605e-009	1.046008e-015	0.000000e+000
9.459525834464725e-009	1.398558e-015	0.000000e+000
9.491784294698082e-009	1.916711e-015	0.000000e+000
9.520715142988563e-009	2.534977e-015	0.000000e+000
9.549475319540581e-009	3.373211e-015	0.000000e+000
9.587363728212560e-009	4.922745e-015	0.000000e+000
9.629717043609103e-009	7.318033e-015	0.000000e+000
9.658390195937230e-009	9.590790e-015	0.000000e+000
9.693916602135088e-009	1.350587e-014	0.000000e+000
9.730330310961792e-009	1.893040e-014	0.000000e+000
9.759877081716397e-009	2.487205e-014	0.000000e+000
9.790206877836983e-009	3.309154e-014	0.000000e+000
9.824610019402851e-009	4.603345e-014	0.000000e+000
9.869126118876645e-009	6.976698e-014	0.000000e+000
9.910319481517885e-009	1.008482e-013	0.000000e+000
9.944965306923745e-009	1.375675e-013	0.000000e+000
9.979828551877564e-009	1.873123e-013	0.000000e+000
1.000732376017707e-008	2.386774e-013	0.000000e+000
1.003471127699464e-008	3.044363e-013	0.000000e+000
1.006160981066542e-008	3.888292e-013	0.000000e+000
1.009964068141713e-008	5.493176e-013	0.000000e+000
1.014026158224735e-008	7.801150e-013	0.000000e+000
1.017189529158723e-008	1.026792e-012	0.000000e+000
1.020951558503151e-008	1.423996e-012	0.000000e+000
1.024398416005938e-008	1.901034e-012	0.000000e+000
1.027018406131623e-008	2.371248e-012	0.000000e+000
1.029821223308521e-008	3.012439e-012	0.000000e+000
1.032721096989985e-008	3.872670e-012	0.000000e+000
1.036592593633508e-008	5.408490e-012	0.000000e+000
1.040728337714252e-008	7.571163e-012	0.000000e+000
1.043394844541282e-008	9.427683e-012	0.000000e+000
1.046873629991736e-008	1.264197e-011	0.000000e+000
1.050663540589589e-008	1.718937e-011	0.000000e+000
1.053677339313715e-008	2.192977e-011	0.000000e+000
1.056999458161170e-008	2.873025e-011	0.000000e+000
1.060284866073672e-008	3.765067e-011	0.000000e+000
1.064612049974290e-008	5.345019e-011	0.000000e+000
1.068615445985463e-008	7.325839e-011	0.000000e+000
1.072491531008169e-008	9.884162e-011	0.000000e+000
1.075579055448219e-008	1.256071e-010	0.000000e+000
1.079003995943788e-008	1.635239e-010	0.000000e+000
1.081760440483433e-008	2.018311e-010	0.000000e+000
1.084604042444473e-008	2.525625e-010	0.000000e+000
1.088692691794093e-008	3.460094e-010	0.000000e+000
1.092138957323201e-008	4.463773e-010	0.000000e+000
1.094906960723051e-008	5.486081e-010	0.000000e+000
1.097795291030071e-008	6.821386e-010	0.000000e+000
1.101026524368261e-008	8.677344e-010	0.000000e+000
1.104051117018904e-008	1.081740e-009	0.000000e+000
1.106555347161017e-008	1.298349e-009	0.000000e+000
1.109128841847807e-008	1.566950e-009	0.000000e+000
1.111657491705063e-008	1.889267e-009	0.000000e+000
1.115126220227087e-008	2.426686e-009	0.000000e+000
1.117641368167709e-008	2.905031e-009	0.000000e+000
1.120727897357679e-008	3.629133e-009	0.000000e+000
1.123790238191226e-008	4.507710e-009	0.000000e+000
1.126691284299893e-008	5.552788e-009	0.000000e+000
1.130659283550230e-008	7.328382e-009	0.000000e+000
1.133477276656816e-008	8.880919e-009	0.000000e+000
1.136125578228686e-008	1.066395e-008	0.000000e+000
1.138836736202174e-008	1.286205e-008	0.000000e+000
1.141743474601082e-008	1.570466e-008	0.000000e+000
1.144692975290308e-008	1.919818e-008	0.000000e+000
1.147667015157911e-008	2.350937e-008	0.000000e+000
1.151038147131398e-008	2.951851e-008	0.000000e+000
1.154343494314821e-008	3.675732e-008	0.000000e+000
1.157392145511847e-008	4.490283e-008	0.000000e+000
1.160148345117574e-008	5.384140e-008	0.000000e+000
1.163208763989290e-008	6.576916e-008	0.000000e+000
1.165979665624829e-008	7.857370e-008	0.000000e+000
1.168279698430930e-008	9.120532e-008	0.000000e+000
1.171190335455233e-008	1.102570e-007	0.000000e+000
1.174408392403999e-008	1.358661e-007	0.000000e+000
1.178316955460812e-008	1.746085e-007	0.000000e+000
1.182355981548866e-008	2.239436e-007	0.000000e+000
1.185035233263053e-008	2.639469e-007	0.000000e+000
1.187913845991784e-008	3.157649e-007	0.000000e+000
1.190984285870896e-008	3.815105e-007	0.000000e+000
1.193987798708566e-008	4.584478e-007	0.000000e+000
1.197141963440068e-008	5.556318e-007	0.000000e+000
1.200481073821637e-008	6.797189e-007	0.000000e+000
1.203827903404316e-008	8.316509e-007	0.000000e+000
1.207732770588058e-008	1.045517e-006	0.000000e+000
1.210405881371315e-008	1.220848e-006	0.000000e+000
1.213297540824572e-008	1.447280e-006	0.000000e+000
1.216550902320940e-008	1.748419e-006	0.000000e+000
1.219671874721084e-008	2.090986e-006	0.000000e+000
1.222717193292277e-008	2.488552e-006	0.000000e+000
1.225950658528194e-008	2.996149e-006	0.000000e+000
1.229952437662370e-008	3.760962e-006	0.000000e+000
1.234082185239656e-008	4.710407e-006	0.000000e+000
1.236689124242086e-008	5.428315e-006	0.000000e+000
1.239771905839630e-008	6.430698e-006	0.000000e+000
1.242825033840152e-008	7.589254e-006	0.000000e+000
1.245924767326601e-008	8.970409e-006	0.000000e+000
1.249155997640764e-008	1.065832e-005	0.000000e+000
1.252246715617514e-008	1.257128e-005	0.000000e+000
