time	V(-1)	V(1)
0.000000000000000e+000	0.000000e+000	0.000000e+000
2.929687488293547e-015	0.000000e+000	3.906250e-007
5.859374976587093e-015	0.000000e+000	7.812500e-007
6.862165151151572e-012	0.000000e+000	9.149554e-004
1.371847092732656e-011	0.000000e+000	1.829129e-003
2.057477670350154e-011	0.000000e+000	2.743304e-003
2.743108247967653e-011	0.000000e+000	3.657478e-003
3.428738825585152e-011	0.000000e+000	4.571652e-003
4.114369403202650e-011	0.000000e+000	5.485826e-003
4.799999980820147e-011	0.000000e+000	6.400000e-003
9.599999961640293e-011	0.000000e+000	1.280000e-002
1.407785636475994e-010	0.000000e+000	1.877047e-002
1.792092988105933e-010	0.000000e+000	2.389457e-002
2.149035158205252e-010	0.000000e+000	2.865380e-002
2.541089737604821e-010	0.000000e+000	3.388119e-002
2.950112445806074e-010	0.000000e+000	3.933483e-002
3.449118443615950e-010	0.000000e+000	4.598825e-002
4.006362800488695e-010	0.000000e+000	5.341817e-002
4.676915962411894e-010	0.000000e+000	6.235888e-002
5.439732721488102e-010	0.000000e+000	7.252977e-002
6.348503708506085e-010	0.000000e+000	8.464672e-002
7.137484944605531e-010	0.000000e+000	9.516647e-002
7.892302096979791e-010	0.000000e+000	1.052307e-001
8.715594685411307e-010	0.000000e+000	1.162079e-001
9.602117703979357e-010	0.000000e+000	1.280282e-001
1.059153903989124e-009	0.000000e+000	1.412205e-001
1.167386833664341e-009	0.000000e+000	1.556516e-001
1.288117377531416e-009	0.000000e+000	1.717490e-001
1.421186786830190e-009	0.000000e+000	1.894916e-001
1.549118930157238e-009	0.000000e+000	2.065492e-001
1.664713701703814e-009	0.000000e+000	2.219618e-001
1.796569556311097e-009	0.000000e+000	2.395426e-001
1.929818449374330e-009	0.000000e+000	2.573091e-001
2.080560921130371e-009	0.000000e+000	2.774081e-001
2.237854604306972e-009	0.000000e+000	2.983806e-001
2.375372452887612e-009	0.000000e+000	3.167163e-001
2.527068937112946e-009	0.000000e+000	3.369425e-001
2.677478684148129e-009	0.000000e+000	3.569972e-001
2.844742949457835e-009	0.000000e+000	3.792991e-001
3.016827934322116e-009	0.000000e+000	4.022437e-001
3.206082218364139e-009	0.000000e+000	4.274776e-001
3.393865701956821e-009	0.000000e+000	4.525154e-001
3.564573335323437e-009	0.000000e+000	4.752764e-001
3.755488288822593e-009	0.000000e+000	5.007318e-001
3.945329676249033e-009	0.000000e+000	5.260440e-001
4.155460518250070e-009	0.000000e+000	5.540614e-001
4.343798717912754e-009	0.000000e+000	5.791731e-001
4.543157282382523e-009	0.000000e+000	6.057543e-001
4.743946323352750e-009	0.000000e+000	6.325262e-001
4.959826957862591e-009	0.000000e+000	6.613103e-001
5.182769899709734e-009	0.000000e+000	6.910360e-001
5.387638555248220e-009	0.000000e+000	7.183518e-001
5.606327495254973e-009	0.000000e+000	7.475103e-001
5.825957158711426e-009	0.000000e+000	7.767943e-001
6.061807933708940e-009	0.000000e+000	8.082411e-001
6.304153952708596e-009	0.000000e+000	8.405539e-001
6.529150377152329e-009	0.000000e+000	8.705534e-001
6.768116583564746e-009	0.000000e+000	9.024156e-001
7.008486664742433e-009	0.000000e+000	9.344649e-001
7.265295020365047e-009	0.000000e+000	9.687060e-001
7.499999999999999e-009	0.000000e+000	1.000000e+000
7.523470497963495e-009	0.000000e+000	1.000000e+000
7.570411493890485e-009	0.000000e+000	1.000000e+000
7.664293485744466e-009	0.000000e+000	1.000000e+000
7.828821240854526e-009	0.000000e+000	1.000000e+000
8.091327710485770e-009	0.000000e+000	1.000000e+000
8.331766603386734e-009	0.000000e+000	1.000000e+000
8.593905515360921e-009	0.000000e+000	1.000000e+000
8.878439056345548e-009	0.000000e+000	1.000000e+000
9.136155580880590e-009	0.000000e+000	1.000000e+000
9.426057795330400e-009	0.000000e+000	1.000000e+000
9.707417931875175e-009	0.000000e+000	1.000000e+000
1.000038668187518e-008	0.000000e+000	1.000000e+000
1.027491896293326e-008	0.000000e+000	1.000000e+000
1.056788771293327e-008	0.000000e+000	1.000000e+000
1.086085646293327e-008	0.000000e+000	1.000000e+000
1.115382521293327e-008	0.000000e+000	1.000000e+000
1.144628753770147e-008	0.000000e+000	1.000000e+000
1.173925628770147e-008	0.000000e+000	1.000000e+000
1.203222503770147e-008	0.000000e+000	1.000000e+000
1.232519378770147e-008	0.000000e+000	1.000000e+000
1.261816253770147e-008	0.000000e+000	1.000000e+000
1.291113128770148e-008	0.000000e+000	1.000000e+000
1.320410003770148e-008	0.000000e+000	1.000000e+000
1.349706878770148e-008	0.000000e+000	1.000000e+000
1.379003753770148e-008	0.000000e+000	1.000000e+000
1.408300628770148e-008	0.000000e+000	1.000000e+000
1.437597503770148e-008	0.000000e+000	1.000000e+000
1.466894378770148e-008	0.000000e+000	1.000000e+000
1.496191253770148e-008	0.000000e+000	1.000000e+000
1.525488128770148e-008	0.000000e+000	1.000000e+000
1.554785003770148e-008	0.000000e+000	1.000000e+000
1.584081878770148e-008	0.000000e+000	1.000000e+000
1.613378753770148e-008	0.000000e+000	1.000000e+000
1.642675628770148e-008	0.000000e+000	1.000000e+000
1.671972503770148e-008	0.000000e+000	1.000000e+000
1.701269378770148e-008	0.000000e+000	1.000000e+000
1.730566253770148e-008	0.000000e+000	1.000000e+000
1.759863128770148e-008	0.000000e+000	1.000000e+000
1.789160003770148e-008	0.000000e+000	1.000000e+000
1.818456878770148e-008	0.000000e+000	1.000000e+000
1.847753753770148e-008	0.000000e+000	1.000000e+000
1.877050628770149e-008	0.000000e+000	1.000000e+000
1.906347503770149e-008	0.000000e+000	1.000000e+000
1.935644378770149e-008	0.000000e+000	1.000000e+000
1.964941253770149e-008	0.000000e+000	1.000000e+000
1.994238128770149e-008	0.000000e+000	1.000000e+000
2.023535003770149e-008	0.000000e+000	1.000000e+000
2.052831878770149e-008	0.000000e+000	1.000000e+000
2.082128753770149e-008	0.000000e+000	1.000000e+000
2.111425628770149e-008	0.000000e+000	1.000000e+000
2.140722503770149e-008	0.000000e+000	1.000000e+000
2.170019378770149e-008	0.000000e+000	1.000000e+000
2.199316253770149e-008	0.000000e+000	1.000000e+000
2.228613128770149e-008	0.000000e+000	1.000000e+000
2.257910003770149e-008	0.000000e+000	1.000000e+000
2.287206878770149e-008	0.000000e+000	1.000000e+000
2.316503753770149e-008	0.000000e+000	1.000000e+000
2.345800628770149e-008	0.000000e+000	1.000000e+000
2.375097503770149e-008	0.000000e+000	1.000000e+000
2.404394378770149e-008	0.000000e+000	1.000000e+000
2.433691253770149e-008	0.000000e+000	1.000000e+000
2.462988128770150e-008	0.000000e+000	1.000000e+000
2.492285003770150e-008	0.000000e+000	1.000000e+000
2.521581878770150e-008	0.000000e+000	1.000000e+000
2.550878753770150e-008	0.000000e+000	1.000000e+000
2.580175628770150e-008	0.000000e+000	1.000000e+000
2.609472503770150e-008	0.000000e+000	1.000000e+000
2.638769378770150e-008	0.000000e+000	1.000000e+000
2.668066253770150e-008	0.000000e+000	1.000000e+000
2.697363128770150e-008	0.000000e+000	1.000000e+000
2.726660003770150e-008	0.000000e+000	1.000000e+000
2.755956878770150e-008	0.000000e+000	1.000000e+000
2.785253753770150e-008	0.000000e+000	1.000000e+000
2.814550628770150e-008	0.000000e+000	1.000000e+000
2.843847503770150e-008	0.000000e+000	1.000000e+000
2.873144378770150e-008	0.000000e+000	1.000000e+000
2.902441253770150e-008	0.000000e+000	1.000000e+000
2.931738128770150e-008	0.000000e+000	1.000000e+000
2.961035003770150e-008	0.000000e+000	1.000000e+000
2.990331878770150e-008	0.000000e+000	1.000000e+000
3.019628753770150e-008	0.000000e+000	1.000000e+000
3.048925628770150e-008	0.000000e+000	1.000000e+000
3.078222503770150e-008	0.000000e+000	1.000000e+000
3.107519378770150e-008	1.401298e-045	1.000000e+000
3.136816253770150e-008	2.802597e-045	1.000000e+000
3.166113128770150e-008	7.006492e-045	1.000000e+000
3.195410003770150e-008	1.681558e-044	1.000000e+000
3.224706878770151e-008	4.484155e-044	1.000000e+000
3.254003753770151e-008	1.149065e-043	1.000000e+000
3.283300628770151e-008	2.942727e-043	1.000000e+000
3.312597503770151e-008	7.468921e-043	1.000000e+000
3.341894378770151e-008	1.886148e-042	1.000000e+000
3.371191253770151e-008	4.719573e-042	1.000000e+000
3.400488128770151e-008	1.172046e-041	1.000000e+000
3.429785003770151e-008	2.888637e-041	1.000000e+000
3.459081878770151e-008	7.066468e-041	1.000000e+000
3.488378753770151e-008	1.715876e-040	1.000000e+000
3.517675628770151e-008	4.135988e-040	1.000000e+000
3.546972503770151e-008	9.897567e-040	1.000000e+000
3.576269378770151e-008	2.351634e-039	1.000000e+000
3.605566253770151e-008	5.548060e-039	1.000000e+000
3.634863128770151e-008	1.299810e-038	1.000000e+000
3.664160003770151e-008	3.024281e-038	1.000000e+000
3.693456878770151e-008	6.988809e-038	1.000000e+000
3.722753753770151e-008	1.604198e-037	1.000000e+000
3.752050628770151e-008	3.657802e-037	1.000000e+000
3.781347503770151e-008	8.285591e-037	1.000000e+000
3.810644378770152e-008	1.864663e-036	1.000000e+000
3.839941253770152e-008	4.169486e-036	1.000000e+000
3.869238128770152e-008	9.264064e-036	1.000000e+000
3.898535003770152e-008	2.045446e-035	1.000000e+000
3.927831878770152e-008	4.488198e-035	1.000000e+000
3.957128753770152e-008	9.787755e-035	1.000000e+000
3.986425628770152e-008	2.121534e-034	1.000000e+000
4.015722503770152e-008	4.570896e-034	1.000000e+000
4.045019378770152e-008	9.789591e-034	1.000000e+000
4.074316253770152e-008	2.084333e-033	1.000000e+000
4.103613128770152e-008	4.412003e-033	1.000000e+000
4.132910003770152e-008	9.285317e-033	1.000000e+000
4.162206878770152e-008	1.943013e-032	1.000000e+000
4.191503753770152e-008	4.042946e-032	1.000000e+000
4.220800628770152e-008	8.365429e-032	1.000000e+000
4.250097503770152e-008	1.721357e-031	1.000000e+000
4.279394378770152e-008	3.522654e-031	1.000000e+000
4.308691253770152e-008	7.169828e-031	1.000000e+000
4.337988128770152e-008	1.451477e-030	1.000000e+000
4.367285003770152e-008	2.922787e-030	1.000000e+000
4.396581878770153e-008	5.854523e-030	1.000000e+000
4.425878753770153e-008	1.166582e-029	1.000000e+000
4.455175628770153e-008	2.312543e-029	1.000000e+000
4.484472503770153e-008	4.560749e-029	1.000000e+000
4.513769378770153e-008	8.949008e-029	1.000000e+000
4.543066253770153e-008	1.747135e-028	1.000000e+000
4.572363128770153e-008	3.393991e-028	1.000000e+000
4.601660003770153e-008	6.560653e-028	1.000000e+000
4.630956878770153e-008	1.261988e-027	1.000000e+000
4.660253753770153e-008	2.415758e-027	1.000000e+000
4.689550628770153e-008	4.602153e-027	1.000000e+000
4.718847503770153e-008	8.725611e-027	1.000000e+000
4.748144378770153e-008	1.646554e-026	1.000000e+000
4.777441253770153e-008	3.092566e-026	1.000000e+000
4.806738128770153e-008	5.781524e-026	1.000000e+000
4.836035003770153e-008	1.075878e-025	1.000000e+000
4.865331878770153e-008	1.992957e-025	1.000000e+000
4.894628753770153e-008	3.675052e-025	1.000000e+000
4.923925628770153e-008	6.746461e-025	1.000000e+000
4.953222503770153e-008	1.232967e-024	1.000000e+000
4.982519378770154e-008	2.243392e-024	1.000000e+000
5.011816253770154e-008	4.063993e-024	1.000000e+000
5.041113128770154e-008	7.330099e-024	1.000000e+000
5.070410003770154e-008	1.316409e-023	1.000000e+000
5.099706878770154e-008	2.354023e-023	1.000000e+000
5.129003753770154e-008	4.191636e-023	1.000000e+000
5.158300628770154e-008	7.432311e-023	1.000000e+000
5.187597503770154e-008	1.312338e-022	1.000000e+000
5.216894378770154e-008	2.307610e-022	1.000000e+000
5.246191253770154e-008	4.040990e-022	1.000000e+000
5.275488128770154e-008	7.047501e-022	1.000000e+000
5.304785003770154e-008	1.224102e-021	1.000000e+000
5.334081878770154e-008	2.117619e-021	1.000000e+000
5.363378753770154e-008	3.648703e-021	1.000000e+000
5.392675628770154e-008	6.261846e-021	1.000000e+000
5.421972503770154e-008	1.070413e-020	1.000000e+000
5.451269378770154e-008	1.822628e-020	1.000000e+000
5.480566253770154e-008	3.091389e-020	1.000000e+000
5.509863128770154e-008	5.223124e-020	1.000000e+000
5.539160003770155e-008	8.791021e-020	1.000000e+000
5.568456878770155e-008	1.473981e-019	1.000000e+000
5.597753753770155e-008	2.462065e-019	1.000000e+000
5.627050628770155e-008	4.097065e-019	1.000000e+000
5.656347503770155e-008	6.792392e-019	1.000000e+000
5.685644378770155e-008	1.121914e-018	1.000000e+000
5.714941253770155e-008	1.846266e-018	1.000000e+000
5.744238128770155e-008	3.027170e-018	1.000000e+000
5.773535003770155e-008	4.945351e-018	1.000000e+000
5.802831878770155e-008	8.049805e-018	1.000000e+000
5.832128753770155e-008	1.305603e-017	1.000000e+000
5.861425628770155e-008	2.110009e-017	1.000000e+000
5.890722503770155e-008	3.397928e-017	1.000000e+000
5.920019378770155e-008	5.452681e-017	1.000000e+000
5.949316253770155e-008	8.719290e-017	1.000000e+000
5.978613128770155e-008	1.389429e-016	1.000000e+000
6.007910003770154e-008	2.206402e-016	1.000000e+000
6.037206878770153e-008	3.491682e-016	1.000000e+000
6.066503753770153e-008	5.506745e-016	1.000000e+000
6.095800628770152e-008	8.655140e-016	1.000000e+000
6.125097503770152e-008	1.355752e-015	1.000000e+000
6.154394378770151e-008	2.116516e-015	1.000000e+000
6.183691253770150e-008	3.293110e-015	1.000000e+000
6.212988128770150e-008	5.106718e-015	1.000000e+000
6.242285003770149e-008	7.892896e-015	1.000000e+000
6.271581878770148e-008	1.215899e-014	1.000000e+000
6.300878753770148e-008	1.866949e-014	1.000000e+000
6.330175628770147e-008	2.857253e-014	1.000000e+000
6.359472503770147e-008	4.358665e-014	1.000000e+000
6.388769378770146e-008	6.627566e-014	1.000000e+000
6.418066253770145e-008	1.004517e-013	1.000000e+000
6.447363128770145e-008	1.517644e-013	1.000000e+000
6.476660003770144e-008	2.285594e-013	1.000000e+000
6.505956878770144e-008	3.431239e-013	1.000000e+000
6.535253753770143e-008	5.134904e-013	1.000000e+000
6.564550628770142e-008	7.660365e-013	1.000000e+000
6.593847503770142e-008	1.139223e-012	1.000000e+000
6.623144378770141e-008	1.688948e-012	1.000000e+000
6.652441253770141e-008	2.496192e-012	1.000000e+000
6.681738128770140e-008	3.677902e-012	1.000000e+000
6.711035003770139e-008	5.402419e-012	1.000000e+000
6.740331878770139e-008	7.911305e-012	1.000000e+000
6.769628753770138e-008	1.155009e-011	1.000000e+000
6.798925628770137e-008	1.681146e-011	1.000000e+000
6.828222503770137e-008	2.439574e-011	1.000000e+000
6.857519378770136e-008	3.529522e-011	1.000000e+000
6.886816253770136e-008	5.091157e-011	1.000000e+000
6.916113128770135e-008	7.321852e-011	1.000000e+000
6.945410003770134e-008	1.049867e-010	1.000000e+000
6.974706878770134e-008	1.500932e-010	1.000000e+000
7.004003753770133e-008	2.139469e-010	1.000000e+000
7.033300628770133e-008	3.040705e-010	1.000000e+000
7.062597503770132e-008	4.308935e-010	1.000000e+000
7.091894378770131e-008	6.088323e-010	1.000000e+000
7.121191253770131e-008	8.577521e-010	1.000000e+000
7.150488128770130e-008	1.204943e-009	1.000000e+000
7.179785003770130e-008	1.687781e-009	1.000000e+000
7.209081878770129e-008	2.357297e-009	1.000000e+000
7.238378753770128e-008	3.282958e-009	1.000000e+000
7.267675628770128e-008	4.559036e-009	1.000000e+000
7.296972503770127e-008	6.313077e-009	1.000000e+000
7.326269378770126e-008	8.717121e-009	1.000000e+000
7.355566253770126e-008	1.200253e-008	1.000000e+000
7.384863128770125e-008	1.647947e-008	1.000000e+000
7.414160003770125e-008	2.256255e-008	1.000000e+000
7.443456878770124e-008	3.080426e-008	1.000000e+000
7.472753753770123e-008	4.193863e-008	1.000000e+000
7.502050628770123e-008	5.693791e-008	1.000000e+000
7.531347503770122e-008	7.708602e-008	1.000000e+000
7.560644378770122e-008	1.040733e-007	1.000000e+000
7.589941253770121e-008	1.401186e-007	1.000000e+000
7.619238128770120e-008	1.881253e-007	1.000000e+000
7.648535003770120e-008	2.518815e-007	1.000000e+000
7.677831878770119e-008	3.363147e-007	1.000000e+000
7.707128753770119e-008	4.478141e-007	1.000000e+000
7.736425628770118e-008	5.946408e-007	1.000000e+000
7.765722503770117e-008	7.874422e-007	1.000000e+000
7.795019378770117e-008	1.039901e-006	1.000000e+000
7.824316253770116e-008	1.369545e-006	1.000000e+000
7.853613128770115e-008	1.798762e-006	1.000000e+000
7.882910003770115e-008	2.356057e-006	1.000000e+000
7.912206878770114e-008	3.077618e-006	1.000000e+000
7.941503753770114e-008	4.009236e-006	1.000000e+000
7.970800628770113e-008	5.208687e-006	1.000000e+000
8.000097503770112e-008	6.748634e-006	1.000000e+000
8.029394378770112e-008	8.720188e-006	1.000000e+000
8.058691253770111e-008	1.123723e-005	1.000000e+000
8.087988128770111e-008	1.444167e-005	1.000000e+000
8.117285003770110e-008	1.850978e-005	1.000000e+000
8.146581878770109e-008	2.365982e-005	1.000000e+000
8.175878753770109e-008	3.016122e-005	1.000000e+000
8.205175628770108e-008	3.834549e-005	1.000000e+000
8.234472503770108e-008	4.861925e-005	1.000000e+000
8.263769378770107e-008	6.147962e-005	1.000000e+000
8.293066253770106e-008	7.753243e-005	1.000000e+000
8.322363128770106e-008	9.751360e-005	1.000000e+000
8.351660003770105e-008	1.223141e-004	1.000000e+000
8.380956878770104e-008	1.530093e-004	1.000000e+000
8.410253753770104e-008	1.908925e-004	1.000000e+000
8.439550628770103e-008	2.375139e-004	1.000000e+000
8.468847503770103e-008	2.947261e-004	1.000000e+000
8.498144378770102e-008	3.647344e-004	1.000000e+000
8.527441253770101e-008	4.501560e-004	1.000000e+000
8.556738128770101e-008	5.540857e-004	1.000000e+000
8.586035003770100e-008	6.801702e-004	1.000000e+000
8.615331878770100e-008	8.326914e-004	1.000000e+000
8.644628753770099e-008	1.016659e-003	1.000000e+000
8.673925628770098e-008	1.237914e-003	1.000000e+000
8.703222503770098e-008	1.503239e-003	1.000000e+000
8.732519378770097e-008	1.820483e-003	1.000000e+000
8.761816253770097e-008	2.198693e-003	1.000000e+000
8.791113128770096e-008	2.648261e-003	1.000000e+000
8.820410003770095e-008	3.181070e-003	1.000000e+000
8.849706878770095e-008	3.810657e-003	1.000000e+000
8.879003753770094e-008	4.552384e-003	1.000000e+000
8.908300628770093e-008	5.423606e-003	1.000000e+000
8.937597503770093e-008	6.443849e-003	1.000000e+000
8.966894378770092e-008	7.634982e-003	1.000000e+000
8.996191253770092e-008	9.021398e-003	1.000000e+000
9.025488128770091e-008	1.063016e-002	1.000000e+000
9.054785003770090e-008	1.249119e-002	1.000000e+000
9.084081878770090e-008	1.463734e-002	1.000000e+000
9.113378753770089e-008	1.710457e-002	1.000000e+000
9.142675628770089e-008	1.993199e-002	1.000000e+000
9.171972503770088e-008	2.316191e-002	1.000000e+000
9.201269378770087e-008	2.683984e-002	1.000000e+000
9.230566253770087e-008	3.101441e-002	1.000000e+000
9.259863128770086e-008	3.573729e-002	1.000000e+000
9.289160003770086e-008	4.106299e-002	1.000000e+000
9.318456878770085e-008	4.704855e-002	1.000000e+000
9.347753753770084e-008	5.375325e-002	1.000000e+000
9.377050628770084e-008	6.123812e-002	1.000000e+000
9.406347503770083e-008	6.956542e-002	1.000000e+000
9.435644378770082e-008	7.879797e-002	1.000000e+000
9.464941253770082e-008	8.899841e-002	1.000000e+000
9.494238128770081e-008	1.002284e-001	1.000000e+000
9.523535003770081e-008	1.125475e-001	1.000000e+000
9.552831878770080e-008	1.260123e-001	1.000000e+000
9.582128753770079e-008	1.406751e-001	1.000000e+000
9.611425628770079e-008	1.565828e-001	1.000000e+000
9.640722503770078e-008	1.737758e-001	1.000000e+000
9.670019378770078e-008	1.922860e-001	1.000000e+000
9.699316253770077e-008	2.121361e-001	1.000000e+000
9.728613128770076e-008	2.333382e-001	1.000000e+000
9.757910003770076e-008	2.558920e-001	1.000000e+000
9.787206878770075e-008	2.797841e-001	1.000000e+000
9.816503753770075e-008	3.049866e-001	1.000000e+000
9.845800628770074e-008	3.314560e-001	1.000000e+000
9.875097503770073e-008	3.591326e-001	1.000000e+000
9.904394378770073e-008	3.879399e-001	1.000000e+000
9.933691253770072e-008	4.177840e-001	1.000000e+000
9.962988128770071e-008	4.485538e-001	1.000000e+000
9.992285003770071e-008	4.801213e-001	1.000000e+000
1.002158187877007e-007	5.123421e-001	1.000000e+000
1.005087875377007e-007	5.450563e-001	1.000000e+000
1.008017562877007e-007	5.780901e-001	1.000000e+000
1.010947250377007e-007	6.112576e-001	1.000000e+000
1.013876937877007e-007	6.443624e-001	1.000000e+000
1.016806625377007e-007	6.772012e-001	1.000000e+000
1.019736312877007e-007	7.095652e-001	1.000000e+000
1.022666000377007e-007	7.412446e-001	1.000000e+000
1.025595687877007e-007	7.720308e-001	1.000000e+000
1.028525375377007e-007	8.017210e-001	1.000000e+000
1.031455062877006e-007	8.301207e-001	1.000000e+000
