time	V(-1)	V(1)
0.000000000000000e+000	0.000000e+000	0.000000e+000
2.929687488293547e-015	0.000000e+000	3.906250e-007
5.859374976587093e-015	0.000000e+000	7.812500e-007
6.862165151151572e-012	0.000000e+000	9.149554e-004
1.371847092732656e-011	0.000000e+000	1.829129e-003
2.057477670350154e-011	0.000000e+000	2.743304e-003
2.743108247967653e-011	0.000000e+000	3.657478e-003
3.428738825585152e-011	0.000000e+000	4.571652e-003
4.114369403202650e-011	0.000000e+000	5.485826e-003
4.799999980820147e-011	0.000000e+000	6.400000e-003
9.599999961640293e-011	0.000000e+000	1.280000e-002
1.405262344329126e-010	0.000000e+000	1.873683e-002
1.785059116298708e-010	0.000000e+000	2.380079e-002
2.136788455617211e-010	0.000000e+000	2.849051e-002
2.527557424724231e-010	0.000000e+000	3.370076e-002
2.933345759765085e-010	0.000000e+000	3.911128e-002
3.430691828226491e-010	0.000000e+000	4.574256e-002
3.984225591551467e-010	0.000000e+000	5.312301e-002
4.652177047774925e-010	0.000000e+000	6.202903e-002
5.410583380817362e-010	0.000000e+000	7.214111e-002
6.315786877276929e-010	0.000000e+000	8.421049e-002
7.091269117124042e-010	0.000000e+000	9.455025e-002
7.847220122059452e-010	0.000000e+000	1.046296e-001
8.661217263367356e-010	0.000000e+000	1.154829e-001
9.546936759995205e-010	0.000000e+000	1.272925e-001
1.052790516676659e-009	0.000000e+000	1.403721e-001
1.160799101946564e-009	0.000000e+000	1.547732e-001
1.280738081661964e-009	0.000000e+000	1.707651e-001
1.413498624721887e-009	0.000000e+000	1.884665e-001
1.533162657991335e-009	0.000000e+000	2.044217e-001
1.651207382551157e-009	0.000000e+000	2.201610e-001
1.778437817313175e-009	0.000000e+000	2.371250e-001
1.913227716743336e-009	0.000000e+000	2.550970e-001
2.060435016874990e-009	0.000000e+000	2.747247e-001
2.218522987712806e-009	0.000000e+000	2.958031e-001
2.359634470958143e-009	0.000000e+000	3.146179e-001
2.507589179811450e-009	0.000000e+000	3.343452e-001
2.659730413391205e-009	0.000000e+000	3.546307e-001
2.824137567500453e-009	0.000000e+000	3.765517e-001
2.997250482815756e-009	0.000000e+000	3.996334e-001
3.184406470073660e-009	0.000000e+000	4.245875e-001
3.355800880419798e-009	0.000000e+000	4.474401e-001
3.531881182923903e-009	0.000000e+000	4.709175e-001
3.714135767029218e-009	0.000000e+000	4.952181e-001
3.907768123884371e-009	0.000000e+000	5.210357e-001
4.111847064043411e-009	0.000000e+000	5.482463e-001
4.319496568197997e-009	0.000000e+000	5.759329e-001
4.507673618742228e-009	0.000000e+000	6.010231e-001
4.718423381749337e-009	0.000000e+000	6.291231e-001
4.926307868349820e-009	0.000000e+000	6.568410e-001
5.155929559347762e-009	0.000000e+000	6.874573e-001
5.373443570145619e-009	0.000000e+000	7.164592e-001
5.588346700420950e-009	0.000000e+000	7.451129e-001
5.814190418954913e-009	0.000000e+000	7.752254e-001
6.047413066063950e-009	0.000000e+000	8.063217e-001
6.265236679570395e-009	0.000000e+000	8.353649e-001
6.504175623831078e-009	0.000000e+000	8.672234e-001
6.730766896625684e-009	0.000000e+000	8.974356e-001
6.981652121198541e-009	0.000000e+000	9.308869e-001
7.231214893620990e-009	0.000000e+000	9.641620e-001
7.264262920500520e-009	0.000000e+000	9.685684e-001
7.330358974259580e-009	0.000000e+000	9.773812e-001
7.367807892481879e-009	0.000000e+000	9.823744e-001
7.425102163555401e-009	0.000000e+000	9.900136e-001
7.499999999999999e-009	0.000000e+000	1.000000e+000
7.507489783644459e-009	0.000000e+000	1.000000e+000
7.522469350933378e-009	0.000000e+000	1.000000e+000
7.552428485511218e-009	0.000000e+000	1.000000e+000
7.612346754666896e-009	0.000000e+000	1.000000e+000
7.732183292978252e-009	0.000000e+000	1.000000e+000
7.971856369600966e-009	0.000000e+000	1.000000e+000
8.205457041848764e-009	0.000000e+000	1.000000e+000
8.439765899353689e-009	0.000000e+000	1.000000e+000
8.714109066734493e-009	0.000000e+000	1.000000e+000
8.963849425791099e-009	0.000000e+000	1.000000e+000
9.249470070665510e-009	0.000000e+000	1.000000e+000
9.524979631448530e-009	0.000000e+000	1.000000e+000
9.817948381448530e-009	0.000000e+000	1.000000e+000
1.008574524311839e-008	0.000000e+000	1.000000e+000
1.037871399311839e-008	0.000000e+000	1.000000e+000
1.067113056582232e-008	0.000000e+000	1.000000e+000
1.096409931582232e-008	0.000000e+000	1.000000e+000
1.125174146713749e-008	0.000000e+000	1.000000e+000
1.154471021713749e-008	0.000000e+000	1.000000e+000
1.183767896713749e-008	0.000000e+000	1.000000e+000
1.213064771713749e-008	0.000000e+000	1.000000e+000
1.242361646713749e-008	0.000000e+000	1.000000e+000
1.271658521713749e-008	0.000000e+000	1.000000e+000
1.300955396713749e-008	0.000000e+000	1.000000e+000
1.330252271713749e-008	0.000000e+000	1.000000e+000
1.359549146713749e-008	0.000000e+000	1.000000e+000
1.388846021713749e-008	0.000000e+000	1.000000e+000
1.418142896713749e-008	0.000000e+000	1.000000e+000
1.447439771713749e-008	0.000000e+000	1.000000e+000
1.476736646713749e-008	0.000000e+000	1.000000e+000
1.506033521713749e-008	0.000000e+000	1.000000e+000
1.535330396713749e-008	0.000000e+000	1.000000e+000
1.564627271713749e-008	0.000000e+000	1.000000e+000
1.593924146713749e-008	0.000000e+000	1.000000e+000
1.623221021713749e-008	0.000000e+000	1.000000e+000
1.652517896713749e-008	0.000000e+000	1.000000e+000
1.681814771713749e-008	0.000000e+000	1.000000e+000
1.711111646713749e-008	0.000000e+000	1.000000e+000
1.740408521713749e-008	0.000000e+000	1.000000e+000
1.769705396713749e-008	0.000000e+000	1.000000e+000
1.799002271713750e-008	0.000000e+000	1.000000e+000
1.828299146713750e-008	0.000000e+000	1.000000e+000
1.857596021713750e-008	0.000000e+000	1.000000e+000
1.886892896713750e-008	0.000000e+000	1.000000e+000
1.916189771713750e-008	0.000000e+000	1.000000e+000
1.945486646713750e-008	0.000000e+000	1.000000e+000
1.974783521713750e-008	0.000000e+000	1.000000e+000
2.004080396713750e-008	0.000000e+000	1.000000e+000
2.033377271713750e-008	0.000000e+000	1.000000e+000
2.062674146713750e-008	0.000000e+000	1.000000e+000
2.091971021713750e-008	0.000000e+000	1.000000e+000
2.121267896713750e-008	0.000000e+000	1.000000e+000
2.150564771713750e-008	0.000000e+000	1.000000e+000
2.179861646713750e-008	0.000000e+000	1.000000e+000
2.209158521713750e-008	0.000000e+000	1.000000e+000
2.238455396713750e-008	0.000000e+000	1.000000e+000
2.267752271713750e-008	0.000000e+000	1.000000e+000
2.297049146713750e-008	0.000000e+000	1.000000e+000
2.326346021713750e-008	0.000000e+000	1.000000e+000
2.355642896713750e-008	0.000000e+000	1.000000e+000
2.384939771713751e-008	0.000000e+000	1.000000e+000
2.414236646713751e-008	0.000000e+000	1.000000e+000
2.443533521713751e-008	0.000000e+000	1.000000e+000
2.472830396713751e-008	0.000000e+000	1.000000e+000
2.502127271713751e-008	0.000000e+000	1.000000e+000
2.531424146713751e-008	0.000000e+000	1.000000e+000
2.560721021713751e-008	0.000000e+000	1.000000e+000
2.590017896713751e-008	0.000000e+000	1.000000e+000
2.619314771713751e-008	0.000000e+000	1.000000e+000
2.648611646713751e-008	0.000000e+000	1.000000e+000
2.677908521713751e-008	0.000000e+000	1.000000e+000
2.707205396713751e-008	0.000000e+000	1.000000e+000
2.736502271713751e-008	0.000000e+000	1.000000e+000
2.765799146713751e-008	0.000000e+000	1.000000e+000
2.795096021713751e-008	0.000000e+000	1.000000e+000
2.824392896713751e-008	0.000000e+000	1.000000e+000
2.853689771713751e-008	0.000000e+000	1.000000e+000
2.882986646713751e-008	0.000000e+000	1.000000e+000
2.912283521713751e-008	0.000000e+000	1.000000e+000
2.941580396713751e-008	0.000000e+000	1.000000e+000
2.970877271713752e-008	0.000000e+000	1.000000e+000
3.000174146713751e-008	0.000000e+000	1.000000e+000
3.029471021713751e-008	1.401298e-045	1.000000e+000
3.058767896713751e-008	4.203895e-045	1.000000e+000
3.088064771713751e-008	1.121039e-044	1.000000e+000
3.117361646713751e-008	3.082857e-044	1.000000e+000
3.146658521713752e-008	8.267661e-044	1.000000e+000
3.175955396713752e-008	2.172013e-043	1.000000e+000
3.205252271713752e-008	5.689272e-043	1.000000e+000
3.234549146713752e-008	1.474166e-042	1.000000e+000
3.263846021713752e-008	3.787710e-042	1.000000e+000
3.293142896713752e-008	9.653545e-042	1.000000e+000
3.322439771713752e-008	2.440642e-041	1.000000e+000
3.351736646713752e-008	6.121432e-041	1.000000e+000
3.381033521713752e-008	1.523310e-040	1.000000e+000
3.410330396713752e-008	3.761491e-040	1.000000e+000
3.439627271713752e-008	9.217349e-040	1.000000e+000
3.468924146713752e-008	2.241654e-039	1.000000e+000
3.498221021713752e-008	5.411149e-039	1.000000e+000
3.527517896713752e-008	1.296609e-038	1.000000e+000
3.556814771713752e-008	3.084375e-038	1.000000e+000
3.586111646713752e-008	7.284542e-038	1.000000e+000
3.615408521713752e-008	1.708253e-037	1.000000e+000
3.644705396713752e-008	3.977900e-037	1.000000e+000
3.674002271713752e-008	9.199063e-037	1.000000e+000
3.703299146713752e-008	2.112793e-036	1.000000e+000
3.732596021713753e-008	4.819792e-036	1.000000e+000
3.761892896713753e-008	1.092174e-035	1.000000e+000
3.791189771713753e-008	2.458561e-035	1.000000e+000
3.820486646713753e-008	5.498295e-035	1.000000e+000
3.849783521713753e-008	1.221701e-034	1.000000e+000
3.879080396713753e-008	2.697263e-034	1.000000e+000
3.908377271713753e-008	5.917433e-034	1.000000e+000
3.937674146713753e-008	1.290106e-033	1.000000e+000
3.966971021713753e-008	2.795300e-033	1.000000e+000
3.996267896713753e-008	6.019658e-033	1.000000e+000
4.025564771713753e-008	1.288498e-032	1.000000e+000
4.054861646713753e-008	2.741521e-032	1.000000e+000
4.084158521713753e-008	5.798596e-032	1.000000e+000
4.113455396713753e-008	1.219282e-031	1.000000e+000
4.142752271713753e-008	2.548953e-031	1.000000e+000
4.172049146713753e-008	5.298112e-031	1.000000e+000
4.201346021713753e-008	1.094984e-030	1.000000e+000
4.230642896713753e-008	2.250327e-030	1.000000e+000
4.259939771713753e-008	4.598963e-030	1.000000e+000
4.289236646713753e-008	9.347035e-030	1.000000e+000
4.318533521713754e-008	1.889344e-029	1.000000e+000
4.347830396713754e-008	3.798343e-029	1.000000e+000
4.377127271713754e-008	7.595316e-029	1.000000e+000
4.406424146713754e-008	1.510735e-028	1.000000e+000
4.435721021713754e-008	2.989118e-028	1.000000e+000
4.465017896713754e-008	5.883442e-028	1.000000e+000
4.494314771713754e-008	1.152059e-027	1.000000e+000
4.523611646713754e-008	2.244361e-027	1.000000e+000
4.552908521713754e-008	4.350171e-027	1.000000e+000
4.582205396713754e-008	8.389481e-027	1.000000e+000
4.611502271713754e-008	1.609898e-026	1.000000e+000
4.640799146713754e-008	3.074083e-026	1.000000e+000
4.670096021713754e-008	5.841244e-026	1.000000e+000
4.699392896713754e-008	1.104552e-025	1.000000e+000
4.728689771713754e-008	2.078625e-025	1.000000e+000
4.757986646713754e-008	3.893080e-025	1.000000e+000
4.787283521713754e-008	7.256964e-025	1.000000e+000
4.816580396713754e-008	1.346413e-024	1.000000e+000
4.845877271713754e-008	2.486456e-024	1.000000e+000
4.875174146713754e-008	4.570654e-024	1.000000e+000
4.904471021713755e-008	8.363495e-024	1.000000e+000
4.933767896713755e-008	1.523439e-023	1.000000e+000
4.963064771713755e-008	2.762524e-023	1.000000e+000
4.992361646713755e-008	4.987078e-023	1.000000e+000
5.021658521713755e-008	8.963154e-023	1.000000e+000
5.050955396713755e-008	1.603855e-022	1.000000e+000
5.080252271713755e-008	2.857417e-022	1.000000e+000
5.109549146713755e-008	5.068750e-022	1.000000e+000
5.138846021713755e-008	8.952851e-022	1.000000e+000
5.168142896713755e-008	1.574595e-021	1.000000e+000
5.197439771713755e-008	2.757640e-021	1.000000e+000
5.226736646713755e-008	4.809288e-021	1.000000e+000
5.256033521713755e-008	8.352413e-021	1.000000e+000
5.285330396713755e-008	1.444588e-020	1.000000e+000
5.314627271713755e-008	2.488229e-020	1.000000e+000
5.343924146713755e-008	4.268381e-020	1.000000e+000
5.373221021713755e-008	7.292480e-020	1.000000e+000
5.402517896713755e-008	1.240906e-019	1.000000e+000
5.431814771713755e-008	2.103129e-019	1.000000e+000
5.461111646713755e-008	3.550327e-019	1.000000e+000
5.490408521713756e-008	5.969777e-019	1.000000e+000
5.519705396713756e-008	9.998766e-019	1.000000e+000
5.549002271713756e-008	1.668187e-018	1.000000e+000
5.578299146713756e-008	2.772452e-018	1.000000e+000
5.607596021713756e-008	4.590028e-018	1.000000e+000
5.636892896713756e-008	7.570235e-018	1.000000e+000
5.666189771713756e-008	1.243818e-017	1.000000e+000
5.695486646713756e-008	2.035954e-017	1.000000e+000
5.724783521713756e-008	3.320113e-017	1.000000e+000
5.754080396713756e-008	5.394137e-017	1.000000e+000
5.783377271713756e-008	8.731421e-017	1.000000e+000
5.812674146713756e-008	1.408158e-016	1.000000e+000
5.841971021713756e-008	2.262722e-016	1.000000e+000
5.871267896713756e-008	3.622709e-016	1.000000e+000
5.900564771713756e-008	5.779198e-016	1.000000e+000
5.929861646713756e-008	9.186341e-016	1.000000e+000
5.959158521713756e-008	1.455015e-015	1.000000e+000
5.988455396713756e-008	2.296417e-015	1.000000e+000
6.017752271713756e-008	3.611614e-015	1.000000e+000
6.047049146713755e-008	5.660146e-015	1.000000e+000
6.076346021713755e-008	8.839710e-015	1.000000e+000
6.105642896713754e-008	1.375753e-014	1.000000e+000
6.134939771713753e-008	2.133749e-014	1.000000e+000
6.164236646713753e-008	3.298027e-014	1.000000e+000
6.193533521713752e-008	5.080203e-014	1.000000e+000
6.222830396713752e-008	7.798866e-014	1.000000e+000
6.252127271713751e-008	1.193199e-013	1.000000e+000
6.281424146713750e-008	1.819419e-013	1.000000e+000
6.310721021713750e-008	2.765019e-013	1.000000e+000
6.340017896713749e-008	4.188091e-013	1.000000e+000
6.369314771713748e-008	6.322573e-013	1.000000e+000
6.398611646713748e-008	9.513450e-013	1.000000e+000
6.427908521713747e-008	1.426775e-012	1.000000e+000
6.457205396713747e-008	2.132812e-012	1.000000e+000
6.486502271713746e-008	3.177868e-012	1.000000e+000
6.515799146713745e-008	4.719670e-012	1.000000e+000
6.545096021713745e-008	6.986927e-012	1.000000e+000
6.574392896713744e-008	1.031016e-011	1.000000e+000
6.603689771713744e-008	1.516546e-011	1.000000e+000
6.632986646713743e-008	2.223629e-011	1.000000e+000
6.662283521713742e-008	3.250060e-011	1.000000e+000
6.691580396713742e-008	4.735309e-011	1.000000e+000
6.720877271713741e-008	6.877628e-011	1.000000e+000
6.750174146713741e-008	9.957900e-011	1.000000e+000
6.779471021713740e-008	1.437278e-010	1.000000e+000
6.808767896713739e-008	2.068060e-010	1.000000e+000
6.838064771713739e-008	2.966468e-010	1.000000e+000
6.867361646713738e-008	4.242044e-010	1.000000e+000
6.896658521713737e-008	6.047484e-010	1.000000e+000
6.925955396713737e-008	8.594938e-010	1.000000e+000
6.955252271713736e-008	1.217822e-009	1.000000e+000
6.984549146713736e-008	1.720294e-009	1.000000e+000
7.013846021713735e-008	2.422722e-009	1.000000e+000
7.043142896713734e-008	3.401657e-009	1.000000e+000
7.072439771713734e-008	4.761763e-009	1.000000e+000
7.101736646713733e-008	6.645680e-009	1.000000e+000
7.131033521713733e-008	9.247182e-009	1.000000e+000
7.160330396713732e-008	1.282866e-008	1.000000e+000
7.189627271713731e-008	1.774431e-008	1.000000e+000
7.218924146713731e-008	2.447070e-008	1.000000e+000
7.248221021713730e-008	3.364701e-008	1.000000e+000
7.277517896713729e-008	4.612779e-008	1.000000e+000
7.306814771713729e-008	6.305193e-008	1.000000e+000
7.336111646713728e-008	8.593236e-008	1.000000e+000
7.365408521713728e-008	1.167726e-007	1.000000e+000
7.394705396713727e-008	1.582171e-007	1.000000e+000
7.424002271713726e-008	2.137458e-007	1.000000e+000
7.453299146713726e-008	2.879227e-007	1.000000e+000
7.482596021713725e-008	3.867151e-007	1.000000e+000
7.511892896713725e-008	5.178997e-007	1.000000e+000
7.541189771713724e-008	6.915792e-007	1.000000e+000
7.570486646713723e-008	9.208358e-007	1.000000e+000
7.599783521713723e-008	1.222556e-006	1.000000e+000
7.629080396713722e-008	1.618465e-006	1.000000e+000
7.658377271713722e-008	2.136429e-006	1.000000e+000
7.687674146713721e-008	2.812066e-006	1.000000e+000
7.716971021713720e-008	3.690767e-006	1.000000e+000
7.746267896713720e-008	4.830177e-006	1.000000e+000
7.775564771713719e-008	6.303280e-006	1.000000e+000
7.804861646713718e-008	8.202167e-006	1.000000e+000
7.834158521713718e-008	1.064266e-005	1.000000e+000
7.863455396713717e-008	1.376997e-005	1.000000e+000
7.892752271713717e-008	1.776551e-005	1.000000e+000
7.922049146713716e-008	2.285522e-005	1.000000e+000
7.951346021713715e-008	2.931952e-005	1.000000e+000
7.980642896713715e-008	3.750533e-005	1.000000e+000
8.009939771713714e-008	4.784033e-005	1.000000e+000
8.039236646713714e-008	6.085007e-005	1.000000e+000
8.068533521713713e-008	7.717810e-005	1.000000e+000
8.097830396713712e-008	9.760979e-005	1.000000e+000
8.127127271713712e-008	1.231003e-004	1.000000e+000
8.156424146713711e-008	1.548073e-004	1.000000e+000
8.185721021713711e-008	1.941288e-004	1.000000e+000
8.215017896713710e-008	2.427475e-004	1.000000e+000
8.244314771713709e-008	3.026811e-004	1.000000e+000
8.273611646713709e-008	3.763408e-004	1.000000e+000
8.302908521713708e-008	4.665970e-004	1.000000e+000
8.332205396713707e-008	5.768550e-004	1.000000e+000
8.361502271713707e-008	7.111390e-004	1.000000e+000
8.390799146713706e-008	8.741874e-004	1.000000e+000
8.420096021713706e-008	1.071558e-003	1.000000e+000
8.449392896713705e-008	1.309744e-003	1.000000e+000
8.478689771713704e-008	1.596305e-003	1.000000e+000
8.507986646713704e-008	1.940002e-003	1.000000e+000
8.537283521713703e-008	2.350952e-003	1.000000e+000
8.566580396713703e-008	2.840789e-003	1.000000e+000
8.595877271713702e-008	3.422832e-003	1.000000e+000
8.625174146713701e-008	4.112272e-003	1.000000e+000
8.654471021713701e-008	4.926352e-003	1.000000e+000
8.683767896713700e-008	5.884561e-003	1.000000e+000
8.713064771713700e-008	7.008825e-003	1.000000e+000
8.742361646713699e-008	8.323699e-003	1.000000e+000
8.771658521713698e-008	9.856545e-003	1.000000e+000
8.800955396713698e-008	1.163771e-002	1.000000e+000
8.830252271713697e-008	1.370066e-002	1.000000e+000
8.859549146713696e-008	1.608213e-002	1.000000e+000
8.888846021713696e-008	1.882221e-002	1.000000e+000
8.918142896713695e-008	2.196439e-002	1.000000e+000
8.947439771713695e-008	2.555556e-002	1.000000e+000
8.976736646713694e-008	2.964599e-002	1.000000e+000
9.006033521713693e-008	3.428916e-002	1.000000e+000
9.035330396713693e-008	3.954159e-002	1.000000e+000
9.064627271713692e-008	4.546256e-002	1.000000e+000
9.093924146713692e-008	5.211370e-002	1.000000e+000
9.123221021713691e-008	5.955851e-002	1.000000e+000
9.152517896713690e-008	6.786179e-002	1.000000e+000
9.181814771713690e-008	7.708891e-002	1.000000e+000
9.211111646713689e-008	8.730499e-002	1.000000e+000
9.240408521713689e-008	9.857397e-002	1.000000e+000
9.269705396713688e-008	1.109575e-001	1.000000e+000
9.299002271713687e-008	1.245139e-001	1.000000e+000
9.328299146713687e-008	1.392967e-001	1.000000e+000
9.357596021713686e-008	1.553535e-001	1.000000e+000
9.386892896713685e-008	1.727244e-001	1.000000e+000
9.416189771713685e-008	1.914407e-001	1.000000e+000
9.445486646713684e-008	2.115233e-001	1.000000e+000
9.474783521713684e-008	2.329813e-001	1.000000e+000
9.504080396713683e-008	2.558106e-001	1.000000e+000
9.533377271713682e-008	2.799927e-001	1.000000e+000
9.562674146713682e-008	3.054932e-001	1.000000e+000
9.591971021713681e-008	3.322613e-001	1.000000e+000
9.621267896713681e-008	3.602286e-001	1.000000e+000
9.650564771713680e-008	3.893088e-001	1.000000e+000
9.679861646713679e-008	4.193973e-001	1.000000e+000
9.709158521713679e-008	4.503717e-001	1.000000e+000
9.738455396713678e-008	4.820918e-001	1.000000e+000
9.767752271713678e-008	5.144010e-001	1.000000e+000
9.797049146713677e-008	5.471271e-001	1.000000e+000
9.826346021713676e-008	5.800845e-001	1.000000e+000
9.855642896713676e-008	6.130762e-001	1.000000e+000
9.884939771713675e-008	6.458961e-001	1.000000e+000
9.914236646713674e-008	6.783322e-001	1.000000e+000
9.943533521713674e-008	7.101700e-001	1.000000e+000
9.972830396713673e-008	7.411956e-001	1.000000e+000
1.000212727171367e-007	7.711995e-001	1.000000e+000
1.003142414671367e-007	7.999807e-001	1.000000e+000
1.006072102171367e-007	8.273504e-001	1.000000e+000
1.009001789671367e-007	8.531356e-001	1.000000e+000
1.011931477171367e-007	8.771833e-001	1.000000e+000
1.014861164671367e-007	8.993628e-001	1.000000e+000
