time	V(out)	V(n001)
0.000000000000000e+000	0.000000e+000	0.000000e+000
1.953124992195698e-015	0.000000e+000	2.604167e-007
3.906249984391395e-015	0.000000e+000	5.208333e-007
4.574776767434381e-012	-1.907482e-043	6.099702e-004
9.145647284884371e-012	-1.696429e-043	1.219420e-003
1.371651780233436e-011	6.331581e-044	1.828869e-003
1.828738831978435e-011	5.081280e-043	2.438318e-003
2.285825883723434e-011	1.164794e-042	3.047768e-003
2.742912935468433e-011	2.033313e-042	3.657217e-003
3.199999987213431e-011	3.113685e-042	4.266667e-003
6.399999974426862e-011	1.945687e-038	8.533333e-003
1.101865910514692e-010	4.371886e-037	1.469155e-002
1.518283170774923e-010	3.665685e-036	2.024378e-002
1.886125910536936e-010	2.201850e-035	2.514835e-002
2.234275502837838e-010	1.748972e-034	2.979034e-002
2.660292732369286e-010	1.465931e-033	3.547057e-002
3.074334186163046e-010	1.727631e-032	4.099112e-002
3.608476060732223e-010	2.397784e-031	4.811301e-002
4.179952393686653e-010	4.574728e-030	5.573270e-002
4.891580293033175e-010	8.664785e-029	6.522107e-002
5.680736373325263e-010	2.017194e-027	7.574315e-002
6.641208263950112e-010	1.793007e-026	8.854944e-002
7.426813351474913e-010	1.061125e-025	9.902418e-002
8.285345141860017e-010	6.035325e-025	1.104713e-001
9.107915190103786e-010	3.416071e-024	1.214389e-001
1.007870678158534e-009	2.156589e-023	1.343828e-001
1.108680830507005e-009	1.405953e-022	1.478241e-001
1.225505037921539e-009	9.833095e-022	1.634007e-001
1.350328407991337e-009	4.872491e-021	1.800438e-001
1.455594320720257e-009	1.979471e-020	1.940793e-001
1.578830595461709e-009	8.481937e-020	2.105107e-001
1.692877567002574e-009	3.303219e-019	2.257170e-001
1.827909090260396e-009	1.427889e-018	2.437212e-001
1.962660486380070e-009	5.936691e-018	2.616881e-001
2.117588383411623e-009	2.430047e-017	2.823451e-001
2.259488223096706e-009	8.410730e-017	3.012651e-001
2.414527115696590e-009	2.858307e-016	3.219369e-001
2.556220879464593e-009	8.721320e-016	3.408295e-001
2.719667914822786e-009	2.898749e-015	3.626224e-001
2.881791130099251e-009	9.197294e-015	3.842388e-001
3.064717173703078e-009	2.898787e-014	4.086290e-001
3.225341511015314e-009	7.647958e-014	4.300455e-001
3.397431224812672e-009	2.078308e-013	4.529908e-001
3.569419973003303e-009	5.467620e-013	4.759227e-001
3.756799183727982e-009	1.489977e-012	5.009066e-001
3.950026686943050e-009	3.924453e-012	5.266702e-001
4.145339186943050e-009	9.892158e-012	5.527119e-001
4.340651686943050e-009	2.374850e-011	5.787535e-001
4.533678824743418e-009	5.443535e-011	6.044905e-001
4.728991324743418e-009	1.215498e-010	6.305322e-001
4.924303824743417e-009	2.620280e-010	6.565738e-001
5.119616324743417e-009	5.474338e-010	6.826155e-001
5.314928824743417e-009	1.110931e-009	7.086572e-001
5.510241324743417e-009	2.194214e-009	7.346988e-001
5.705553824743416e-009	4.225466e-009	7.607405e-001
5.900866324743416e-009	7.946205e-009	7.867822e-001
6.096178824743416e-009	1.461334e-008	8.128238e-001
6.291491324743416e-009	2.631476e-008	8.388655e-001
6.486803824743416e-009	4.645283e-008	8.649072e-001
6.682116324743415e-009	8.047207e-008	8.909488e-001
6.877428824743415e-009	1.369355e-007	9.169905e-001
7.072741324743415e-009	2.290905e-007	9.430322e-001
7.268053824743415e-009	3.596409e-007	9.690738e-001
7.304687499999999e-009	3.919866e-007	9.739583e-001
7.377954850513167e-009	4.740405e-007	9.837273e-001
7.499999999999999e-009	6.300659e-007	1.000000e+000
7.512204514948683e-009	6.492490e-007	1.000000e+000
7.536613544846049e-009	6.892801e-007	1.000000e+000
7.585431604640783e-009	7.782349e-007	1.000000e+000
7.683067724230249e-009	1.000763e-006	1.000000e+000
7.878339963409181e-009	1.609971e-006	1.000000e+000
8.073652463409181e-009	2.499340e-006	1.000000e+000
8.268964963409181e-009	3.829860e-006	1.000000e+000
8.464277463409181e-009	5.795855e-006	1.000000e+000
8.659589963409180e-009	8.666371e-006	1.000000e+000
8.854902463409180e-009	1.280962e-005	1.000000e+000
9.050214963409180e-009	1.872386e-005	1.000000e+000
9.245527463409180e-009	2.707602e-005	1.000000e+000
9.440839963409180e-009	3.874926e-005	1.000000e+000
9.636152463409179e-009	5.490104e-005	1.000000e+000
9.831464963409179e-009	7.703296e-005	1.000000e+000
1.002677746340918e-008	1.070738e-004	1.000000e+000
1.022208996340918e-008	1.474774e-004	1.000000e+000
1.041740246340918e-008	2.013355e-004	1.000000e+000
1.061271496340918e-008	2.725075e-004	1.000000e+000
1.080802746340918e-008	3.657672e-004	1.000000e+000
1.100333996340918e-008	4.869658e-004	1.000000e+000
1.119865246340918e-008	6.432107e-004	1.000000e+000
1.139396496340918e-008	8.430596e-004	1.000000e+000
1.158927746340918e-008	1.096726e-003	1.000000e+000
1.178458996340918e-008	1.416292e-003	1.000000e+000
1.197990246340918e-008	1.815929e-003	1.000000e+000
1.217521496340918e-008	2.312114e-003	1.000000e+000
1.237052746340918e-008	2.923835e-003	1.000000e+000
1.256583996340918e-008	3.672790e-003	1.000000e+000
1.276115246340918e-008	4.583550e-003	1.000000e+000
1.295646496340918e-008	5.683699e-003	1.000000e+000
1.315177746340918e-008	7.003921e-003	1.000000e+000
1.334708996340918e-008	8.578035e-003	1.000000e+000
1.354240246340918e-008	1.044297e-002	1.000000e+000
1.373771496340918e-008	1.263868e-002	1.000000e+000
1.393302746340918e-008	1.520791e-002	1.000000e+000
1.412833996340917e-008	1.819597e-002	1.000000e+000
1.432365246340917e-008	2.165036e-002	1.000000e+000
1.451896496340917e-008	2.562027e-002	1.000000e+000
1.471427746340917e-008	3.015605e-002	1.000000e+000
1.490958996340917e-008	3.530849e-002	1.000000e+000
1.510490246340918e-008	4.112816e-002	1.000000e+000
1.530021496340918e-008	4.766449e-002	1.000000e+000
1.549552746340918e-008	5.496492e-002	1.000000e+000
1.569083996340918e-008	6.307397e-002	1.000000e+000
1.588615246340918e-008	7.203224e-002	1.000000e+000
1.608146496340918e-008	8.187549e-002	1.000000e+000
1.627677746340918e-008	9.263363e-002	1.000000e+000
1.647208996340919e-008	1.043299e-001	1.000000e+000
1.666740246340919e-008	1.169801e-001	1.000000e+000
1.686271496340919e-008	1.305918e-001	1.000000e+000
1.705802746340919e-008	1.451638e-001	1.000000e+000
1.725333996340919e-008	1.606859e-001	1.000000e+000
1.744865246340919e-008	1.771383e-001	1.000000e+000
1.764396496340919e-008	1.944921e-001	1.000000e+000
1.783927746340920e-008	2.127092e-001	1.000000e+000
1.803458996340920e-008	2.317425e-001	1.000000e+000
1.822990246340920e-008	2.515370e-001	1.000000e+000
1.842521496340920e-008	2.720302e-001	1.000000e+000
1.862052746340920e-008	2.931531e-001	1.000000e+000
1.881583996340920e-008	3.148315e-001	1.000000e+000
1.901115246340920e-008	3.369869e-001	1.000000e+000
1.920646496340921e-008	3.595382e-001	1.000000e+000
1.940177746340921e-008	3.824027e-001	1.000000e+000
1.959708996340921e-008	4.054974e-001	1.000000e+000
1.979240246340921e-008	4.287404e-001	1.000000e+000
1.998771496340921e-008	4.520521e-001	1.000000e+000
2.018302746340921e-008	4.753559e-001	1.000000e+000
2.037833996340921e-008	4.985794e-001	1.000000e+000
2.057365246340922e-008	5.216549e-001	1.000000e+000
2.076896496340922e-008	5.445199e-001	1.000000e+000
2.096427746340922e-008	5.671171e-001	1.000000e+000
2.115958996340922e-008	5.893947e-001	1.000000e+000
2.135490246340922e-008	6.113061e-001	1.000000e+000
2.155021496340922e-008	6.328093e-001	1.000000e+000
2.174552746340922e-008	6.538666e-001	1.000000e+000
2.194083996340923e-008	6.744440e-001	1.000000e+000
2.213615246340923e-008	6.945103e-001	1.000000e+000
2.233146496340923e-008	7.140364e-001	1.000000e+000
2.252677746340923e-008	7.329948e-001	1.000000e+000
2.272208996340923e-008	7.513587e-001	1.000000e+000
2.291740246340923e-008	7.691017e-001	1.000000e+000
2.311271496340923e-008	7.861977e-001	1.000000e+000
2.330802746340924e-008	8.026201e-001	1.000000e+000
2.350333996340924e-008	8.183427e-001	1.000000e+000
2.369865246340924e-008	8.333396e-001	1.000000e+000
2.389396496340924e-008	8.475858e-001	1.000000e+000
2.408927746340924e-008	8.610579e-001	1.000000e+000
2.428458996340924e-008	8.737351e-001	1.000000e+000
2.447990246340924e-008	8.856000e-001	1.000000e+000
2.467521496340925e-008	8.966402e-001	1.000000e+000
2.487052746340925e-008	9.068485e-001	1.000000e+000
2.506583996340925e-008	9.162247e-001	1.000000e+000
2.526115246340925e-008	9.247761e-001	1.000000e+000
2.545646496340925e-008	9.325182e-001	1.000000e+000
2.565177746340925e-008	9.394753e-001	1.000000e+000
2.584708996340925e-008	9.456806e-001	1.000000e+000
2.604240246340926e-008	9.511760e-001	1.000000e+000
2.623771496340926e-008	9.560114e-001	1.000000e+000
2.643302746340926e-008	9.602441e-001	1.000000e+000
2.662833996340926e-008	9.639378e-001	1.000000e+000
2.682365246340926e-008	9.671606e-001	1.000000e+000
2.701896496340926e-008	9.699838e-001	1.000000e+000
2.721427746340926e-008	9.724796e-001	1.000000e+000
2.740958996340927e-008	9.747195e-001	1.000000e+000
2.760490246340927e-008	9.767719e-001	1.000000e+000
2.780021496340927e-008	9.787005e-001	1.000000e+000
2.799552746340927e-008	9.805624e-001	1.000000e+000
2.819083996340927e-008	9.824066e-001	1.000000e+000
2.838615246340927e-008	9.842724e-001	1.000000e+000
2.858146496340927e-008	9.861889e-001	1.000000e+000
2.877677746340928e-008	9.881749e-001	1.000000e+000
2.897208996340928e-008	9.902380e-001	1.000000e+000
2.916740246340928e-008	9.923757e-001	1.000000e+000
2.936271496340928e-008	9.945759e-001	1.000000e+000
2.955802746340928e-008	9.968184e-001	1.000000e+000
2.975333996340928e-008	9.990764e-001	1.000000e+000
2.994865246340928e-008	1.001318e+000	1.000000e+000
3.014396496340928e-008	1.003508e+000	1.000000e+000
3.033927746340928e-008	1.005612e+000	1.000000e+000
3.053458996340928e-008	1.007596e+000	1.000000e+000
3.072990246340928e-008	1.009427e+000	1.000000e+000
3.092521496340928e-008	1.011080e+000	1.000000e+000
3.112052746340927e-008	1.012534e+000	1.000000e+000
3.131583996340927e-008	1.013777e+000	1.000000e+000
3.151115246340927e-008	1.014803e+000	1.000000e+000
3.170646496340927e-008	1.015616e+000	1.000000e+000
3.190177746340927e-008	1.016226e+000	1.000000e+000
3.209708996340926e-008	1.016651e+000	1.000000e+000
3.229240246340926e-008	1.016917e+000	1.000000e+000
3.248771496340926e-008	1.017051e+000	1.000000e+000
3.268302746340926e-008	1.017087e+000	1.000000e+000
3.287833996340926e-008	1.017060e+000	1.000000e+000
3.307365246340925e-008	1.017003e+000	1.000000e+000
3.326896496340925e-008	1.016950e+000	1.000000e+000
3.346427746340925e-008	1.016929e+000	1.000000e+000
3.365958996340925e-008	1.016965e+000	1.000000e+000
3.385490246340925e-008	1.017078e+000	1.000000e+000
3.405021496340925e-008	1.017280e+000	1.000000e+000
3.424552746340924e-008	1.017575e+000	1.000000e+000
3.444083996340924e-008	1.017965e+000	1.000000e+000
3.463615246340924e-008	1.018439e+000	1.000000e+000
3.483146496340924e-008	1.018987e+000	1.000000e+000
3.502677746340924e-008	1.019588e+000	1.000000e+000
3.522208996340923e-008	1.020223e+000	1.000000e+000
3.541740246340923e-008	1.020869e+000	1.000000e+000
3.561271496340923e-008	1.021500e+000	1.000000e+000
3.580802746340923e-008	1.022095e+000	1.000000e+000
3.600333996340923e-008	1.022633e+000	1.000000e+000
3.619865246340922e-008	1.023098e+000	1.000000e+000
3.639396496340922e-008	1.023477e+000	1.000000e+000
3.658927746340922e-008	1.023763e+000	1.000000e+000
3.678458996340922e-008	1.023955e+000	1.000000e+000
3.697990246340922e-008	1.024058e+000	1.000000e+000
3.717521496340922e-008	1.024080e+000	1.000000e+000
3.737052746340921e-008	1.024037e+000	1.000000e+000
3.756583996340921e-008	1.023947e+000	1.000000e+000
3.776115246340921e-008	1.023832e+000	1.000000e+000
3.795646496340921e-008	1.023713e+000	1.000000e+000
3.815177746340921e-008	1.023616e+000	1.000000e+000
3.834708996340920e-008	1.023562e+000	1.000000e+000
3.854240246340920e-008	1.023574e+000	1.000000e+000
3.873771496340920e-008	1.023669e+000	1.000000e+000
3.893302746340920e-008	1.023864e+000	1.000000e+000
3.912833996340920e-008	1.024169e+000	1.000000e+000
3.932365246340919e-008	1.024591e+000	1.000000e+000
3.951896496340919e-008	1.025135e+000	1.000000e+000
3.971427746340919e-008	1.025799e+000	1.000000e+000
3.990958996340919e-008	1.026580e+000	1.000000e+000
4.010490246340919e-008	1.027473e+000	1.000000e+000
4.030021496340919e-008	1.028472e+000	1.000000e+000
4.049552746340918e-008	1.029568e+000	1.000000e+000
4.069083996340918e-008	1.030757e+000	1.000000e+000
4.088615246340918e-008	1.032033e+000	1.000000e+000
4.108146496340918e-008	1.033396e+000	1.000000e+000
4.127677746340918e-008	1.034847e+000	1.000000e+000
4.147208996340917e-008	1.036393e+000	1.000000e+000
4.166740246340917e-008	1.038044e+000	1.000000e+000
4.186271496340917e-008	1.039814e+000	1.000000e+000
4.205802746340917e-008	1.041721e+000	1.000000e+000
4.225333996340917e-008	1.043789e+000	1.000000e+000
4.244865246340917e-008	1.046041e+000	1.000000e+000
4.264396496340916e-008	1.048504e+000	1.000000e+000
4.283927746340916e-008	1.051207e+000	1.000000e+000
4.303458996340916e-008	1.054175e+000	1.000000e+000
4.322990246340916e-008	1.057437e+000	1.000000e+000
4.342521496340916e-008	1.061015e+000	1.000000e+000
4.362052746340915e-008	1.064929e+000	1.000000e+000
4.381583996340915e-008	1.069198e+000	1.000000e+000
4.401115246340915e-008	1.073832e+000	1.000000e+000
4.420646496340915e-008	1.078840e+000	1.000000e+000
4.440177746340915e-008	1.084222e+000	1.000000e+000
4.459708996340914e-008	1.089976e+000	1.000000e+000
4.479240246340914e-008	1.096093e+000	1.000000e+000
4.498771496340914e-008	1.102561e+000	1.000000e+000
4.518302746340914e-008	1.109363e+000	1.000000e+000
4.537833996340914e-008	1.116477e+000	1.000000e+000
4.557365246340914e-008	1.123881e+000	1.000000e+000
4.576896496340913e-008	1.131548e+000	1.000000e+000
4.596427746340913e-008	1.139451e+000	1.000000e+000
4.615958996340913e-008	1.147559e+000	1.000000e+000
4.635490246340913e-008	1.155842e+000	1.000000e+000
4.655021496340913e-008	1.164269e+000	1.000000e+000
4.674552746340912e-008	1.172806e+000	1.000000e+000
4.694083996340912e-008	1.181419e+000	1.000000e+000
4.713615246340912e-008	1.190075e+000	1.000000e+000
4.733146496340912e-008	1.198735e+000	1.000000e+000
4.752677746340912e-008	1.207361e+000	1.000000e+000
4.772208996340911e-008	1.215914e+000	1.000000e+000
4.791740246340911e-008	1.224351e+000	1.000000e+000
4.811271496340911e-008	1.232627e+000	1.000000e+000
4.830802746340911e-008	1.240693e+000	1.000000e+000
4.850333996340911e-008	1.248500e+000	1.000000e+000
4.869865246340911e-008	1.255996e+000	1.000000e+000
4.889396496340910e-008	1.263129e+000	1.000000e+000
4.908927746340910e-008	1.269842e+000	1.000000e+000
4.928458996340910e-008	1.276083e+000	1.000000e+000
4.947990246340910e-008	1.281796e+000	1.000000e+000
4.967521496340910e-008	1.286932e+000	1.000000e+000
4.987052746340909e-008	1.291441e+000	1.000000e+000
5.006583996340909e-008	1.295279e+000	1.000000e+000
5.026115246340909e-008	1.298407e+000	1.000000e+000
5.045646496340909e-008	1.300794e+000	1.000000e+000
5.065177746340909e-008	1.302413e+000	1.000000e+000
5.084708996340908e-008	1.303247e+000	1.000000e+000
5.104240246340908e-008	1.303289e+000	1.000000e+000
5.123771496340908e-008	1.302536e+000	1.000000e+000
5.143302746340908e-008	1.300999e+000	1.000000e+000
5.162833996340908e-008	1.298694e+000	1.000000e+000
5.182365246340908e-008	1.295647e+000	1.000000e+000
5.201896496340907e-008	1.291889e+000	1.000000e+000
5.221427746340907e-008	1.287459e+000	1.000000e+000
5.240958996340907e-008	1.282402e+000	1.000000e+000
5.260490246340907e-008	1.276767e+000	1.000000e+000
5.280021496340907e-008	1.270605e+000	1.000000e+000
5.299552746340906e-008	1.263970e+000	1.000000e+000
5.319083996340906e-008	1.256919e+000	1.000000e+000
5.338615246340906e-008	1.249506e+000	1.000000e+000
5.358146496340906e-008	1.241786e+000	1.000000e+000
5.377677746340906e-008	1.233812e+000	1.000000e+000
5.397208996340905e-008	1.225636e+000	1.000000e+000
5.416740246340905e-008	1.217304e+000	1.000000e+000
5.436271496340905e-008	1.208865e+000	1.000000e+000
5.455802746340905e-008	1.200360e+000	1.000000e+000
5.475333996340905e-008	1.191829e+000	1.000000e+000
5.494865246340905e-008	1.183310e+000	1.000000e+000
5.514396496340904e-008	1.174837e+000	1.000000e+000
5.533927746340904e-008	1.166443e+000	1.000000e+000
5.553458996340904e-008	1.158156e+000	1.000000e+000
5.572990246340904e-008	1.150006e+000	1.000000e+000
5.592521496340904e-008	1.142017e+000	1.000000e+000
5.612052746340903e-008	1.134214e+000	1.000000e+000
5.631583996340903e-008	1.126620e+000	1.000000e+000
5.651115246340903e-008	1.119254e+000	1.000000e+000
5.670646496340903e-008	1.112137e+000	1.000000e+000
5.690177746340903e-008	1.105285e+000	1.000000e+000
5.709708996340902e-008	1.098712e+000	1.000000e+000
5.729240246340902e-008	1.092434e+000	1.000000e+000
5.748771496340902e-008	1.086459e+000	1.000000e+000
5.768302746340902e-008	1.080797e+000	1.000000e+000
5.787833996340902e-008	1.075454e+000	1.000000e+000
5.807365246340902e-008	1.070432e+000	1.000000e+000
5.826896496340901e-008	1.065733e+000	1.000000e+000
5.846427746340901e-008	1.061354e+000	1.000000e+000
5.865958996340901e-008	1.057292e+000	1.000000e+000
5.885490246340901e-008	1.053539e+000	1.000000e+000
5.905021496340901e-008	1.050086e+000	1.000000e+000
5.924552746340900e-008	1.046921e+000	1.000000e+000
5.944083996340900e-008	1.044033e+000	1.000000e+000
5.963615246340900e-008	1.041405e+000	1.000000e+000
5.983146496340901e-008	1.039021e+000	1.000000e+000
6.002677746340901e-008	1.036865e+000	1.000000e+000
6.022208996340901e-008	1.034916e+000	1.000000e+000
6.041740246340902e-008	1.033156e+000	1.000000e+000
6.061271496340902e-008	1.031565e+000	1.000000e+000
6.080802746340903e-008	1.030121e+000	1.000000e+000
6.100333996340903e-008	1.028803e+000	1.000000e+000
6.119865246340904e-008	1.027591e+000	1.000000e+000
6.139396496340904e-008	1.026464e+000	1.000000e+000
6.158927746340905e-008	1.025399e+000	1.000000e+000
6.178458996340905e-008	1.024377e+000	1.000000e+000
6.197990246340906e-008	1.023377e+000	1.000000e+000
6.217521496340906e-008	1.022381e+000	1.000000e+000
6.237052746340907e-008	1.021372e+000	1.000000e+000
6.256583996340907e-008	1.020334e+000	1.000000e+000
6.276115246340908e-008	1.019255e+000	1.000000e+000
6.295646496340908e-008	1.018124e+000	1.000000e+000
6.315177746340909e-008	1.016932e+000	1.000000e+000
6.334708996340909e-008	1.015678e+000	1.000000e+000
6.354240246340910e-008	1.014361e+000	1.000000e+000
6.373771496340910e-008	1.012983e+000	1.000000e+000
6.393302746340910e-008	1.011554e+000	1.000000e+000
6.412833996340911e-008	1.010086e+000	1.000000e+000
6.432365246340911e-008	1.008592e+000	1.000000e+000
6.451896496340912e-008	1.007093e+000	1.000000e+000
6.471427746340912e-008	1.005609e+000	1.000000e+000
6.490958996340913e-008	1.004164e+000	1.000000e+000
6.510490246340913e-008	1.002784e+000	1.000000e+000
6.530021496340914e-008	1.001492e+000	1.000000e+000
6.549552746340914e-008	1.000314e+000	1.000000e+000
6.569083996340915e-008	9.992726e-001	1.000000e+000
6.588615246340915e-008	9.983876e-001	1.000000e+000
6.608146496340916e-008	9.976758e-001	1.000000e+000
6.627677746340916e-008	9.971496e-001	1.000000e+000
6.647208996340917e-008	9.968165e-001	1.000000e+000
6.666740246340917e-008	9.966784e-001	1.000000e+000
6.686271496340918e-008	9.967320e-001	1.000000e+000
6.705802746340918e-008	9.969682e-001	1.000000e+000
6.725333996340919e-008	9.973728e-001	1.000000e+000
6.744865246340919e-008	9.979272e-001	1.000000e+000
6.764396496340920e-008	9.986087e-001	1.000000e+000
6.783927746340920e-008	9.993919e-001	1.000000e+000
6.803458996340920e-008	1.000250e+000	1.000000e+000
6.822990246340921e-008	1.001155e+000	1.000000e+000
6.842521496340921e-008	1.002080e+000	1.000000e+000
6.862052746340922e-008	1.003001e+000	1.000000e+000
6.881583996340922e-008	1.003897e+000	1.000000e+000
6.901115246340923e-008	1.004751e+000	1.000000e+000
6.920646496340923e-008	1.005551e+000	1.000000e+000
6.940177746340924e-008	1.006292e+000	1.000000e+000
6.959708996340924e-008	1.006974e+000	1.000000e+000
6.979240246340925e-008	1.007605e+000	1.000000e+000
6.998771496340925e-008	1.008199e+000	1.000000e+000
7.018302746340926e-008	1.008773e+000	1.000000e+000
7.037833996340926e-008	1.009353e+000	1.000000e+000
