time	V(out)	V(n001)
0.000000000000000e+000	0.000000e+000	0.000000e+000
4.571428553162046e-012	-2.198895e-043	6.095238e-004
9.142857106324092e-012	-1.953238e-043	1.219048e-003
1.371428565948614e-011	7.369686e-044	1.828571e-003
1.828571421264818e-011	5.871727e-043	2.438095e-003
2.285714276581023e-011	1.345104e-042	3.047619e-003
2.742857131897227e-011	2.347490e-042	3.657143e-003
3.199999987213431e-011	3.594331e-042	4.266667e-003
6.399999974426862e-011	5.115274e-038	8.533333e-003
1.126180630591147e-010	1.180578e-036	1.501574e-002
1.563156071361499e-010	9.612530e-036	2.084208e-002
1.944193971206864e-010	5.542354e-035	2.592259e-002
2.302675272082132e-010	4.139073e-034	3.070234e-002
2.739930436806678e-010	3.390166e-033	3.653241e-002
3.169042261871733e-010	3.937619e-032	4.225390e-002
3.720550023815790e-010	5.490448e-031	4.960733e-002
4.313888103060386e-010	1.059807e-029	5.751851e-002
5.051622612326603e-010	2.054900e-028	6.735497e-002
5.873465133188153e-010	2.952260e-027	7.831287e-002
6.756522817979615e-010	2.152547e-026	9.008697e-002
7.507799868107626e-010	1.364737e-025	1.001040e-001
8.402892053394197e-010	8.305012e-025	1.120386e-001
9.218474503049796e-010	4.852445e-024	1.229130e-001
1.022579863204078e-009	3.197544e-023	1.363440e-001
1.123850994368774e-009	2.135914e-022	1.498468e-001
1.244502473814571e-009	1.538573e-021	1.659337e-001
1.370969257022267e-009	7.576649e-021	1.827959e-001
1.477938262516451e-009	3.104821e-020	1.970584e-001
1.603855051721273e-009	1.344141e-019	2.138473e-001
1.720109243455005e-009	5.279436e-019	2.293479e-001
1.858268696192464e-009	2.307843e-018	2.477692e-001
1.996014203906232e-009	9.699699e-018	2.661352e-001
2.154843968812338e-009	3.957455e-017	2.873125e-001
2.296994963001509e-009	1.345728e-016	3.062660e-001
2.454926570297990e-009	4.597587e-016	3.273236e-001
2.599389393032043e-009	1.409687e-015	3.465852e-001
2.766817903403521e-009	4.725665e-015	3.689091e-001
2.932768466239134e-009	1.510985e-014	3.910358e-001
3.120581438304002e-009	4.805725e-014	4.160775e-001
3.285524743764997e-009	1.273894e-013	4.380700e-001
3.461189366407550e-009	3.467748e-013	4.614919e-001
3.638143589926255e-009	9.194916e-013	4.850858e-001
3.830197672986230e-009	2.501057e-012	5.106930e-001
4.025510172986230e-009	6.479719e-012	5.367347e-001
4.220822672986230e-009	1.594715e-011	5.627763e-001
4.414584296252019e-009	3.746484e-011	5.886112e-001
4.609896796252019e-009	8.530863e-011	6.146529e-001
4.805209296252019e-009	1.873109e-010	6.406946e-001
5.000521796252018e-009	3.980402e-010	6.667362e-001
5.195834296252018e-009	8.206069e-010	6.927779e-001
5.391146796252018e-009	1.644791e-009	7.188196e-001
5.586459296252018e-009	3.211220e-009	7.448612e-001
5.781771796252018e-009	6.117031e-009	7.709029e-001
5.977084296252017e-009	1.138608e-008	7.969446e-001
6.172396796252017e-009	2.073753e-008	8.229862e-001
6.367709296252017e-009	3.700152e-008	8.490279e-001
6.563021796252017e-009	6.475054e-008	8.750696e-001
6.758334296252016e-009	1.112416e-007	9.011112e-001
6.953646796252016e-009	1.877984e-007	9.271529e-001
7.148959296252016e-009	3.075006e-007	9.531946e-001
7.304687500000000e-009	4.564962e-007	9.739583e-001
7.499999999999999e-009	7.063971e-007	1.000000e+000
7.558593749999999e-009	8.166849e-007	1.000000e+000
7.636718749999998e-009	9.953721e-007	1.000000e+000
7.792968749999998e-009	1.467156e-006	1.000000e+000
7.988281249999998e-009	2.306187e-006	1.000000e+000
8.183593749999998e-009	3.548819e-006	1.000000e+000
8.378906249999998e-009	5.392214e-006	1.000000e+000
8.574218749999997e-009	8.093886e-006	1.000000e+000
8.769531249999997e-009	1.200749e-005	1.000000e+000
8.964843749999997e-009	1.761317e-005	1.000000e+000
9.160156249999997e-009	2.555566e-005	1.000000e+000
9.355468749999997e-009	3.669130e-005	1.000000e+000
9.550781249999996e-009	5.214564e-005	1.000000e+000
9.746093749999996e-009	7.338297e-005	1.000000e+000
9.941406249999996e-009	1.022892e-004	1.000000e+000
1.013671875000000e-008	1.412694e-004	1.000000e+000
1.033203125000000e-008	1.933617e-004	1.000000e+000
1.052734375000000e-008	2.623674e-004	1.000000e+000
1.072265625000000e-008	3.529985e-004	1.000000e+000
1.091796875000000e-008	4.710432e-004	1.000000e+000
1.111328125000000e-008	6.235469e-004	1.000000e+000
1.130859374999999e-008	8.190094e-004	1.000000e+000
1.150390624999999e-008	1.067594e-003	1.000000e+000
1.169921874999999e-008	1.381346e-003	1.000000e+000
1.189453124999999e-008	1.774417e-003	1.000000e+000
1.208984374999999e-008	2.263289e-003	1.000000e+000
1.228515624999999e-008	2.866988e-003	1.000000e+000
1.248046874999999e-008	3.607287e-003	1.000000e+000
1.267578124999999e-008	4.508880e-003	1.000000e+000
1.287109374999999e-008	5.599526e-003	1.000000e+000
1.306640624999999e-008	6.910147e-003	1.000000e+000
1.326171874999999e-008	8.474872e-003	1.000000e+000
1.345703124999999e-008	1.033102e-002	1.000000e+000
1.365234374999999e-008	1.251898e-002	1.000000e+000
1.384765624999999e-008	1.508208e-002	1.000000e+000
1.404296874999999e-008	1.806624e-002	1.000000e+000
1.423828124999999e-008	2.151969e-002	1.000000e+000
1.443359374999999e-008	2.549239e-002	1.000000e+000
1.462890624999999e-008	3.003556e-002	1.000000e+000
1.482421874999999e-008	3.520094e-002	1.000000e+000
1.501953124999999e-008	4.104005e-002	1.000000e+000
1.521484374999999e-008	4.760332e-002	1.000000e+000
1.541015625000000e-008	5.493923e-002	1.000000e+000
1.560546875000000e-008	6.309327e-002	1.000000e+000
1.580078125000000e-008	7.210703e-002	1.000000e+000
1.599609375000000e-008	8.201717e-002	1.000000e+000
1.619140625000000e-008	9.285443e-002	1.000000e+000
1.638671875000000e-008	1.046428e-001	1.000000e+000
1.658203125000000e-008	1.173986e-001	1.000000e+000
1.677734375000001e-008	1.311299e-001	1.000000e+000
1.697265625000001e-008	1.458357e-001	1.000000e+000
1.716796875000001e-008	1.615058e-001	1.000000e+000
1.736328125000001e-008	1.781206e-001	1.000000e+000
1.755859375000001e-008	1.956508e-001	1.000000e+000
1.775390625000001e-008	2.140577e-001	1.000000e+000
1.794921875000001e-008	2.332938e-001	1.000000e+000
1.814453125000002e-008	2.533032e-001	1.000000e+000
1.833984375000002e-008	2.740225e-001	1.000000e+000
1.853515625000002e-008	2.953820e-001	1.000000e+000
1.873046875000002e-008	3.173063e-001	1.000000e+000
1.892578125000002e-008	3.397161e-001	1.000000e+000
1.912109375000002e-008	3.625292e-001	1.000000e+000
1.931640625000002e-008	3.856619e-001	1.000000e+000
1.951171875000003e-008	4.090306e-001	1.000000e+000
1.970703125000003e-008	4.325526e-001	1.000000e+000
1.990234375000003e-008	4.561479e-001	1.000000e+000
2.009765625000003e-008	4.797396e-001	1.000000e+000
2.029296875000003e-008	5.032552e-001	1.000000e+000
2.048828125000003e-008	5.266269e-001	1.000000e+000
2.068359375000003e-008	5.497926e-001	1.000000e+000
2.087890625000004e-008	5.726953e-001	1.000000e+000
2.107421875000004e-008	5.952835e-001	1.000000e+000
2.126953125000004e-008	6.175113e-001	1.000000e+000
2.146484375000004e-008	6.393374e-001	1.000000e+000
2.166015625000004e-008	6.607245e-001	1.000000e+000
2.185546875000004e-008	6.816392e-001	1.000000e+000
2.205078125000004e-008	7.020506e-001	1.000000e+000
2.224609375000005e-008	7.219297e-001	1.000000e+000
2.244140625000005e-008	7.412491e-001	1.000000e+000
2.263671875000005e-008	7.599815e-001	1.000000e+000
2.283203125000005e-008	7.781002e-001	1.000000e+000
2.302734375000005e-008	7.955780e-001	1.000000e+000
2.322265625000005e-008	8.123873e-001	1.000000e+000
2.341796875000005e-008	8.285006e-001	1.000000e+000
2.361328125000006e-008	8.438904e-001	1.000000e+000
2.380859375000006e-008	8.585298e-001	1.000000e+000
2.400390625000006e-008	8.723936e-001	1.000000e+000
2.419921875000006e-008	8.854591e-001	1.000000e+000
2.439453125000006e-008	8.977072e-001	1.000000e+000
2.458984375000006e-008	9.091235e-001	1.000000e+000
2.478515625000006e-008	9.196993e-001	1.000000e+000
2.498046875000007e-008	9.294332e-001	1.000000e+000
2.517578125000007e-008	9.383315e-001	1.000000e+000
2.537109375000007e-008	9.464090e-001	1.000000e+000
2.556640625000007e-008	9.536898e-001	1.000000e+000
2.576171875000007e-008	9.602071e-001	1.000000e+000
2.595703125000007e-008	9.660035e-001	1.000000e+000
2.615234375000007e-008	9.711298e-001	1.000000e+000
2.634765625000008e-008	9.756447e-001	1.000000e+000
2.654296875000008e-008	9.796131e-001	1.000000e+000
2.673828125000008e-008	9.831048e-001	1.000000e+000
2.693359375000008e-008	9.861928e-001	1.000000e+000
2.712890625000008e-008	9.889511e-001	1.000000e+000
2.732421875000008e-008	9.914528e-001	1.000000e+000
2.751953125000008e-008	9.937676e-001	1.000000e+000
2.771484375000009e-008	9.959604e-001	1.000000e+000
2.791015625000009e-008	9.980888e-001	1.000000e+000
2.810546875000009e-008	1.000202e+000	1.000000e+000
2.830078125000009e-008	1.002340e+000	1.000000e+000
2.849609375000009e-008	1.004530e+000	1.000000e+000
2.869140625000009e-008	1.006791e+000	1.000000e+000
2.888671875000009e-008	1.009128e+000	1.000000e+000
2.908203125000010e-008	1.011538e+000	1.000000e+000
2.927734375000010e-008	1.014006e+000	1.000000e+000
2.947265625000010e-008	1.016510e+000	1.000000e+000
2.966796875000010e-008	1.019021e+000	1.000000e+000
2.986328125000010e-008	1.021504e+000	1.000000e+000
3.005859375000010e-008	1.023924e+000	1.000000e+000
3.025390625000010e-008	1.026243e+000	1.000000e+000
3.044921875000010e-008	1.028425e+000	1.000000e+000
3.064453125000009e-008	1.030439e+000	1.000000e+000
3.083984375000009e-008	1.032258e+000	1.000000e+000
3.103515625000009e-008	1.033861e+000	1.000000e+000
3.123046875000009e-008	1.035237e+000	1.000000e+000
3.142578125000009e-008	1.036382e+000	1.000000e+000
3.162109375000008e-008	1.037300e+000	1.000000e+000
3.181640625000008e-008	1.038005e+000	1.000000e+000
3.201171875000008e-008	1.038516e+000	1.000000e+000
3.220703125000008e-008	1.038861e+000	1.000000e+000
3.240234375000008e-008	1.039072e+000	1.000000e+000
3.259765625000008e-008	1.039182e+000	1.000000e+000
3.279296875000007e-008	1.039230e+000	1.000000e+000
3.298828125000007e-008	1.039251e+000	1.000000e+000
3.318359375000007e-008	1.039280e+000	1.000000e+000
3.337890625000007e-008	1.039346e+000	1.000000e+000
3.357421875000007e-008	1.039475e+000	1.000000e+000
3.376953125000006e-008	1.039686e+000	1.000000e+000
3.396484375000006e-008	1.039990e+000	1.000000e+000
3.416015625000006e-008	1.040393e+000	1.000000e+000
3.435546875000006e-008	1.040891e+000	1.000000e+000
3.455078125000006e-008	1.041475e+000	1.000000e+000
3.474609375000005e-008	1.042131e+000	1.000000e+000
3.494140625000005e-008	1.042837e+000	1.000000e+000
3.513671875000005e-008	1.043571e+000	1.000000e+000
3.533203125000005e-008	1.044307e+000	1.000000e+000
3.552734375000005e-008	1.045021e+000	1.000000e+000
3.572265625000005e-008	1.045687e+000	1.000000e+000
3.591796875000004e-008	1.046285e+000	1.000000e+000
3.611328125000004e-008	1.046796e+000	1.000000e+000
3.630859375000004e-008	1.047209e+000	1.000000e+000
3.650390625000004e-008	1.047517e+000	1.000000e+000
3.669921875000004e-008	1.047718e+000	1.000000e+000
3.689453125000003e-008	1.047818e+000	1.000000e+000
3.708984375000003e-008	1.047827e+000	1.000000e+000
3.728515625000003e-008	1.047761e+000	1.000000e+000
3.748046875000003e-008	1.047639e+000	1.000000e+000
3.767578125000003e-008	1.047482e+000	1.000000e+000
3.787109375000003e-008	1.047315e+000	1.000000e+000
3.806640625000002e-008	1.047161e+000	1.000000e+000
3.826171875000002e-008	1.047043e+000	1.000000e+000
3.845703125000002e-008	1.046979e+000	1.000000e+000
3.865234375000002e-008	1.046988e+000	1.000000e+000
3.884765625000002e-008	1.047082e+000	1.000000e+000
3.904296875000001e-008	1.047269e+000	1.000000e+000
3.923828125000001e-008	1.047553e+000	1.000000e+000
3.943359375000001e-008	1.047932e+000	1.000000e+000
3.962890625000001e-008	1.048402e+000	1.000000e+000
3.982421875000001e-008	1.048954e+000	1.000000e+000
4.001953125000000e-008	1.049575e+000	1.000000e+000
4.021484375000000e-008	1.050255e+000	1.000000e+000
4.041015625000000e-008	1.050980e+000	1.000000e+000
4.060546875000000e-008	1.051737e+000	1.000000e+000
4.080078125000000e-008	1.052516e+000	1.000000e+000
4.099609375000000e-008	1.053309e+000	1.000000e+000
4.119140624999999e-008	1.054111e+000	1.000000e+000
4.138671874999999e-008	1.054924e+000	1.000000e+000
4.158203124999999e-008	1.055750e+000	1.000000e+000
4.177734374999999e-008	1.056598e+000	1.000000e+000
4.197265624999999e-008	1.057481e+000	1.000000e+000
4.216796874999998e-008	1.058413e+000	1.000000e+000
4.236328124999998e-008	1.059414e+000	1.000000e+000
4.255859374999998e-008	1.060503e+000	1.000000e+000
4.275390624999998e-008	1.061702e+000	1.000000e+000
4.294921874999998e-008	1.063032e+000	1.000000e+000
4.314453124999997e-008	1.064510e+000	1.000000e+000
4.333984374999997e-008	1.066154e+000	1.000000e+000
4.353515624999997e-008	1.067978e+000	1.000000e+000
4.373046874999997e-008	1.069991e+000	1.000000e+000
4.392578124999997e-008	1.072197e+000	1.000000e+000
4.412109374999997e-008	1.074597e+000	1.000000e+000
4.431640624999996e-008	1.077188e+000	1.000000e+000
4.451171874999996e-008	1.079959e+000	1.000000e+000
4.470703124999996e-008	1.082897e+000	1.000000e+000
4.490234374999996e-008	1.085986e+000	1.000000e+000
4.509765624999996e-008	1.089206e+000	1.000000e+000
4.529296874999995e-008	1.092535e+000	1.000000e+000
4.548828124999995e-008	1.095948e+000	1.000000e+000
4.568359374999995e-008	1.099423e+000	1.000000e+000
4.587890624999995e-008	1.102934e+000	1.000000e+000
4.607421874999995e-008	1.106457e+000	1.000000e+000
4.626953124999994e-008	1.109968e+000	1.000000e+000
4.646484374999994e-008	1.113444e+000	1.000000e+000
4.666015624999994e-008	1.116863e+000	1.000000e+000
4.685546874999994e-008	1.120204e+000	1.000000e+000
4.705078124999994e-008	1.123446e+000	1.000000e+000
4.724609374999994e-008	1.126567e+000	1.000000e+000
4.744140624999993e-008	1.129547e+000	1.000000e+000
4.763671874999993e-008	1.132363e+000	1.000000e+000
4.783203124999993e-008	1.134990e+000	1.000000e+000
4.802734374999993e-008	1.137405e+000	1.000000e+000
4.822265624999993e-008	1.139581e+000	1.000000e+000
4.841796874999992e-008	1.141487e+000	1.000000e+000
4.861328124999992e-008	1.143094e+000	1.000000e+000
4.880859374999992e-008	1.144369e+000	1.000000e+000
4.900390624999992e-008	1.145279e+000	1.000000e+000
4.919921874999992e-008	1.145791e+000	1.000000e+000
4.939453124999991e-008	1.145870e+000	1.000000e+000
4.958984374999991e-008	1.145487e+000	1.000000e+000
4.978515624999991e-008	1.144610e+000	1.000000e+000
4.998046874999991e-008	1.143214e+000	1.000000e+000
5.017578124999991e-008	1.141277e+000	1.000000e+000
5.037109374999991e-008	1.138781e+000	1.000000e+000
5.056640624999990e-008	1.135717e+000	1.000000e+000
5.076171874999990e-008	1.132079e+000	1.000000e+000
5.095703124999990e-008	1.127870e+000	1.000000e+000
5.115234374999990e-008	1.123099e+000	1.000000e+000
5.134765624999990e-008	1.117783e+000	1.000000e+000
5.154296874999989e-008	1.111943e+000	1.000000e+000
5.173828124999989e-008	1.105609e+000	1.000000e+000
5.193359374999989e-008	1.098814e+000	1.000000e+000
5.212890624999989e-008	1.091597e+000	1.000000e+000
5.232421874999989e-008	1.084001e+000	1.000000e+000
5.251953124999988e-008	1.076069e+000	1.000000e+000
5.271484374999988e-008	1.067847e+000	1.000000e+000
5.291015624999988e-008	1.059382e+000	1.000000e+000
5.310546874999988e-008	1.050720e+000	1.000000e+000
5.330078124999988e-008	1.041906e+000	1.000000e+000
5.349609374999988e-008	1.032981e+000	1.000000e+000
5.369140624999987e-008	1.023988e+000	1.000000e+000
5.388671874999987e-008	1.014962e+000	1.000000e+000
5.408203124999987e-008	1.005940e+000	1.000000e+000
5.427734374999987e-008	9.969525e-001	1.000000e+000
5.447265624999987e-008	9.880285e-001	1.000000e+000
5.466796874999986e-008	9.791942e-001	1.000000e+000
5.486328124999986e-008	9.704731e-001	1.000000e+000
5.505859374999986e-008	9.618870e-001	1.000000e+000
5.525390624999986e-008	9.534555e-001	1.000000e+000
5.544921874999986e-008	9.451969e-001	1.000000e+000
5.564453124999985e-008	9.371280e-001	1.000000e+000
5.583984374999985e-008	9.292648e-001	1.000000e+000
5.603515624999985e-008	9.216219e-001	1.000000e+000
5.623046874999985e-008	9.142135e-001	1.000000e+000
5.642578124999985e-008	9.070524e-001	1.000000e+000
5.662109374999985e-008	9.001504e-001	1.000000e+000
5.681640624999984e-008	8.935183e-001	1.000000e+000
5.701171874999984e-008	8.871650e-001	1.000000e+000
5.720703124999984e-008	8.810982e-001	1.000000e+000
5.740234374999984e-008	8.753235e-001	1.000000e+000
5.759765624999984e-008	8.698445e-001	1.000000e+000
5.779296874999983e-008	8.646627e-001	1.000000e+000
5.798828124999983e-008	8.597773e-001	1.000000e+000
5.818359374999983e-008	8.551853e-001	1.000000e+000
5.837890624999983e-008	8.508816e-001	1.000000e+000
5.857421874999983e-008	8.468587e-001	1.000000e+000
5.876953124999982e-008	8.431076e-001	1.000000e+000
5.896484374999982e-008	8.396173e-001	1.000000e+000
5.916015624999982e-008	8.363755e-001	1.000000e+000
5.935546874999982e-008	8.333690e-001	1.000000e+000
5.955078124999982e-008	8.305832e-001	1.000000e+000
5.974609374999982e-008	8.280033e-001	1.000000e+000
5.994140624999983e-008	8.256141e-001	1.000000e+000
6.013671874999983e-008	8.234000e-001	1.000000e+000
6.033203124999984e-008	8.213454e-001	1.000000e+000
6.052734374999984e-008	8.194349e-001	1.000000e+000
6.072265624999985e-008	8.176531e-001	1.000000e+000
6.091796874999985e-008	8.159847e-001	1.000000e+000
6.111328124999986e-008	8.144149e-001	1.000000e+000
6.130859374999986e-008	8.129287e-001	1.000000e+000
6.150390624999986e-008	8.115116e-001	1.000000e+000
6.169921874999987e-008	8.101494e-001	1.000000e+000
6.189453124999987e-008	8.088284e-001	1.000000e+000
6.208984374999988e-008	8.075350e-001	1.000000e+000
6.228515624999988e-008	8.062569e-001	1.000000e+000
6.248046874999989e-008	8.049825e-001	1.000000e+000
6.267578124999989e-008	8.037016e-001	1.000000e+000
6.287109374999990e-008	8.024055e-001	1.000000e+000
6.306640624999990e-008	8.010874e-001	1.000000e+000
6.326171874999991e-008	7.997429e-001	1.000000e+000
6.345703124999991e-008	7.983702e-001	1.000000e+000
6.365234374999992e-008	7.969701e-001	1.000000e+000
6.384765624999992e-008	7.955465e-001	1.000000e+000
6.404296874999993e-008	7.941062e-001	1.000000e+000
6.423828124999993e-008	7.926590e-001	1.000000e+000
6.443359374999994e-008	7.912171e-001	1.000000e+000
6.462890624999994e-008	7.897954e-001	1.000000e+000
6.482421874999995e-008	7.884103e-001	1.000000e+000
6.501953124999995e-008	7.870796e-001	1.000000e+000
6.521484374999996e-008	7.858214e-001	1.000000e+000
6.541015624999996e-008	7.846538e-001	1.000000e+000
6.560546874999996e-008	7.835935e-001	1.000000e+000
6.580078124999997e-008	7.826554e-001	1.000000e+000
6.599609374999997e-008	7.818513e-001	1.000000e+000
6.619140624999998e-008	7.811902e-001	1.000000e+000
6.638671874999998e-008	7.806765e-001	1.000000e+000
6.658203124999999e-008	7.803106e-001	1.000000e+000
6.677734374999999e-008	7.800882e-001	1.000000e+000
6.697265625000000e-008	7.800005e-001	1.000000e+000
6.716796875000000e-008	7.800342e-001	1.000000e+000
6.736328125000001e-008	7.801722e-001	1.000000e+000
6.755859375000001e-008	7.803941e-001	1.000000e+000
6.775390625000002e-008	7.806771e-001	1.000000e+000
6.794921875000002e-008	7.809970e-001	1.000000e+000
6.814453125000003e-008	7.813290e-001	1.000000e+000
6.833984375000003e-008	7.816491e-001	1.000000e+000
6.853515625000004e-008	7.819349e-001	1.000000e+000
6.873046875000004e-008	7.821670e-001	1.000000e+000
6.892578125000005e-008	7.823294e-001	1.000000e+000
6.912109375000005e-008	7.824108e-001	1.000000e+000
6.931640625000005e-008	7.824045e-001	1.000000e+000
6.951171875000006e-008	7.823093e-001	1.000000e+000
6.970703125000006e-008	7.821292e-001	1.000000e+000
6.990234375000007e-008	7.818731e-001	1.000000e+000
7.009765625000007e-008	7.815549e-001	1.000000e+000
7.029296875000008e-008	7.811919e-001	1.000000e+000
7.048828125000008e-008	7.808052e-001	1.000000e+000
7.068359375000009e-008	7.804171e-001	1.000000e+000
7.087890625000009e-008	7.800515e-001	1.000000e+000
7.107421875000010e-008	7.797316e-001	1.000000e+000
7.126953125000010e-008	7.794796e-001	1.000000e+000
7.146484375000011e-008	7.793149e-001	1.000000e+000
