time	V(out)	V(n001)
0.000000000000000e+000	0.000000e+000	0.000000e+000
4.571428553162046e-012	-1.972113e-043	6.095238e-004
9.142857106324092e-012	-1.754769e-043	1.219048e-003
1.371428565948614e-011	6.520328e-044	1.828571e-003
1.828571421264818e-011	5.248292e-043	2.438095e-003
2.285714276581023e-011	1.203401e-042	3.047619e-003
2.742857131897227e-011	2.100918e-042	3.657143e-003
3.199999987213431e-011	3.217381e-042	4.266667e-003
6.399999974426862e-011	1.118880e-037	8.533333e-003
1.153343185179869e-010	2.629900e-036	1.537791e-002
1.612506694524411e-010	2.058881e-035	2.150009e-002
2.006837239772302e-010	1.127338e-034	2.675783e-002
2.375069857506282e-010	7.838120e-034	3.166760e-002
2.823840748644372e-010	6.187891e-033	3.765121e-002
3.266851406570442e-010	6.928462e-032	4.355802e-002
3.834553051490168e-010	9.493592e-031	5.112737e-002
4.446846081559526e-010	1.803695e-029	5.929128e-002
5.206741853729132e-010	3.483624e-028	6.942322e-002
6.054671279663466e-010	4.462964e-027	8.072895e-002
6.933282875991814e-010	3.024367e-026	9.244377e-002
7.684606262558237e-010	1.861483e-025	1.024614e-001
8.591320511108026e-010	1.135921e-024	1.145509e-001
9.425099811753076e-010	6.692443e-024	1.256680e-001
1.045362002602565e-009	4.434165e-023	1.393816e-001
1.149021922977428e-009	2.979711e-022	1.532029e-001
1.272372054508933e-009	2.155700e-021	1.696496e-001
1.401872383780351e-009	1.076376e-020	1.869163e-001
1.512724681707335e-009	4.303044e-020	2.016966e-001
1.636323703118700e-009	1.798732e-019	2.181765e-001
1.757741682386310e-009	7.193846e-019	2.343656e-001
1.896096925800084e-009	3.097085e-018	2.528129e-001
2.038966725367506e-009	1.320024e-017	2.718622e-001
2.199458377783415e-009	5.137323e-017	2.932611e-001
2.336960820405522e-009	1.656871e-016	3.115948e-001
2.496986053158722e-009	5.679568e-016	3.329315e-001
2.642668130638801e-009	1.735187e-015	3.523557e-001
2.813834146088955e-009	5.856191e-015	3.751779e-001
2.982217269116156e-009	1.871727e-014	3.976290e-001
3.174204653515593e-009	6.266422e-014	4.232273e-001
3.361011323549080e-009	1.794027e-013	4.481348e-001
3.532442552672965e-009	4.689412e-013	4.709923e-001
3.722633843759024e-009	1.293380e-012	4.963512e-001
3.913205532523155e-009	3.367167e-012	5.217608e-001
4.108518032523154e-009	8.529255e-012	5.478024e-001
4.303830532523154e-009	2.050598e-011	5.738441e-001
4.495697424046805e-009	4.692046e-011	5.994263e-001
4.691009924046805e-009	1.051429e-010	6.254680e-001
4.886322424046805e-009	2.272739e-010	6.515096e-001
5.081634924046805e-009	4.760229e-010	6.775513e-001
5.276947424046804e-009	9.682722e-010	7.035930e-001
5.472259924046804e-009	1.916575e-009	7.296346e-001
5.667572424046804e-009	3.698140e-009	7.556763e-001
5.862884924046804e-009	6.967205e-009	7.817180e-001
6.058197424046803e-009	1.283424e-008	8.077596e-001
6.253509924046803e-009	2.314600e-008	8.338013e-001
6.448822424046803e-009	4.091499e-008	8.598430e-001
6.644134924046803e-009	7.096587e-008	8.858846e-001
6.839447424046803e-009	1.208920e-007	9.119263e-001
7.034759924046802e-009	2.024471e-007	9.379680e-001
7.230072424046802e-009	3.212266e-007	9.640096e-001
7.304687500000000e-009	3.812434e-007	9.739583e-001
7.350769848093605e-009	4.265476e-007	9.801027e-001
7.407835303812789e-009	4.921736e-007	9.877114e-001
7.509216469618721e-009	6.242880e-007	1.000000e+000
7.564515287331047e-009	7.147124e-007	1.000000e+000
7.638247044280814e-009	8.605275e-007	1.000000e+000
7.785710558180350e-009	1.242089e-006	1.000000e+000
7.981023058180350e-009	1.956183e-006	1.000000e+000
8.176335558180350e-009	3.010112e-006	1.000000e+000
8.371648058180350e-009	4.573206e-006	1.000000e+000
8.566960558180349e-009	6.863388e-006	1.000000e+000
8.762273058180349e-009	1.017972e-005	1.000000e+000
8.957585558180349e-009	1.492795e-005	1.000000e+000
9.152898058180349e-009	2.165240e-005	1.000000e+000
9.348210558180349e-009	3.107541e-005	1.000000e+000
9.543523058180348e-009	4.414549e-005	1.000000e+000
9.738835558180348e-009	6.209528e-005	1.000000e+000
9.934148058180348e-009	8.651055e-005	1.000000e+000
1.012946055818035e-008	1.194113e-004	1.000000e+000
1.032477305818035e-008	1.633459e-004	1.000000e+000
1.052008555818035e-008	2.214984e-004	1.000000e+000
1.071539805818035e-008	2.978102e-004	1.000000e+000
1.091071055818035e-008	3.971155e-004	1.000000e+000
1.110602305818035e-008	5.252887e-004	1.000000e+000
1.130133555818035e-008	6.894047e-004	1.000000e+000
1.149664805818035e-008	8.979074e-004	1.000000e+000
1.169196055818035e-008	1.160785e-003	1.000000e+000
1.188727305818035e-008	1.489748e-003	1.000000e+000
1.208258555818035e-008	1.898403e-003	1.000000e+000
1.227789805818035e-008	2.402421e-003	1.000000e+000
1.247321055818035e-008	3.019688e-003	1.000000e+000
1.266852305818035e-008	3.770433e-003	1.000000e+000
1.286383555818035e-008	4.677329e-003	1.000000e+000
1.305914805818034e-008	5.765548e-003	1.000000e+000
1.325446055818034e-008	7.062776e-003	1.000000e+000
1.344977305818034e-008	8.599162e-003	1.000000e+000
1.364508555818034e-008	1.040721e-002	1.000000e+000
1.384039805818034e-008	1.252161e-002	1.000000e+000
1.403571055818034e-008	1.497893e-002	1.000000e+000
1.423102305818034e-008	1.781735e-002	1.000000e+000
1.442633555818034e-008	2.107616e-002	1.000000e+000
1.462164805818034e-008	2.479532e-002	1.000000e+000
1.481696055818034e-008	2.901481e-002	1.000000e+000
1.501227305818034e-008	3.377403e-002	1.000000e+000
1.520758555818035e-008	3.911103e-002	1.000000e+000
1.540289805818035e-008	4.506178e-002	1.000000e+000
1.559821055818035e-008	5.165933e-002	1.000000e+000
1.579352305818035e-008	5.893306e-002	1.000000e+000
1.598883555818035e-008	6.690780e-002	1.000000e+000
1.618414805818035e-008	7.560312e-002	1.000000e+000
1.637946055818035e-008	8.503258e-002	1.000000e+000
1.657477305818036e-008	9.520313e-002	1.000000e+000
1.677008555818036e-008	1.061146e-001	1.000000e+000
1.696539805818036e-008	1.177591e-001	1.000000e+000
1.716071055818036e-008	1.301213e-001	1.000000e+000
1.735602305818036e-008	1.431778e-001	1.000000e+000
1.755133555818036e-008	1.568973e-001	1.000000e+000
1.774664805818036e-008	1.712413e-001	1.000000e+000
1.794196055818037e-008	1.861640e-001	1.000000e+000
1.813727305818037e-008	2.016135e-001	1.000000e+000
1.833258555818037e-008	2.175322e-001	1.000000e+000
1.852789805818037e-008	2.338575e-001	1.000000e+000
1.872321055818037e-008	2.505236e-001	1.000000e+000
1.891852305818037e-008	2.674621e-001	1.000000e+000
1.911383555818037e-008	2.846031e-001	1.000000e+000
1.930914805818038e-008	3.018767e-001	1.000000e+000
1.950446055818038e-008	3.192139e-001	1.000000e+000
1.969977305818038e-008	3.365478e-001	1.000000e+000
1.989508555818038e-008	3.538145e-001	1.000000e+000
2.009039805818038e-008	3.709542e-001	1.000000e+000
2.028571055818038e-008	3.879111e-001	1.000000e+000
2.048102305818038e-008	4.046347e-001	1.000000e+000
2.067633555818039e-008	4.210798e-001	1.000000e+000
2.087164805818039e-008	4.372063e-001	1.000000e+000
2.106696055818039e-008	4.529793e-001	1.000000e+000
2.126227305818039e-008	4.683687e-001	1.000000e+000
2.145758555818039e-008	4.833487e-001	1.000000e+000
2.165289805818039e-008	4.978972e-001	1.000000e+000
2.184821055818039e-008	5.119952e-001	1.000000e+000
2.204352305818040e-008	5.256259e-001	1.000000e+000
2.223883555818040e-008	5.387741e-001	1.000000e+000
2.243414805818040e-008	5.514253e-001	1.000000e+000
2.262946055818040e-008	5.635655e-001	1.000000e+000
2.282477305818040e-008	5.751802e-001	1.000000e+000
2.302008555818040e-008	5.862548e-001	1.000000e+000
2.321539805818040e-008	5.967738e-001	1.000000e+000
2.341071055818041e-008	6.067215e-001	1.000000e+000
2.360602305818041e-008	6.160821e-001	1.000000e+000
2.380133555818041e-008	6.248400e-001	1.000000e+000
2.399664805818041e-008	6.329811e-001	1.000000e+000
2.419196055818041e-008	6.404928e-001	1.000000e+000
2.438727305818041e-008	6.473659e-001	1.000000e+000
2.458258555818041e-008	6.535947e-001	1.000000e+000
2.477789805818042e-008	6.591788e-001	1.000000e+000
2.497321055818042e-008	6.641231e-001	1.000000e+000
2.516852305818042e-008	6.684394e-001	1.000000e+000
2.536383555818042e-008	6.721464e-001	1.000000e+000
2.555914805818042e-008	6.752704e-001	1.000000e+000
2.575446055818042e-008	6.778451e-001	1.000000e+000
2.594977305818043e-008	6.799115e-001	1.000000e+000
2.614508555818043e-008	6.815171e-001	1.000000e+000
2.634039805818043e-008	6.827157e-001	1.000000e+000
2.653571055818043e-008	6.835652e-001	1.000000e+000
2.673102305818043e-008	6.841273e-001	1.000000e+000
2.692633555818043e-008	6.844650e-001	1.000000e+000
2.712164805818043e-008	6.846414e-001	1.000000e+000
2.731696055818044e-008	6.847175e-001	1.000000e+000
2.751227305818044e-008	6.847511e-001	1.000000e+000
2.770758555818044e-008	6.847939e-001	1.000000e+000
2.790289805818044e-008	6.848915e-001	1.000000e+000
2.809821055818044e-008	6.850805e-001	1.000000e+000
2.829352305818044e-008	6.853891e-001	1.000000e+000
2.848883555818044e-008	6.858352e-001	1.000000e+000
2.868414805818045e-008	6.864271e-001	1.000000e+000
2.887946055818045e-008	6.871631e-001	1.000000e+000
2.907477305818045e-008	6.880325e-001	1.000000e+000
2.927008555818045e-008	6.890163e-001	1.000000e+000
2.946539805818045e-008	6.900886e-001	1.000000e+000
2.966071055818045e-008	6.912185e-001	1.000000e+000
2.985602305818045e-008	6.923711e-001	1.000000e+000
3.005133555818045e-008	6.935102e-001	1.000000e+000
3.024664805818045e-008	6.946000e-001	1.000000e+000
3.044196055818045e-008	6.956067e-001	1.000000e+000
3.063727305818045e-008	6.965005e-001	1.000000e+000
3.083258555818044e-008	6.972568e-001	1.000000e+000
3.102789805818044e-008	6.978577e-001	1.000000e+000
3.122321055818044e-008	6.982926e-001	1.000000e+000
3.141852305818044e-008	6.985583e-001	1.000000e+000
3.161383555818044e-008	6.986598e-001	1.000000e+000
3.180914805818044e-008	6.986090e-001	1.000000e+000
3.200446055818043e-008	6.984247e-001	1.000000e+000
3.219977305818043e-008	6.981310e-001	1.000000e+000
3.239508555818043e-008	6.977559e-001	1.000000e+000
3.259039805818043e-008	6.973302e-001	1.000000e+000
3.278571055818043e-008	6.968855e-001	1.000000e+000
3.298102305818042e-008	6.964526e-001	1.000000e+000
3.317633555818042e-008	6.960601e-001	1.000000e+000
3.337164805818042e-008	6.957327e-001	1.000000e+000
3.356696055818042e-008	6.954901e-001	1.000000e+000
3.376227305818042e-008	6.953465e-001	1.000000e+000
3.395758555818041e-008	6.953093e-001	1.000000e+000
3.415289805818041e-008	6.953797e-001	1.000000e+000
3.434821055818041e-008	6.955525e-001	1.000000e+000
3.454352305818041e-008	6.958166e-001	1.000000e+000
3.473883555818041e-008	6.961559e-001	1.000000e+000
3.493414805818041e-008	6.965504e-001	1.000000e+000
3.512946055818040e-008	6.969777e-001	1.000000e+000
3.532477305818040e-008	6.974139e-001	1.000000e+000
3.552008555818040e-008	6.978354e-001	1.000000e+000
3.571539805818040e-008	6.982205e-001	1.000000e+000
3.591071055818040e-008	6.985499e-001	1.000000e+000
3.610602305818039e-008	6.988084e-001	1.000000e+000
3.630133555818039e-008	6.989857e-001	1.000000e+000
3.649664805818039e-008	6.990764e-001	1.000000e+000
3.669196055818039e-008	6.990806e-001	1.000000e+000
3.688727305818039e-008	6.990039e-001	1.000000e+000
3.708258555818038e-008	6.988564e-001	1.000000e+000
3.727789805818038e-008	6.986526e-001	1.000000e+000
3.747321055818038e-008	6.984105e-001	1.000000e+000
3.766852305818038e-008	6.981496e-001	1.000000e+000
3.786383555818038e-008	6.978912e-001	1.000000e+000
3.805914805818038e-008	6.976558e-001	1.000000e+000
3.825446055818037e-008	6.974629e-001	1.000000e+000
3.844977305818037e-008	6.973296e-001	1.000000e+000
3.864508555818037e-008	6.972699e-001	1.000000e+000
3.884039805818037e-008	6.972939e-001	1.000000e+000
3.903571055818037e-008	6.974077e-001	1.000000e+000
3.923102305818036e-008	6.976132e-001	1.000000e+000
3.942633555818036e-008	6.979080e-001	1.000000e+000
3.962164805818036e-008	6.982866e-001	1.000000e+000
3.981696055818036e-008	6.987402e-001	1.000000e+000
4.001227305818036e-008	6.992583e-001	1.000000e+000
4.020758555818035e-008	6.998291e-001	1.000000e+000
4.040289805818035e-008	7.004408e-001	1.000000e+000
4.059821055818035e-008	7.010826e-001	1.000000e+000
4.079352305818035e-008	7.017455e-001	1.000000e+000
4.098883555818035e-008	7.024235e-001	1.000000e+000
4.118414805818035e-008	7.031135e-001	1.000000e+000
4.137946055818034e-008	7.038166e-001	1.000000e+000
4.157477305818034e-008	7.045375e-001	1.000000e+000
4.177008555818034e-008	7.052850e-001	1.000000e+000
4.196539805818034e-008	7.060713e-001	1.000000e+000
4.216071055818034e-008	7.069116e-001	1.000000e+000
4.235602305818033e-008	7.078237e-001	1.000000e+000
4.255133555818033e-008	7.088265e-001	1.000000e+000
4.274664805818033e-008	7.099397e-001	1.000000e+000
4.294196055818033e-008	7.111823e-001	1.000000e+000
4.313727305818033e-008	7.125721e-001	1.000000e+000
4.333258555818032e-008	7.141246e-001	1.000000e+000
4.352789805818032e-008	7.158524e-001	1.000000e+000
4.372321055818032e-008	7.177643e-001	1.000000e+000
4.391852305818032e-008	7.198653e-001	1.000000e+000
4.411383555818032e-008	7.221565e-001	1.000000e+000
4.430914805818032e-008	7.246346e-001	1.000000e+000
4.450446055818031e-008	7.272927e-001	1.000000e+000
4.469977305818031e-008	7.301201e-001	1.000000e+000
4.489508555818031e-008	7.331036e-001	1.000000e+000
4.509039805818031e-008	7.362273e-001	1.000000e+000
4.528571055818031e-008	7.394738e-001	1.000000e+000
4.548102305818030e-008	7.428247e-001	1.000000e+000
4.567633555818030e-008	7.462610e-001	1.000000e+000
4.587164805818030e-008	7.497641e-001	1.000000e+000
4.606696055818030e-008	7.533158e-001	1.000000e+000
4.626227305818030e-008	7.568986e-001	1.000000e+000
4.645758555818029e-008	7.604960e-001	1.000000e+000
4.665289805818029e-008	7.640923e-001	1.000000e+000
4.684821055818029e-008	7.676727e-001	1.000000e+000
4.704352305818029e-008	7.712224e-001	1.000000e+000
4.723883555818029e-008	7.747271e-001	1.000000e+000
4.743414805818029e-008	7.781717e-001	1.000000e+000
4.762946055818028e-008	7.815405e-001	1.000000e+000
4.782477305818028e-008	7.848164e-001	1.000000e+000
4.802008555818028e-008	7.879810e-001	1.000000e+000
4.821539805818028e-008	7.910138e-001	1.000000e+000
4.841071055818028e-008	7.938929e-001	1.000000e+000
4.860602305818027e-008	7.965941e-001	1.000000e+000
4.880133555818027e-008	7.990924e-001	1.000000e+000
4.899664805818027e-008	8.013613e-001	1.000000e+000
4.919196055818027e-008	8.033739e-001	1.000000e+000
4.938727305818027e-008	8.051035e-001	1.000000e+000
4.958258555818026e-008	8.065247e-001	1.000000e+000
4.977789805818026e-008	8.076136e-001	1.000000e+000
4.997321055818026e-008	8.083490e-001	1.000000e+000
5.016852305818026e-008	8.087136e-001	1.000000e+000
5.036383555818026e-008	8.086938e-001	1.000000e+000
5.055914805818026e-008	8.082814e-001	1.000000e+000
5.075446055818025e-008	8.074729e-001	1.000000e+000
5.094977305818025e-008	8.062708e-001	1.000000e+000
5.114508555818025e-008	8.046831e-001	1.000000e+000
5.134039805818025e-008	8.027231e-001	1.000000e+000
5.153571055818025e-008	8.004092e-001	1.000000e+000
5.173102305818024e-008	7.977650e-001	1.000000e+000
5.192633555818024e-008	7.948174e-001	1.000000e+000
5.212164805818024e-008	7.915969e-001	1.000000e+000
5.231696055818024e-008	7.881363e-001	1.000000e+000
5.251227305818024e-008	7.844699e-001	1.000000e+000
5.270758555818024e-008	7.806325e-001	1.000000e+000
5.290289805818023e-008	7.766588e-001	1.000000e+000
5.309821055818023e-008	7.725824e-001	1.000000e+000
5.329352305818023e-008	7.684353e-001	1.000000e+000
5.348883555818023e-008	7.642474e-001	1.000000e+000
5.368414805818023e-008	7.600462e-001	1.000000e+000
5.387946055818022e-008	7.558563e-001	1.000000e+000
5.407477305818022e-008	7.516997e-001	1.000000e+000
5.427008555818022e-008	7.475955e-001	1.000000e+000
5.446539805818022e-008	7.435605e-001	1.000000e+000
5.466071055818022e-008	7.396089e-001	1.000000e+000
5.485602305818021e-008	7.357533e-001	1.000000e+000
5.505133555818021e-008	7.320042e-001	1.000000e+000
5.524664805818021e-008	7.283711e-001	1.000000e+000
5.544196055818021e-008	7.248623e-001	1.000000e+000
5.563727305818021e-008	7.214857e-001	1.000000e+000
5.583258555818021e-008	7.182481e-001	1.000000e+000
5.602789805818020e-008	7.151563e-001	1.000000e+000
5.622321055818020e-008	7.122166e-001	1.000000e+000
5.641852305818020e-008	7.094347e-001	1.000000e+000
5.661383555818020e-008	7.068160e-001	1.000000e+000
5.680914805818020e-008	7.043651e-001	1.000000e+000
5.700446055818019e-008	7.020859e-001	1.000000e+000
5.719977305818019e-008	6.999812e-001	1.000000e+000
5.739508555818019e-008	6.980527e-001	1.000000e+000
5.759039805818019e-008	6.963006e-001	1.000000e+000
5.778571055818019e-008	6.947237e-001	1.000000e+000
5.798102305818018e-008	6.933192e-001	1.000000e+000
5.817633555818018e-008	6.920828e-001	1.000000e+000
5.837164805818018e-008	6.910086e-001	1.000000e+000
5.856696055818018e-008	6.900893e-001	1.000000e+000
5.876227305818018e-008	6.893165e-001	1.000000e+000
5.895758555818018e-008	6.886805e-001	1.000000e+000
5.915289805818017e-008	6.881707e-001	1.000000e+000
5.934821055818017e-008	6.877760e-001	1.000000e+000
5.954352305818017e-008	6.874847e-001	1.000000e+000
5.973883555818017e-008	6.872851e-001	1.000000e+000
5.993414805818017e-008	6.871654e-001	1.000000e+000
6.012946055818018e-008	6.871136e-001	1.000000e+000
6.032477305818018e-008	6.871184e-001	1.000000e+000
6.052008555818019e-008	6.871682e-001	1.000000e+000
6.071539805818019e-008	6.872523e-001	1.000000e+000
6.091071055818020e-008	6.873598e-001	1.000000e+000
6.110602305818020e-008	6.874804e-001	1.000000e+000
6.130133555818021e-008	6.876039e-001	1.000000e+000
6.149664805818021e-008	6.877206e-001	1.000000e+000
6.169196055818022e-008	6.878210e-001	1.000000e+000
6.188727305818022e-008	6.878960e-001	1.000000e+000
6.208258555818022e-008	6.879371e-001	1.000000e+000
6.227789805818023e-008	6.879364e-001	1.000000e+000
6.247321055818023e-008	6.878868e-001	1.000000e+000
6.266852305818024e-008	6.877825e-001	1.000000e+000
6.286383555818024e-008	6.876189e-001	1.000000e+000
6.305914805818025e-008	6.873930e-001	1.000000e+000
6.325446055818025e-008	6.871039e-001	1.000000e+000
6.344977305818026e-008	6.867528e-001	1.000000e+000
6.364508555818026e-008	6.863431e-001	1.000000e+000
6.384039805818027e-008	6.858806e-001	1.000000e+000
6.403571055818027e-008	6.853738e-001	1.000000e+000
6.423102305818028e-008	6.848333e-001	1.000000e+000
6.442633555818028e-008	6.842719e-001	1.000000e+000
6.462164805818029e-008	6.837041e-001	1.000000e+000
6.481696055818029e-008	6.831459e-001	1.000000e+000
6.501227305818030e-008	6.826138e-001	1.000000e+000
6.520758555818030e-008	6.821247e-001	1.000000e+000
6.540289805818031e-008	6.816949e-001	1.000000e+000
6.559821055818031e-008	6.813394e-001	1.000000e+000
6.579352305818031e-008	6.810710e-001	1.000000e+000
6.598883555818032e-008	6.809004e-001	1.000000e+000
6.618414805818032e-008	6.808347e-001	1.000000e+000
6.637946055818033e-008	6.808774e-001	1.000000e+000
6.657477305818033e-008	6.810284e-001	1.000000e+000
6.677008555818034e-008	6.812834e-001	1.000000e+000
6.696539805818034e-008	6.816340e-001	1.000000e+000
6.716071055818035e-008	6.820685e-001	1.000000e+000
6.735602305818035e-008	6.825716e-001	1.000000e+000
6.755133555818036e-008	6.831256e-001	1.000000e+000
6.774664805818036e-008	6.837109e-001	1.000000e+000
6.794196055818037e-008	6.843070e-001	1.000000e+000
6.813727305818037e-008	6.848931e-001	1.000000e+000
6.833258555818038e-008	6.854496e-001	1.000000e+000
6.852789805818038e-008	6.859587e-001	1.000000e+000
6.872321055818039e-008	6.864054e-001	1.000000e+000
6.891852305818039e-008	6.867780e-001	1.000000e+000
6.911383555818040e-008	6.870691e-001	1.000000e+000
6.930914805818040e-008	6.872755e-001	1.000000e+000
6.950446055818041e-008	6.873989e-001	1.000000e+000
6.969977305818041e-008	6.874456e-001	1.000000e+000
6.989508555818041e-008	6.874262e-001	1.000000e+000
7.009039805818042e-008	6.873553e-001	1.000000e+000
7.028571055818042e-008	6.872507e-001	1.000000e+000
7.048102305818043e-008	6.871326e-001	1.000000e+000
7.067633555818043e-008	6.870226e-001	1.000000e+000
7.087164805818044e-008	6.869428e-001	1.000000e+000
7.106696055818044e-008	6.869148e-001	1.000000e+000
