time	V(out)	V(n078)
0.000000000000000e+000	0.000000e+000	0.000000e+000
2.929687488293547e-015	0.000000e+000	3.906250e-007
5.859374976587093e-015	0.000000e+000	7.812500e-007
6.862165151151572e-012	0.000000e+000	9.149554e-004
1.371847092732656e-011	0.000000e+000	1.829129e-003
2.057477670350154e-011	0.000000e+000	2.743304e-003
2.743108247967653e-011	0.000000e+000	3.657478e-003
3.428738825585152e-011	0.000000e+000	4.571652e-003
4.114369403202650e-011	0.000000e+000	5.485826e-003
4.799999980820147e-011	0.000000e+000	6.400000e-003
9.599999961640293e-011	0.000000e+000	1.280000e-002
1.404606014236564e-010	0.000000e+000	1.872808e-002
1.783236865824396e-010	0.000000e+000	2.377649e-002
2.133624804419512e-010	0.000000e+000	2.844833e-002
2.524063542346291e-010	0.000000e+000	3.365418e-002
2.929017788970751e-010	0.000000e+000	3.905357e-002
3.425937548498207e-010	0.000000e+000	4.567917e-002
3.978514655120629e-010	0.000000e+000	5.304686e-002
4.645797710677467e-010	0.000000e+000	6.194397e-002
5.403068812387455e-010	0.000000e+000	7.204092e-002
6.307358062350067e-010	0.000000e+000	8.409811e-002
7.079893803692038e-010	0.000000e+000	9.439858e-002
7.836459236611360e-010	0.000000e+000	1.044861e-001
8.648150319715812e-010	0.000000e+000	1.153087e-001
9.533838991931447e-010	0.000000e+000	1.271179e-001
1.051271808406190e-009	0.000000e+000	1.401696e-001
1.159241009936822e-009	0.000000e+000	1.545655e-001
1.278989387682815e-009	0.000000e+000	1.705319e-001
1.396557812889038e-009	0.000000e+000	1.862077e-001
1.506237046328305e-009	0.000000e+000	2.008316e-001
1.622814105635589e-009	0.000000e+000	2.163752e-001
1.745252821730084e-009	0.000000e+000	2.327004e-001
1.878826092854386e-009	0.000000e+000	2.505102e-001
2.021722797969877e-009	0.000000e+000	2.695630e-001
2.177735489724566e-009	0.000000e+000	2.903647e-001
2.313196995441441e-009	0.000000e+000	3.084263e-001
2.459900481889268e-009	0.000000e+000	3.279867e-001
2.607287994033604e-009	0.000000e+000	3.476384e-001
2.769490394963839e-009	0.000000e+000	3.692654e-001
2.937795246810022e-009	0.000000e+000	3.917060e-001
3.121752783602816e-009	1.401298e-045	4.162337e-001
3.302567426918057e-009	1.681558e-044	4.403423e-001
3.469663158169166e-009	1.471363e-043	4.626217e-001
3.654689521797194e-009	1.279385e-042	4.872919e-001
3.840326689612186e-009	1.231461e-041	5.120435e-001
4.044539681067134e-009	9.166174e-041	5.392720e-001
4.227764994987585e-009	5.752246e-040	5.637020e-001
4.422060863015585e-009	3.762328e-039	5.896081e-001
4.617703286808835e-009	2.561576e-038	6.156937e-001
4.828249794968673e-009	1.859518e-037	6.437666e-001
5.045663481099977e-009	1.090024e-036	6.727551e-001
5.245441075231698e-009	5.775619e-036	6.993921e-001
5.458755053440721e-009	3.208261e-035	7.278340e-001
5.673038340546161e-009	1.817398e-034	7.564051e-001
5.903234374701468e-009	1.090478e-033	7.870979e-001
6.139853745656832e-009	5.634563e-033	8.186471e-001
6.361321752244213e-009	2.640486e-032	8.481762e-001
6.593822328680251e-009	1.281888e-031	8.791763e-001
6.829555108356630e-009	6.314000e-031	9.106073e-001
7.079883430092093e-009	2.333745e-030	9.439844e-001
7.241472718691571e-009	4.650790e-030	9.655297e-001
7.281792218401937e-009	5.701350e-030	9.709056e-001
7.362431217822669e-009	9.357860e-030	9.816575e-001
7.499999999999999e-009	1.804252e-029	1.000000e+000
7.513756878217733e-009	1.945928e-029	1.000000e+000
7.541270634653200e-009	2.263888e-029	1.000000e+000
7.596298147524132e-009	3.121790e-029	1.000000e+000
7.706353173265996e-009	6.716897e-029	1.000000e+000
7.926463224749725e-009	2.739833e-028	1.000000e+000
8.165171580565621e-009	1.033502e-027	1.000000e+000
8.402737421335067e-009	4.018174e-027	1.000000e+000
8.670384792129498e-009	1.687283e-026	1.000000e+000
8.933169998465720e-009	6.674020e-026	1.000000e+000
9.208781481879485e-009	2.721599e-025	1.000000e+000
9.491159325500321e-009	1.063486e-024	1.000000e+000
9.769926750783376e-009	3.850090e-024	1.000000e+000
1.004426433841718e-008	1.364904e-023	1.000000e+000
1.033306080973043e-008	4.977613e-023	1.000000e+000
1.062602955973043e-008	1.746982e-022	1.000000e+000
1.091812713245680e-008	5.802572e-022	1.000000e+000
1.120504552286787e-008	1.848746e-021	1.000000e+000
1.149801427286788e-008	5.838542e-021	1.000000e+000
1.179098302286788e-008	1.778896e-020	1.000000e+000
1.208395177286788e-008	5.258310e-020	1.000000e+000
1.237692052286788e-008	1.510436e-019	1.000000e+000
1.266988927286788e-008	4.222391e-019	1.000000e+000
1.296285802286788e-008	1.150250e-018	1.000000e+000
1.325582677286788e-008	3.057237e-018	1.000000e+000
1.354879552286788e-008	7.936857e-018	1.000000e+000
1.384176427286788e-008	2.014606e-017	1.000000e+000
1.413473302286788e-008	5.004473e-017	1.000000e+000
1.442770177286788e-008	1.217663e-016	1.000000e+000
1.472067052286788e-008	2.904303e-016	1.000000e+000
1.501363927286788e-008	6.795549e-016	1.000000e+000
1.530660802286788e-008	1.560897e-015	1.000000e+000
1.559957677286788e-008	3.521848e-015	1.000000e+000
1.589254552286788e-008	7.810427e-015	1.000000e+000
1.618551427286788e-008	1.703460e-014	1.000000e+000
1.647848302286788e-008	3.655713e-014	1.000000e+000
1.677145177286788e-008	7.723461e-014	1.000000e+000
1.706442052286788e-008	1.607146e-013	1.000000e+000
1.735738927286789e-008	3.295301e-013	1.000000e+000
1.765035802286789e-008	6.660596e-013	1.000000e+000
1.794332677286789e-008	1.327644e-012	1.000000e+000
1.823629552286789e-008	2.610739e-012	1.000000e+000
1.852926427286789e-008	5.066568e-012	1.000000e+000
1.882223302286789e-008	9.706878e-012	1.000000e+000
1.911520177286789e-008	1.836540e-011	1.000000e+000
1.940817052286789e-008	3.432487e-011	1.000000e+000
1.970113927286789e-008	6.339164e-011	1.000000e+000
1.999410802286789e-008	1.157151e-010	1.000000e+000
2.028707677286789e-008	2.088326e-010	1.000000e+000
2.058004552286789e-008	3.727059e-010	1.000000e+000
2.087301427286789e-008	6.579592e-010	1.000000e+000
2.116598302286789e-008	1.149202e-009	1.000000e+000
2.145895177286789e-008	1.986345e-009	1.000000e+000
2.175192052286789e-008	3.398327e-009	1.000000e+000
2.204488927286789e-008	5.755934e-009	1.000000e+000
2.233785802286789e-008	9.653624e-009	1.000000e+000
2.263082677286789e-008	1.603502e-008	1.000000e+000
2.292379552286789e-008	2.638338e-008	1.000000e+000
2.321676427286790e-008	4.300779e-008	1.000000e+000
2.350973302286790e-008	6.946890e-008	1.000000e+000
2.380270177286790e-008	1.112061e-007	1.000000e+000
2.409567052286790e-008	1.764520e-007	1.000000e+000
2.438863927286790e-008	2.775540e-007	1.000000e+000
2.468160802286790e-008	4.328640e-007	1.000000e+000
2.497457677286790e-008	6.694162e-007	1.000000e+000
2.526754552286790e-008	1.026686e-006	1.000000e+000
2.556051427286790e-008	1.561811e-006	1.000000e+000
2.585348302286790e-008	2.356787e-006	1.000000e+000
2.614645177286790e-008	3.528276e-006	1.000000e+000
2.643942052286790e-008	5.240858e-006	1.000000e+000
2.673238927286790e-008	7.724763e-006	1.000000e+000
2.702535802286790e-008	1.129938e-005	1.000000e+000
2.731832677286790e-008	1.640411e-005	1.000000e+000
2.761129552286790e-008	2.363849e-005	1.000000e+000
2.790426427286790e-008	3.381384e-005	1.000000e+000
2.819723302286790e-008	4.801911e-005	1.000000e+000
2.849020177286790e-008	6.770398e-005	1.000000e+000
2.878317052286790e-008	9.478271e-005	1.000000e+000
2.907613927286791e-008	1.317625e-004	1.000000e+000
2.936910802286791e-008	1.819005e-004	1.000000e+000
2.966207677286791e-008	2.493937e-004	1.000000e+000
2.995504552286790e-008	3.396065e-004	1.000000e+000
3.024801427286790e-008	4.593386e-004	1.000000e+000
3.054098302286790e-008	6.171395e-004	1.000000e+000
3.083395177286791e-008	8.236690e-004	1.000000e+000
3.112692052286791e-008	1.092108e-003	1.000000e+000
3.141988927286791e-008	1.438619e-003	1.000000e+000
3.171285802286791e-008	1.882849e-003	1.000000e+000
3.200582677286791e-008	2.448481e-003	1.000000e+000
3.229879552286791e-008	3.163808e-003	1.000000e+000
3.259176427286791e-008	4.062331e-003	1.000000e+000
3.288473302286791e-008	5.183363e-003	1.000000e+000
3.317770177286791e-008	6.572600e-003	1.000000e+000
3.347067052286791e-008	8.282658e-003	1.000000e+000
3.376363927286791e-008	1.037352e-002	1.000000e+000
3.405660802286791e-008	1.291286e-002	1.000000e+000
3.434957677286791e-008	1.597624e-002	1.000000e+000
3.464254552286791e-008	1.964706e-002	1.000000e+000
3.493551427286791e-008	2.401632e-002	1.000000e+000
3.522848302286791e-008	2.918201e-002	1.000000e+000
3.552145177286791e-008	3.524828e-002	1.000000e+000
3.581442052286791e-008	4.232417e-002	1.000000e+000
3.610738927286791e-008	5.052200e-002	1.000000e+000
3.640035802286791e-008	5.995531e-002	1.000000e+000
3.669332677286792e-008	7.073648e-002	1.000000e+000
3.698629552286792e-008	8.297393e-002	1.000000e+000
3.727926427286792e-008	9.676902e-002	1.000000e+000
3.757223302286792e-008	1.122127e-001	1.000000e+000
3.786520177286792e-008	1.293819e-001	1.000000e+000
3.815817052286792e-008	1.483361e-001	1.000000e+000
3.845113927286792e-008	1.691136e-001	1.000000e+000
3.874410802286792e-008	1.917283e-001	1.000000e+000
3.903707677286792e-008	2.161667e-001	1.000000e+000
3.933004552286792e-008	2.423856e-001	1.000000e+000
3.962301427286792e-008	2.703103e-001	1.000000e+000
3.991598302286792e-008	2.998335e-001	1.000000e+000
4.020895177286792e-008	3.308157e-001	1.000000e+000
4.050192052286792e-008	3.630859e-001	1.000000e+000
4.079488927286792e-008	3.964438e-001	1.000000e+000
4.108785802286792e-008	4.306634e-001	1.000000e+000
4.138082677286792e-008	4.654967e-001	1.000000e+000
4.167379552286792e-008	5.006791e-001	1.000000e+000
4.196676427286792e-008	5.359354e-001	1.000000e+000
4.225973302286792e-008	5.709863e-001	1.000000e+000
4.255270177286793e-008	6.055551e-001	1.000000e+000
4.284567052286793e-008	6.393745e-001	1.000000e+000
4.313863927286793e-008	6.721935e-001	1.000000e+000
4.343160802286793e-008	7.037829e-001	1.000000e+000
4.372457677286793e-008	7.339412e-001	1.000000e+000
4.401754552286793e-008	7.624983e-001	1.000000e+000
4.431051427286793e-008	7.893184e-001	1.000000e+000
4.460348302286793e-008	8.143021e-001	1.000000e+000
4.489645177286793e-008	8.373862e-001	1.000000e+000
4.518942052286793e-008	8.585427e-001	1.000000e+000
4.548238927286793e-008	8.777764e-001	1.000000e+000
4.577535802286793e-008	8.951217e-001	1.000000e+000
4.606832677286793e-008	9.106381e-001	1.000000e+000
4.636129552286793e-008	9.244060e-001	1.000000e+000
4.665426427286793e-008	9.365212e-001	1.000000e+000
4.694723302286793e-008	9.470910e-001	1.000000e+000
4.724020177286793e-008	9.562292e-001	1.000000e+000
4.753317052286793e-008	9.640528e-001	1.000000e+000
4.782613927286793e-008	9.706792e-001	1.000000e+000
4.811910802286793e-008	9.762241e-001	1.000000e+000
4.841207677286794e-008	9.808003e-001	1.000000e+000
4.870504552286794e-008	9.845177e-001	1.000000e+000
4.899801427286794e-008	9.874833e-001	1.000000e+000
4.929098302286794e-008	9.898021e-001	1.000000e+000
4.958395177286794e-008	9.915774e-001	1.000000e+000
4.987692052286794e-008	9.929116e-001	1.000000e+000
5.016988927286794e-008	9.939064e-001	1.000000e+000
5.046285802286794e-008	9.946620e-001	1.000000e+000
5.075582677286794e-008	9.952760e-001	1.000000e+000
5.104879552286794e-008	9.958411e-001	1.000000e+000
5.134176427286794e-008	9.964427e-001	1.000000e+000
5.163473302286794e-008	9.971554e-001	1.000000e+000
5.192770177286794e-008	9.980396e-001	1.000000e+000
5.222067052286794e-008	9.991384e-001	1.000000e+000
5.251363927286794e-008	1.000475e+000	1.000000e+000
5.280660802286794e-008	1.002049e+000	1.000000e+000
5.309957677286794e-008	1.003841e+000	1.000000e+000
5.339254552286794e-008	1.005806e+000	1.000000e+000
5.368551427286794e-008	1.007882e+000	1.000000e+000
5.397848302286794e-008	1.009993e+000	1.000000e+000
5.427145177286795e-008	1.012050e+000	1.000000e+000
5.456442052286795e-008	1.013965e+000	1.000000e+000
5.485738927286795e-008	1.015651e+000	1.000000e+000
5.515035802286795e-008	1.017034e+000	1.000000e+000
5.544332677286795e-008	1.018057e+000	1.000000e+000
5.573629552286795e-008	1.018687e+000	1.000000e+000
5.602926427286795e-008	1.018914e+000	1.000000e+000
5.632223302286795e-008	1.018762e+000	1.000000e+000
5.661520177286795e-008	1.018277e+000	1.000000e+000
5.690817052286795e-008	1.017531e+000	1.000000e+000
5.720113927286795e-008	1.016614e+000	1.000000e+000
5.749410802286795e-008	1.015628e+000	1.000000e+000
5.778707677286795e-008	1.014677e+000	1.000000e+000
5.808004552286795e-008	1.013858e+000	1.000000e+000
5.837301427286795e-008	1.013255e+000	1.000000e+000
5.866598302286795e-008	1.012930e+000	1.000000e+000
5.895895177286795e-008	1.012918e+000	1.000000e+000
5.925192052286795e-008	1.013223e+000	1.000000e+000
5.954488927286795e-008	1.013820e+000	1.000000e+000
5.983785802286796e-008	1.014655e+000	1.000000e+000
6.013082677286795e-008	1.015651e+000	1.000000e+000
6.042379552286794e-008	1.016718e+000	1.000000e+000
6.071676427286794e-008	1.017759e+000	1.000000e+000
6.100973302286793e-008	1.018678e+000	1.000000e+000
6.130270177286792e-008	1.019395e+000	1.000000e+000
6.159567052286792e-008	1.019847e+000	1.000000e+000
6.188863927286791e-008	1.020000e+000	1.000000e+000
6.218160802286791e-008	1.019848e+000	1.000000e+000
6.247457677286790e-008	1.019414e+000	1.000000e+000
6.276754552286789e-008	1.018750e+000	1.000000e+000
6.306051427286789e-008	1.017930e+000	1.000000e+000
6.335348302286788e-008	1.017040e+000	1.000000e+000
6.364645177286788e-008	1.016173e+000	1.000000e+000
6.393942052286787e-008	1.015416e+000	1.000000e+000
6.423238927286786e-008	1.014843e+000	1.000000e+000
6.452535802286786e-008	1.014508e+000	1.000000e+000
6.481832677286785e-008	1.014439e+000	1.000000e+000
6.511129552286785e-008	1.014632e+000	1.000000e+000
6.540426427286784e-008	1.015059e+000	1.000000e+000
6.569723302286783e-008	1.015665e+000	1.000000e+000
6.599020177286783e-008	1.016378e+000	1.000000e+000
6.628317052286782e-008	1.017114e+000	1.000000e+000
6.657613927286781e-008	1.017791e+000	1.000000e+000
6.686910802286781e-008	1.018334e+000	1.000000e+000
6.716207677286780e-008	1.018682e+000	1.000000e+000
6.745504552286780e-008	1.018798e+000	1.000000e+000
6.774801427286779e-008	1.018674e+000	1.000000e+000
6.804098302286778e-008	1.018325e+000	1.000000e+000
6.833395177286778e-008	1.017792e+000	1.000000e+000
6.862692052286777e-008	1.017135e+000	1.000000e+000
6.891988927286777e-008	1.016430e+000	1.000000e+000
6.921285802286776e-008	1.015751e+000	1.000000e+000
6.950582677286775e-008	1.015172e+000	1.000000e+000
6.979879552286775e-008	1.014752e+000	1.000000e+000
7.009176427286774e-008	1.014530e+000	1.000000e+000
7.038473302286773e-008	1.014523e+000	1.000000e+000
7.067770177286773e-008	1.014721e+000	1.000000e+000
7.097067052286772e-008	1.015091e+000	1.000000e+000
7.126363927286772e-008	1.015582e+000	1.000000e+000
7.155660802286771e-008	1.016128e+000	1.000000e+000
7.184957677286770e-008	1.016658e+000	1.000000e+000
7.214254552286770e-008	1.017107e+000	1.000000e+000
7.243551427286769e-008	1.017418e+000	1.000000e+000
7.272848302286769e-008	1.017554e+000	1.000000e+000
7.302145177286768e-008	1.017497e+000	1.000000e+000
7.331442052286767e-008	1.017255e+000	1.000000e+000
7.360738927286767e-008	1.016857e+000	1.000000e+000
7.390035802286766e-008	1.016350e+000	1.000000e+000
7.419332677286766e-008	1.015792e+000	1.000000e+000
7.448629552286765e-008	1.015248e+000	1.000000e+000
7.477926427286764e-008	1.014778e+000	1.000000e+000
7.507223302286764e-008	1.014433e+000	1.000000e+000
7.536520177286763e-008	1.014247e+000	1.000000e+000
7.565817052286762e-008	1.014233e+000	1.000000e+000
7.595113927286762e-008	1.014384e+000	1.000000e+000
7.624410802286761e-008	1.014672e+000	1.000000e+000
7.653707677286761e-008	1.015053e+000	1.000000e+000
7.683004552286760e-008	1.015472e+000	1.000000e+000
7.712301427286759e-008	1.015871e+000	1.000000e+000
7.741598302286759e-008	1.016196e+000	1.000000e+000
7.770895177286758e-008	1.016402e+000	1.000000e+000
7.800192052286758e-008	1.016462e+000	1.000000e+000
7.829488927286757e-008	1.016367e+000	1.000000e+000
7.858785802286756e-008	1.016126e+000	1.000000e+000
7.888082677286756e-008	1.015769e+000	1.000000e+000
7.917096100383422e-008	1.015343e+000	1.000000e+000
7.946392975383421e-008	1.014890e+000	1.000000e+000
7.975689850383421e-008	1.014467e+000	1.000000e+000
8.004986725383420e-008	1.014122e+000	1.000000e+000
8.034283600383420e-008	1.013891e+000	1.000000e+000
8.063580475383419e-008	1.013797e+000	1.000000e+000
8.092877350383418e-008	1.013842e+000	1.000000e+000
8.122174225383418e-008	1.014013e+000	1.000000e+000
8.151471100383417e-008	1.014277e+000	1.000000e+000
8.177435375781716e-008	1.014560e+000	1.000000e+000
8.203560621669565e-008	1.014852e+000	1.000000e+000
8.232857496669565e-008	1.015148e+000	1.000000e+000
8.260436385488044e-008	1.015357e+000	1.000000e+000
8.289733260488043e-008	1.015474e+000	1.000000e+000
8.318418203293359e-008	1.015470e+000	1.000000e+000
8.347715078293359e-008	1.015339e+000	1.000000e+000
8.377011953293358e-008	1.015101e+000	1.000000e+000
8.399397077094958e-008	1.014859e+000	1.000000e+000
8.422441647700792e-008	1.014572e+000	1.000000e+000
8.444426438766119e-008	1.014287e+000	1.000000e+000
8.473723313766118e-008	1.013926e+000	1.000000e+000
8.500489626031711e-008	1.013645e+000	1.000000e+000
8.529786501031710e-008	1.013423e+000	1.000000e+000
8.557890511267132e-008	1.013301e+000	1.000000e+000
8.577053067391503e-008	1.013280e+000	1.000000e+000
8.594802227234012e-008	1.013312e+000	1.000000e+000
8.612807039380431e-008	1.013387e+000	1.000000e+000
8.636438616272705e-008	1.013536e+000	1.000000e+000
8.659094977006121e-008	1.013715e+000	1.000000e+000
8.677075193073191e-008	1.013875e+000	1.000000e+000
8.698801254416606e-008	1.014073e+000	1.000000e+000
8.718642496955941e-008	1.014242e+000	1.000000e+000
8.743653945653640e-008	1.014419e+000	1.000000e+000
8.770651293068408e-008	1.014547e+000	1.000000e+000
8.799948168068407e-008	1.014603e+000	1.000000e+000
8.820284781593964e-008	1.014581e+000	1.000000e+000
8.838573000964018e-008	1.014511e+000	1.000000e+000
8.857282191554265e-008	1.014397e+000	1.000000e+000
8.878870630967159e-008	1.014221e+000	1.000000e+000
8.904629162792993e-008	1.013970e+000	1.000000e+000
8.928688338040305e-008	1.013712e+000	1.000000e+000
8.953153255615182e-008	1.013448e+000	1.000000e+000
8.977873850749756e-008	1.013200e+000	1.000000e+000
9.000818971490563e-008	1.013007e+000	1.000000e+000
9.024600279876882e-008	1.012857e+000	1.000000e+000
9.047103612318496e-008	1.012777e+000	1.000000e+000
9.076400487318495e-008	1.012753e+000	1.000000e+000
9.097984045497401e-008	1.012793e+000	1.000000e+000
9.117712286445725e-008	1.012873e+000	1.000000e+000
9.137837317084877e-008	1.012988e+000	1.000000e+000
9.162870928557944e-008	1.013159e+000	1.000000e+000
9.186791961709967e-008	1.013332e+000	1.000000e+000
9.213883890409755e-008	1.013516e+000	1.000000e+000
9.238447180780367e-008	1.013651e+000	1.000000e+000
9.267744055780366e-008	1.013754e+000	1.000000e+000
9.290849250819747e-008	1.013780e+000	1.000000e+000
9.311864394616611e-008	1.013750e+000	1.000000e+000
9.335878279158814e-008	1.013660e+000	1.000000e+000
9.358424349009863e-008	1.013528e+000	1.000000e+000
9.382997861230434e-008	1.013341e+000	1.000000e+000
9.408433411983864e-008	1.013120e+000	1.000000e+000
9.433219284230630e-008	1.012895e+000	1.000000e+000
9.458192145289423e-008	1.012681e+000	1.000000e+000
9.483624252459602e-008	1.012493e+000	1.000000e+000
9.508032621502852e-008	1.012355e+000	1.000000e+000
9.528061162161326e-008	1.012284e+000	1.000000e+000
9.549332464348957e-008	1.012255e+000	1.000000e+000
9.570039636539754e-008	1.012271e+000	1.000000e+000
9.593016593948946e-008	1.012338e+000	1.000000e+000
9.619239419867547e-008	1.012464e+000	1.000000e+000
9.645891611164841e-008	1.012630e+000	1.000000e+000
9.668659188094657e-008	1.012790e+000	1.000000e+000
9.691694721047474e-008	1.012954e+000	1.000000e+000
9.714857481198826e-008	1.013105e+000	1.000000e+000
9.739733267372777e-008	1.013239e+000	1.000000e+000
9.763805003807434e-008	1.013332e+000	1.000000e+000
9.788506871939379e-008	1.013385e+000	1.000000e+000
9.812476225114758e-008	1.013394e+000	1.000000e+000
9.834834496454776e-008	1.013369e+000	1.000000e+000
