time	V(out)	V(n118)
0.000000000000000e+000	0.000000e+000	0.000000e+000
2.929687488293547e-015	0.000000e+000	3.906250e-007
5.859374976587093e-015	0.000000e+000	7.812500e-007
6.862165151151572e-012	-2.980880e-022	9.149554e-004
1.371847092732656e-011	-2.643914e-022	1.829129e-003
2.057477670350154e-011	1.010899e-022	2.743304e-003
2.743108247967653e-011	7.983558e-022	3.657478e-003
3.428738825585152e-011	1.827406e-021	4.571652e-003
4.114369403202650e-011	3.188241e-021	5.485826e-003
4.799999980820147e-011	4.880861e-021	6.400000e-003
9.599999961640293e-011	1.079095e-019	1.280000e-002
1.404606014236564e-010	6.966946e-019	1.872808e-002
1.783236865824396e-010	2.950091e-018	2.377649e-002
2.133624804419512e-010	1.141924e-017	2.844833e-002
2.524063542346291e-010	4.558202e-017	3.365418e-002
2.929017788970751e-010	1.846438e-016	3.905357e-002
3.425937548498207e-010	8.489673e-016	4.567917e-002
3.978514655120629e-010	3.975050e-015	5.304686e-002
4.645797710677467e-010	1.992570e-014	6.194397e-002
5.403068812387455e-010	1.004517e-013	7.204092e-002
6.307358062350067e-010	4.259718e-013	8.409811e-002
7.079893803691623e-010	1.251168e-012	9.439858e-002
7.836459236609927e-010	3.439989e-012	1.044861e-001
8.648150319713865e-010	9.485999e-012	1.153087e-001
9.533838991927018e-010	2.634084e-011	1.271179e-001
1.051271808405182e-009	7.407496e-011	1.401696e-001
1.159241009934154e-009	2.099790e-010	1.545655e-001
1.278989387675510e-009	5.787947e-010	1.705319e-001
1.396557688753919e-009	1.395664e-009	1.862077e-001
1.506236762230611e-009	3.032935e-009	2.008316e-001
1.622813716182645e-009	6.610797e-009	2.163752e-001
1.745252185299451e-009	1.423748e-008	2.327003e-001
1.878825116510960e-009	3.104728e-008	2.505100e-001
2.021721192602527e-009	6.750315e-008	2.695628e-001
2.177732863256457e-009	1.434250e-007	2.903644e-001
2.313157269757365e-009	2.657555e-007	3.084210e-001
2.458950933586760e-009	5.004859e-007	3.278601e-001
2.605827732090887e-009	9.153854e-007	3.474437e-001
2.766818725022723e-009	1.706524e-006	3.689092e-001
2.934054616542614e-009	3.137556e-006	3.912073e-001
3.116262312335975e-009	5.817770e-006	4.155017e-001
3.298993569556954e-009	1.026218e-005	4.398658e-001
3.464528592478393e-009	1.682771e-005	4.619372e-001
3.650521320322920e-009	2.852291e-005	4.867362e-001
3.834974378901316e-009	4.682052e-005	5.113299e-001
4.039694696763324e-009	7.803935e-005	5.386260e-001
4.223078365802316e-009	1.202777e-004	5.630771e-001
4.417107942339849e-009	1.864162e-004	5.889477e-001
4.612599989700354e-009	2.836783e-004	6.150134e-001
4.822795206767129e-009	4.352925e-004	6.430393e-001
5.039960568853124e-009	6.575413e-004	6.719947e-001
5.239489314574379e-009	9.436533e-004	6.985986e-001
5.452502116031265e-009	1.363904e-003	7.270003e-001
5.666484322086065e-009	1.938528e-003	7.555313e-001
5.896334310959018e-009	2.773287e-003	7.861779e-001
6.132595295100248e-009	3.913894e-003	8.176793e-001
6.352836809578699e-009	5.310620e-003	8.470449e-001
6.585388303976070e-009	7.217826e-003	8.780518e-001
6.820281976651093e-009	9.681343e-003	9.093710e-001
7.070499239385775e-009	1.293575e-002	9.427332e-001
7.242228921309817e-009	1.554601e-002	9.656305e-001
7.278964945693385e-009	1.617247e-002	9.705287e-001
7.310541382022901e-009	1.673376e-002	9.747388e-001
7.342117818352417e-009	1.731186e-002	9.789490e-001
7.373694254681934e-009	1.790677e-002	9.831592e-001
7.405270691011450e-009	1.851850e-002	9.873694e-001
7.436847127340967e-009	1.914704e-002	9.915796e-001
7.468423563670483e-009	1.979240e-002	9.957898e-001
7.499999999999999e-009	2.045456e-002	1.000000e+000
7.506896168887829e-009	2.060214e-002	1.000000e+000
7.520688506663486e-009	2.089978e-002	1.000000e+000
7.603442533317430e-009	2.277356e-002	1.000000e+000
7.713781235522689e-009	2.552107e-002	1.000000e+000
7.934458639933207e-009	3.169980e-002	1.000000e+000
8.173249096141981e-009	3.940115e-002	1.000000e+000
8.410084221138391e-009	4.832321e-002	1.000000e+000
8.676536700044732e-009	5.995054e-002	1.000000e+000
8.929110797263480e-009	7.262511e-002	1.000000e+000
9.209507802023298e-009	8.866443e-002	1.000000e+000
9.486666510424817e-009	1.065246e-001	1.000000e+000
9.770542508705264e-009	1.268923e-001	1.000000e+000
1.004107506850594e-008	1.482406e-001	1.000000e+000
1.033288602112581e-008	1.732746e-001	1.000000e+000
1.062497233489297e-008	2.001972e-001	1.000000e+000
1.091794108489297e-008	2.289033e-001	1.000000e+000
1.120411316219823e-008	2.583854e-001	1.000000e+000
1.149708191219823e-008	2.898031e-001	1.000000e+000
1.179005066219823e-008	3.222090e-001	1.000000e+000
1.208301941219823e-008	3.553697e-001	1.000000e+000
1.237598816219823e-008	3.890595e-001	1.000000e+000
1.266895691219823e-008	4.230738e-001	1.000000e+000
1.296192566219823e-008	4.572310e-001	1.000000e+000
1.325489441219823e-008	4.913709e-001	1.000000e+000
1.354786316219823e-008	5.253499e-001	1.000000e+000
1.384083191219824e-008	5.590338e-001	1.000000e+000
1.413380066219824e-008	5.922900e-001	1.000000e+000
1.442676941219824e-008	6.249793e-001	1.000000e+000
1.471973816219824e-008	6.569499e-001	1.000000e+000
1.501270691219824e-008	6.880336e-001	1.000000e+000
1.530567566219824e-008	7.180464e-001	1.000000e+000
1.559864441219824e-008	7.467922e-001	1.000000e+000
1.589161316219824e-008	7.740707e-001	1.000000e+000
1.618458191219824e-008	7.996894e-001	1.000000e+000
1.647755066219824e-008	8.234760e-001	1.000000e+000
1.677051941219824e-008	8.452932e-001	1.000000e+000
1.706348816219824e-008	8.650514e-001	1.000000e+000
1.735645691219824e-008	8.827193e-001	1.000000e+000
1.764942566219824e-008	8.983309e-001	1.000000e+000
1.794239441219824e-008	9.119865e-001	1.000000e+000
1.823536316219824e-008	9.238498e-001	1.000000e+000
1.852833191219824e-008	9.341391e-001	1.000000e+000
1.882130066219824e-008	9.431142e-001	1.000000e+000
1.911426941219824e-008	9.510603e-001	1.000000e+000
1.940723816219824e-008	9.582704e-001	1.000000e+000
1.970020691219824e-008	9.650277e-001	1.000000e+000
1.999317566219824e-008	9.715905e-001	1.000000e+000
2.028614441219824e-008	9.781801e-001	1.000000e+000
2.057911316219825e-008	9.849732e-001	1.000000e+000
2.087208191219825e-008	9.920999e-001	1.000000e+000
2.116505066219825e-008	9.996456e-001	1.000000e+000
2.145801941219825e-008	1.007658e+000	1.000000e+000
2.175098816219825e-008	1.016156e+000	1.000000e+000
2.204395691219825e-008	1.025141e+000	1.000000e+000
2.233692566219825e-008	1.034608e+000	1.000000e+000
2.262989441219825e-008	1.044555e+000	1.000000e+000
2.292286316219825e-008	1.054989e+000	1.000000e+000
2.321583191219825e-008	1.065927e+000	1.000000e+000
2.350880066219825e-008	1.077397e+000	1.000000e+000
2.380176941219825e-008	1.089429e+000	1.000000e+000
2.409473816219825e-008	1.102052e+000	1.000000e+000
2.438770691219825e-008	1.115278e+000	1.000000e+000
2.468067566219825e-008	1.129094e+000	1.000000e+000
2.497364441219825e-008	1.143454e+000	1.000000e+000
2.526661316219825e-008	1.158270e+000	1.000000e+000
2.555958191219825e-008	1.173410e+000	1.000000e+000
2.585255066219825e-008	1.188698e+000	1.000000e+000
2.614551941219825e-008	1.203922e+000	1.000000e+000
2.643848816219826e-008	1.218841e+000	1.000000e+000
2.673145691219826e-008	1.233196e+000	1.000000e+000
2.702442566219826e-008	1.246730e+000	1.000000e+000
2.731739441219826e-008	1.259196e+000	1.000000e+000
2.761036316219826e-008	1.270375e+000	1.000000e+000
2.790333191219826e-008	1.280087e+000	1.000000e+000
2.819630066219826e-008	1.288196e+000	1.000000e+000
2.848926941219826e-008	1.294616e+000	1.000000e+000
2.878223816219826e-008	1.299312e+000	1.000000e+000
2.907520691219826e-008	1.302293e+000	1.000000e+000
2.936817566219826e-008	1.303609e+000	1.000000e+000
2.966114441219826e-008	1.303340e+000	1.000000e+000
2.995411316219826e-008	1.301584e+000	1.000000e+000
3.024708191219826e-008	1.298451e+000	1.000000e+000
3.054005066219826e-008	1.294055e+000	1.000000e+000
3.083301941219826e-008	1.288504e+000	1.000000e+000
3.112598816219826e-008	1.281901e+000	1.000000e+000
3.141895691219826e-008	1.274340e+000	1.000000e+000
3.171192566219826e-008	1.265907e+000	1.000000e+000
3.200489441219826e-008	1.256690e+000	1.000000e+000
3.229786316219826e-008	1.246775e+000	1.000000e+000
3.259083191219826e-008	1.236259e+000	1.000000e+000
3.288380066219826e-008	1.225249e+000	1.000000e+000
3.317676941219826e-008	1.213870e+000	1.000000e+000
3.346973816219826e-008	1.202265e+000	1.000000e+000
3.376270691219826e-008	1.190596e+000	1.000000e+000
3.405567566219826e-008	1.179038e+000	1.000000e+000
3.434864441219827e-008	1.167780e+000	1.000000e+000
3.464161316219827e-008	1.157012e+000	1.000000e+000
3.493458191219827e-008	1.146922e+000	1.000000e+000
3.522755066219827e-008	1.137685e+000	1.000000e+000
3.552051941219827e-008	1.129455e+000	1.000000e+000
3.581348816219827e-008	1.122357e+000	1.000000e+000
3.610645691219827e-008	1.116479e+000	1.000000e+000
3.639942566219827e-008	1.111869e+000	1.000000e+000
3.669239441219827e-008	1.108530e+000	1.000000e+000
3.698536316219827e-008	1.106423e+000	1.000000e+000
3.727833191219827e-008	1.105464e+000	1.000000e+000
3.757130066219827e-008	1.105532e+000	1.000000e+000
3.786426941219827e-008	1.106474e+000	1.000000e+000
3.815723816219827e-008	1.108113e+000	1.000000e+000
3.845020691219827e-008	1.110257e+000	1.000000e+000
3.874317566219827e-008	1.112706e+000	1.000000e+000
3.903614441219827e-008	1.115267e+000	1.000000e+000
3.932911316219827e-008	1.117755e+000	1.000000e+000
3.962208191219827e-008	1.120007e+000	1.000000e+000
3.991505066219828e-008	1.121881e+000	1.000000e+000
4.020801941219828e-008	1.123264e+000	1.000000e+000
4.050098816219828e-008	1.124068e+000	1.000000e+000
4.079395691219828e-008	1.124232e+000	1.000000e+000
4.108692566219828e-008	1.123716e+000	1.000000e+000
4.137989441219828e-008	1.122495e+000	1.000000e+000
4.167286316219828e-008	1.120557e+000	1.000000e+000
4.196583191219828e-008	1.117893e+000	1.000000e+000
4.225880066219828e-008	1.114493e+000	1.000000e+000
4.255176941219828e-008	1.110346e+000	1.000000e+000
4.284473816219828e-008	1.105433e+000	1.000000e+000
4.313770691219828e-008	1.099732e+000	1.000000e+000
4.343067566219828e-008	1.093221e+000	1.000000e+000
4.372364441219828e-008	1.085880e+000	1.000000e+000
4.401661316219828e-008	1.077706e+000	1.000000e+000
4.430958191219828e-008	1.068711e+000	1.000000e+000
4.460255066219828e-008	1.058938e+000	1.000000e+000
4.489551941219828e-008	1.048458e+000	1.000000e+000
4.518848816219828e-008	1.037382e+000	1.000000e+000
4.548145691219828e-008	1.025857e+000	1.000000e+000
4.577442566219829e-008	1.014061e+000	1.000000e+000
4.606739441219829e-008	1.002200e+000	1.000000e+000
4.636036316219829e-008	9.904982e-001	1.000000e+000
4.665333191219829e-008	9.791813e-001	1.000000e+000
4.694630066219829e-008	9.684687e-001	1.000000e+000
4.723926941219829e-008	9.585577e-001	1.000000e+000
4.753223816219829e-008	9.496132e-001	1.000000e+000
4.782520691219829e-008	9.417583e-001	1.000000e+000
4.811817566219829e-008	9.350699e-001	1.000000e+000
4.841114441219829e-008	9.295777e-001	1.000000e+000
4.870411316219829e-008	9.252676e-001	1.000000e+000
4.899708191219829e-008	9.220884e-001	1.000000e+000
4.929005066219829e-008	9.199628e-001	1.000000e+000
4.958301941219829e-008	9.187974e-001	1.000000e+000
4.987598816219829e-008	9.184956e-001	1.000000e+000
5.016895691219829e-008	9.189674e-001	1.000000e+000
5.046192566219829e-008	9.201366e-001	1.000000e+000
5.075489441219829e-008	9.219458e-001	1.000000e+000
5.104786316219829e-008	9.243560e-001	1.000000e+000
5.134083191219829e-008	9.273428e-001	1.000000e+000
5.163380066219830e-008	9.308894e-001	1.000000e+000
5.192676941219830e-008	9.349774e-001	1.000000e+000
5.221973816219830e-008	9.395761e-001	1.000000e+000
5.251270691219830e-008	9.446331e-001	1.000000e+000
5.280567566219830e-008	9.500664e-001	1.000000e+000
5.309864441219830e-008	9.557605e-001	1.000000e+000
5.339161316219830e-008	9.615661e-001	1.000000e+000
5.368458191219830e-008	9.673043e-001	1.000000e+000
5.397755066219830e-008	9.727757e-001	1.000000e+000
5.427051941219830e-008	9.777720e-001	1.000000e+000
5.456348816219830e-008	9.820907e-001	1.000000e+000
5.485645691219830e-008	9.855495e-001	1.000000e+000
5.514942566219830e-008	9.880011e-001	1.000000e+000
5.544239441219830e-008	9.893438e-001	1.000000e+000
5.573536316219830e-008	9.895298e-001	1.000000e+000
5.602833191219830e-008	9.885679e-001	1.000000e+000
5.632130066219830e-008	9.865215e-001	1.000000e+000
5.661426941219830e-008	9.835021e-001	1.000000e+000
5.690723816219830e-008	9.796589e-001	1.000000e+000
5.720020691219830e-008	9.751652e-001	1.000000e+000
5.749317566219831e-008	9.702048e-001	1.000000e+000
5.778614441219831e-008	9.649575e-001	1.000000e+000
5.807911316219831e-008	9.595872e-001	1.000000e+000
5.837208191219831e-008	9.542333e-001	1.000000e+000
5.866505066219831e-008	9.490056e-001	1.000000e+000
5.895801941219831e-008	9.439830e-001	1.000000e+000
5.925098816219831e-008	9.392167e-001	1.000000e+000
5.954395691219831e-008	9.347367e-001	1.000000e+000
5.983692566219830e-008	9.305600e-001	1.000000e+000
6.012989441219830e-008	9.266995e-001	1.000000e+000
6.042286316219829e-008	9.231729e-001	1.000000e+000
6.071583191219828e-008	9.200101e-001	1.000000e+000
6.100880066219828e-008	9.172574e-001	1.000000e+000
6.130176941219827e-008	9.149787e-001	1.000000e+000
6.159473816219827e-008	9.132536e-001	1.000000e+000
6.188770691219826e-008	9.121721e-001	1.000000e+000
6.218067566219825e-008	9.118270e-001	1.000000e+000
6.247364441219825e-008	9.123052e-001	1.000000e+000
6.276661316219824e-008	9.136776e-001	1.000000e+000
6.305958191219824e-008	9.159907e-001	1.000000e+000
6.335255066219823e-008	9.192597e-001	1.000000e+000
6.364551941219822e-008	9.234634e-001	1.000000e+000
6.393848816219822e-008	9.285431e-001	1.000000e+000
6.423145691219821e-008	9.344037e-001	1.000000e+000
6.452442566219820e-008	9.409181e-001	1.000000e+000
6.481739441219820e-008	9.479343e-001	1.000000e+000
6.511036316219819e-008	9.552832e-001	1.000000e+000
6.540333191219819e-008	9.627885e-001	1.000000e+000
6.569630066219818e-008	9.702757e-001	1.000000e+000
6.598926941219817e-008	9.775805e-001	1.000000e+000
6.628223816219817e-008	9.845560e-001	1.000000e+000
6.657520691219816e-008	9.910775e-001	1.000000e+000
6.686817566219816e-008	9.970458e-001	1.000000e+000
6.716114441219815e-008	1.002388e+000	1.000000e+000
6.745411316219814e-008	1.007055e+000	1.000000e+000
6.774708191219814e-008	1.011021e+000	1.000000e+000
6.804005066219813e-008	1.014278e+000	1.000000e+000
6.833301941219813e-008	1.016831e+000	1.000000e+000
6.862598816219812e-008	1.018697e+000	1.000000e+000
6.891895691219811e-008	1.019894e+000	1.000000e+000
6.921192566219811e-008	1.020445e+000	1.000000e+000
6.950489441219810e-008	1.020371e+000	1.000000e+000
6.979786316219809e-008	1.019691e+000	1.000000e+000
7.009083191219809e-008	1.018423e+000	1.000000e+000
7.038380066219808e-008	1.016588e+000	1.000000e+000
7.067676941219808e-008	1.014205e+000	1.000000e+000
7.096973816219807e-008	1.011303e+000	1.000000e+000
7.126270691219806e-008	1.007919e+000	1.000000e+000
7.155567566219806e-008	1.004104e+000	1.000000e+000
7.184864441219805e-008	9.999228e-001	1.000000e+000
7.214161316219805e-008	9.954606e-001	1.000000e+000
7.243458191219804e-008	9.908199e-001	1.000000e+000
7.272755066219803e-008	9.861211e-001	1.000000e+000
7.302051941219803e-008	9.814987e-001	1.000000e+000
7.331348816219802e-008	9.770975e-001	1.000000e+000
7.360645691219802e-008	9.730658e-001	1.000000e+000
7.389942566219801e-008	9.695480e-001	1.000000e+000
7.419239441219800e-008	9.666767e-001	1.000000e+000
7.448536316219800e-008	9.645643e-001	1.000000e+000
7.477833191219799e-008	9.632958e-001	1.000000e+000
7.507130066219798e-008	9.629226e-001	1.000000e+000
7.536426941219798e-008	9.634594e-001	1.000000e+000
7.565723816219797e-008	9.648823e-001	1.000000e+000
7.595020691219797e-008	9.671313e-001	1.000000e+000
7.624317566219796e-008	9.701145e-001	1.000000e+000
7.653614441219795e-008	9.737157e-001	1.000000e+000
7.682911316219795e-008	9.778029e-001	1.000000e+000
7.712208191219794e-008	9.822385e-001	1.000000e+000
7.741505066219794e-008	9.868896e-001	1.000000e+000
7.770801941219793e-008	9.916368e-001	1.000000e+000
7.800098816219792e-008	9.963808e-001	1.000000e+000
7.829395691219792e-008	1.001047e+000	1.000000e+000
7.858692566219791e-008	1.005587e+000	1.000000e+000
7.887989441219791e-008	1.009974e+000	1.000000e+000
7.917286316219790e-008	1.014200e+000	1.000000e+000
7.946583191219789e-008	1.018266e+000	1.000000e+000
7.975880066219789e-008	1.022177e+000	1.000000e+000
8.005176941219788e-008	1.025927e+000	1.000000e+000
8.034473816219787e-008	1.029496e+000	1.000000e+000
8.063770691219787e-008	1.032844e+000	1.000000e+000
8.093067566219786e-008	1.035905e+000	1.000000e+000
8.122364441219786e-008	1.038595e+000	1.000000e+000
8.151661316219785e-008	1.040811e+000	1.000000e+000
8.180958191219784e-008	1.042441e+000	1.000000e+000
8.210255066219784e-008	1.043375e+000	1.000000e+000
8.239551941219783e-008	1.043520e+000	1.000000e+000
8.268848816219783e-008	1.042805e+000	1.000000e+000
8.298145691219782e-008	1.041197e+000	1.000000e+000
8.327442566219781e-008	1.038702e+000	1.000000e+000
8.356739441219781e-008	1.035376e+000	1.000000e+000
8.386036316219780e-008	1.031315e+000	1.000000e+000
8.415333191219780e-008	1.026659e+000	1.000000e+000
8.444630066219779e-008	1.021572e+000	1.000000e+000
8.473926941219778e-008	1.016238e+000	1.000000e+000
8.503223816219778e-008	1.010845e+000	1.000000e+000
8.532520691219777e-008	1.005570e+000	1.000000e+000
8.561817566219776e-008	1.000566e+000	1.000000e+000
8.591114441219776e-008	9.959579e-001	1.000000e+000
8.620411316219775e-008	9.918298e-001	1.000000e+000
8.649708191219775e-008	9.882296e-001	1.000000e+000
8.679005066219774e-008	9.851691e-001	1.000000e+000
8.708301941219773e-008	9.826316e-001	1.000000e+000
8.737598816219773e-008	9.805810e-001	1.000000e+000
8.766895691219772e-008	9.789727e-001	1.000000e+000
8.796192566219772e-008	9.777640e-001	1.000000e+000
8.825489441219771e-008	9.769236e-001	1.000000e+000
8.854786316219770e-008	9.764374e-001	1.000000e+000
8.884083191219770e-008	9.763121e-001	1.000000e+000
8.913380066219769e-008	9.765732e-001	1.000000e+000
8.942676941219769e-008	9.772611e-001	1.000000e+000
8.971973816219768e-008	9.784235e-001	1.000000e+000
9.001270691219767e-008	9.801049e-001	1.000000e+000
9.030567566219767e-008	9.823371e-001	1.000000e+000
9.059864441219766e-008	9.851292e-001	1.000000e+000
9.089161316219765e-008	9.884604e-001	1.000000e+000
9.118458191219765e-008	9.922752e-001	1.000000e+000
9.147755066219764e-008	9.964832e-001	1.000000e+000
9.177051941219764e-008	1.000962e+000	1.000000e+000
9.206348816219763e-008	1.005563e+000	1.000000e+000
9.235645691219762e-008	1.010123e+000	1.000000e+000
9.264942566219762e-008	1.014475e+000	1.000000e+000
9.294239441219761e-008	1.018461e+000	1.000000e+000
9.323536316219761e-008	1.021940e+000	1.000000e+000
9.352833191219760e-008	1.024802e+000	1.000000e+000
9.382130066219759e-008	1.026971e+000	1.000000e+000
9.411426941219759e-008	1.028411e+000	1.000000e+000
9.440723816219758e-008	1.029121e+000	1.000000e+000
9.470020691219758e-008	1.029136e+000	1.000000e+000
9.499317566219757e-008	1.028517e+000	1.000000e+000
9.528614441219756e-008	1.027342e+000	1.000000e+000
9.557911316219756e-008	1.025701e+000	1.000000e+000
9.587208191219755e-008	1.023681e+000	1.000000e+000
9.616505066219754e-008	1.021360e+000	1.000000e+000
9.645801941219754e-008	1.018807e+000	1.000000e+000
9.675098816219753e-008	1.016068e+000	1.000000e+000
9.704395691219753e-008	1.013177e+000	1.000000e+000
9.733692566219752e-008	1.010150e+000	1.000000e+000
9.762989441219751e-008	1.006992e+000	1.000000e+000
9.792286316219751e-008	1.003705e+000	1.000000e+000
9.821583191219750e-008	1.000288e+000	1.000000e+000
9.850880066219750e-008	9.967529e-001	1.000000e+000
9.880176941219749e-008	9.931190e-001	1.000000e+000
9.909473816219748e-008	9.894240e-001	1.000000e+000
9.938770691219748e-008	9.857229e-001	1.000000e+000
9.968067566219747e-008	9.820879e-001	1.000000e+000
9.997364441219747e-008	9.786059e-001	1.000000e+000
1.002666131621975e-007	9.753743e-001	1.000000e+000
1.005595819121975e-007	9.724957e-001	1.000000e+000
