time	V(out)	V(n014)
0.000000000000000e+000	0.000000e+000	0.000000e+000
2.929687488293547e-015	0.000000e+000	3.906250e-007
5.859374976587093e-015	0.000000e+000	7.812500e-007
6.862165151151572e-012	0.000000e+000	9.149554e-004
1.371847092732656e-011	0.000000e+000	1.829129e-003
2.057477670350154e-011	0.000000e+000	2.743304e-003
2.743108247967653e-011	0.000000e+000	3.657478e-003
3.428738825585152e-011	0.000000e+000	4.571652e-003
4.114369403202650e-011	0.000000e+000	5.485826e-003
4.799999980820147e-011	0.000000e+000	6.400000e-003
9.599999961640293e-011	0.000000e+000	1.280000e-002
1.404606014236564e-010	0.000000e+000	1.872808e-002
1.783236865824397e-010	0.000000e+000	2.377649e-002
2.133624804419516e-010	0.000000e+000	2.844833e-002
2.524063542346299e-010	0.000000e+000	3.365418e-002
2.929017788970761e-010	0.000000e+000	3.905357e-002
3.425937548498223e-010	0.000000e+000	4.567917e-002
3.978514655120646e-010	0.000000e+000	5.304686e-002
4.645797710677493e-010	0.000000e+000	6.194397e-002
5.403068812387479e-010	0.000000e+000	7.204092e-002
6.307358062350097e-010	0.000000e+000	8.409811e-002
7.079893803692073e-010	0.000000e+000	9.439858e-002
7.836459236611403e-010	0.000000e+000	1.044861e-001
8.648150319715844e-010	0.000000e+000	1.153087e-001
9.533838991931497e-010	0.000000e+000	1.271179e-001
1.051271808406193e-009	0.000000e+000	1.401696e-001
1.159241009936825e-009	0.000000e+000	1.545655e-001
1.278989387682819e-009	0.000000e+000	1.705319e-001
1.396557812889039e-009	0.000000e+000	1.862077e-001
1.506237046328304e-009	0.000000e+000	2.008316e-001
1.622814105635589e-009	0.000000e+000	2.163752e-001
1.745252821730086e-009	0.000000e+000	2.327004e-001
1.878826092854384e-009	0.000000e+000	2.505102e-001
2.021722797969868e-009	0.000000e+000	2.695630e-001
2.177735489724541e-009	0.000000e+000	2.903647e-001
2.313196995328131e-009	0.000000e+000	3.084263e-001
2.459900481670870e-009	0.000000e+000	3.279867e-001
2.607287993545802e-009	0.000000e+000	3.476384e-001
2.769490393999830e-009	0.000000e+000	3.692654e-001
2.937795244884685e-009	0.000000e+000	3.917060e-001
3.121752779806797e-009	0.000000e+000	4.162337e-001
3.302564045350677e-009	0.000000e+000	4.403419e-001
3.469658383610880e-009	0.000000e+000	4.626211e-001
3.654680100658397e-009	0.000000e+000	4.872907e-001
3.840312537738033e-009	0.000000e+000	5.120417e-001
4.044516618965164e-009	0.000000e+000	5.392689e-001
4.226669781462586e-009	0.000000e+000	5.635560e-001
4.419778485476044e-009	0.000000e+000	5.893038e-001
4.613673745656622e-009	0.000000e+000	6.151565e-001
4.822239577024971e-009	0.000000e+000	6.429653e-001
5.037098088506534e-009	0.000000e+000	6.716131e-001
5.236795395219280e-009	0.000000e+000	6.982394e-001
5.448908135315591e-009	0.000000e+000	7.265211e-001
5.663104086941396e-009	0.000000e+000	7.550805e-001
5.892346289669735e-009	0.000000e+000	7.856462e-001
6.128686221104129e-009	0.000000e+000	8.171582e-001
6.348393864609713e-009	0.000000e+000	8.464525e-001
6.580961246196583e-009	0.000000e+000	8.774615e-001
6.815431378825464e-009	0.000000e+000	9.087242e-001
7.065560019239107e-009	0.000000e+000	9.420747e-001
7.242624907133064e-009	0.000000e+000	9.656833e-001
7.277489925239902e-009	0.000000e+000	9.703320e-001
7.360539927572647e-009	0.000000e+000	9.814053e-001
7.440459724287058e-009	0.000000e+000	9.920613e-001
7.499999999999999e-009	0.000000e+000	1.000000e+000
7.505954027571293e-009	0.000000e+000	1.000000e+000
7.517862082713881e-009	0.000000e+000	1.000000e+000
7.589310413569412e-009	0.000000e+000	1.000000e+000
7.684574854710119e-009	0.000000e+000	1.000000e+000
7.875103736991531e-009	0.000000e+000	1.000000e+000
8.123554248326678e-009	0.000000e+000	1.000000e+000
8.384916041070166e-009	0.000000e+000	1.000000e+000
8.647038859881330e-009	0.000000e+000	1.000000e+000
8.906879614817844e-009	0.000000e+000	1.000000e+000
9.181206805942826e-009	0.000000e+000	1.000000e+000
9.461876288653267e-009	0.000000e+000	1.000000e+000
9.748537047862401e-009	0.000000e+000	1.000000e+000
1.001772525387969e-008	0.000000e+000	1.000000e+000
1.030999782555242e-008	0.000000e+000	1.000000e+000
1.060051687718181e-008	0.000000e+000	1.000000e+000
1.089348562718181e-008	0.000000e+000	1.000000e+000
1.117828627729721e-008	0.000000e+000	1.000000e+000
1.147125502729721e-008	0.000000e+000	1.000000e+000
1.176422377729721e-008	0.000000e+000	1.000000e+000
1.205719252729721e-008	0.000000e+000	1.000000e+000
1.235016127729721e-008	0.000000e+000	1.000000e+000
1.264313002729722e-008	0.000000e+000	1.000000e+000
1.293609877729722e-008	0.000000e+000	1.000000e+000
1.322906752729722e-008	0.000000e+000	1.000000e+000
1.352203627729722e-008	0.000000e+000	1.000000e+000
1.381500502729722e-008	0.000000e+000	1.000000e+000
1.410797377729722e-008	0.000000e+000	1.000000e+000
1.440094252729722e-008	0.000000e+000	1.000000e+000
1.469391127729722e-008	0.000000e+000	1.000000e+000
1.498688002729722e-008	0.000000e+000	1.000000e+000
1.527984877729722e-008	0.000000e+000	1.000000e+000
1.557281752729722e-008	0.000000e+000	1.000000e+000
1.586578627729722e-008	0.000000e+000	1.000000e+000
1.615875502729722e-008	0.000000e+000	1.000000e+000
1.645172377729722e-008	0.000000e+000	1.000000e+000
1.674469252729722e-008	0.000000e+000	1.000000e+000
1.703766127729722e-008	0.000000e+000	1.000000e+000
1.733063002729722e-008	0.000000e+000	1.000000e+000
1.762359877729722e-008	0.000000e+000	1.000000e+000
1.791656752729722e-008	0.000000e+000	1.000000e+000
1.820953627729722e-008	0.000000e+000	1.000000e+000
1.850250502729722e-008	0.000000e+000	1.000000e+000
1.879547377729722e-008	0.000000e+000	1.000000e+000
1.908844252729722e-008	0.000000e+000	1.000000e+000
1.938141127729722e-008	0.000000e+000	1.000000e+000
1.967438002729723e-008	0.000000e+000	1.000000e+000
1.996734877729723e-008	0.000000e+000	1.000000e+000
2.026031752729723e-008	0.000000e+000	1.000000e+000
2.055328627729723e-008	0.000000e+000	1.000000e+000
2.084625502729723e-008	0.000000e+000	1.000000e+000
2.113922377729723e-008	0.000000e+000	1.000000e+000
2.143219252729723e-008	0.000000e+000	1.000000e+000
2.172516127729723e-008	0.000000e+000	1.000000e+000
2.201813002729723e-008	0.000000e+000	1.000000e+000
2.231109877729723e-008	0.000000e+000	1.000000e+000
2.260406752729723e-008	0.000000e+000	1.000000e+000
2.285365269207684e-008	0.000000e+000	1.000000e+000
2.310586097547171e-008	0.000000e+000	1.000000e+000
2.339208877599938e-008	0.000000e+000	1.000000e+000
2.368505752599938e-008	0.000000e+000	1.000000e+000
2.397802627599938e-008	1.401298e-045	1.000000e+000
2.427099502599938e-008	5.605194e-045	1.000000e+000
2.456396377599938e-008	1.541428e-044	1.000000e+000
2.485693252599938e-008	4.484155e-044	1.000000e+000
2.514990127599938e-008	1.317221e-043	1.000000e+000
2.544287002599938e-008	3.447194e-043	1.000000e+000
2.564658833159406e-008	6.698207e-043	1.000000e+000
2.583078433431806e-008	1.256965e-042	1.000000e+000
2.601642981449069e-008	2.390615e-042	1.000000e+000
2.620935373968512e-008	4.897538e-042	1.000000e+000
2.646408109609369e-008	1.244353e-041	1.000000e+000
2.672770709459905e-008	3.243586e-041	1.000000e+000
2.702067584459905e-008	9.182709e-041	1.000000e+000
2.731364459459906e-008	2.531460e-040	1.000000e+000
2.760661334459906e-008	6.905627e-040	1.000000e+000
2.789958209459906e-008	1.864436e-039	1.000000e+000
2.819255084459906e-008	4.982883e-039	1.000000e+000
2.848551959459906e-008	1.318490e-038	1.000000e+000
2.877848834459906e-008	3.454678e-038	1.000000e+000
2.907145709459906e-008	8.964836e-038	1.000000e+000
2.936442584459906e-008	2.304352e-037	1.000000e+000
2.965739459459906e-008	5.868033e-037	1.000000e+000
2.995036334459906e-008	1.480598e-036	1.000000e+000
3.024333209459906e-008	3.702070e-036	1.000000e+000
3.053630084459906e-008	9.174343e-036	1.000000e+000
3.082926959459906e-008	2.253652e-035	1.000000e+000
3.112223834459906e-008	5.488292e-035	1.000000e+000
3.141520709459906e-008	1.325200e-034	1.000000e+000
3.170817584459906e-008	3.173022e-034	1.000000e+000
3.200114459459906e-008	7.534684e-034	1.000000e+000
3.229411334459906e-008	1.774632e-033	1.000000e+000
3.258708209459906e-008	4.146224e-033	1.000000e+000
3.288005084459906e-008	9.610520e-033	1.000000e+000
3.317301959459906e-008	2.210233e-032	1.000000e+000
3.346598834459906e-008	5.043966e-032	1.000000e+000
3.375895709459906e-008	1.142338e-031	1.000000e+000
3.405192584459906e-008	2.567727e-031	1.000000e+000
3.434489459459906e-008	5.728991e-031	1.000000e+000
3.463786334459906e-008	1.268890e-030	1.000000e+000
3.493083209459906e-008	2.790149e-030	1.000000e+000
3.522380084459907e-008	6.091554e-030	1.000000e+000
3.551676959459907e-008	1.320581e-029	1.000000e+000
3.580973834459907e-008	2.842996e-029	1.000000e+000
3.610270709459907e-008	6.078534e-029	1.000000e+000
3.639567584459907e-008	1.290830e-028	1.000000e+000
3.668864459459907e-008	2.722843e-028	1.000000e+000
3.698161334459907e-008	5.705504e-028	1.000000e+000
3.727458209459907e-008	1.187728e-027	1.000000e+000
3.756755084459907e-008	2.456548e-027	1.000000e+000
3.786051959459907e-008	5.048363e-027	1.000000e+000
3.815348834459907e-008	1.030920e-026	1.000000e+000
3.844645709459907e-008	2.092086e-026	1.000000e+000
3.873942584459907e-008	4.219342e-026	1.000000e+000
3.903239459459907e-008	8.457656e-026	1.000000e+000
3.932536334459907e-008	1.685096e-025	1.000000e+000
3.961833209459907e-008	3.337313e-025	1.000000e+000
3.991130084459907e-008	6.570449e-025	1.000000e+000
4.020426959459907e-008	1.286015e-024	1.000000e+000
4.049723834459907e-008	2.502516e-024	1.000000e+000
4.079020709459908e-008	4.841874e-024	1.000000e+000
4.108317584459908e-008	9.314974e-024	1.000000e+000
4.137614459459908e-008	1.781995e-023	1.000000e+000
4.166911334459908e-008	3.390102e-023	1.000000e+000
4.196208209459908e-008	6.272335e-023	1.000000e+000
4.220285810912358e-008	1.048155e-022	1.000000e+000
4.246883113384350e-008	1.852271e-022	1.000000e+000
4.272490966240196e-008	3.220195e-022	1.000000e+000
4.301787841240196e-008	6.031298e-022	1.000000e+000
4.331084716240196e-008	1.113598e-021	1.000000e+000
4.360381591240196e-008	2.045382e-021	1.000000e+000
4.389678466240196e-008	3.737407e-021	1.000000e+000
4.418975341240196e-008	6.794176e-021	1.000000e+000
4.448272216240196e-008	1.228837e-020	1.000000e+000
4.477569091240196e-008	2.211376e-020	1.000000e+000
4.506865966240197e-008	3.959694e-020	1.000000e+000
4.536162841240197e-008	7.055220e-020	1.000000e+000
4.565459716240197e-008	1.250916e-019	1.000000e+000
4.594756591240197e-008	2.207157e-019	1.000000e+000
4.624053466240197e-008	3.875643e-019	1.000000e+000
4.653350341240197e-008	6.772946e-019	1.000000e+000
4.682647216240197e-008	1.178019e-018	1.000000e+000
4.711944091240197e-008	2.039316e-018	1.000000e+000
4.741240966240197e-008	3.513919e-018	1.000000e+000
4.770537841240197e-008	6.026847e-018	1.000000e+000
4.799834716240197e-008	1.028954e-017	1.000000e+000
4.829131591240197e-008	1.748740e-017	1.000000e+000
4.858428466240197e-008	2.958647e-017	1.000000e+000
4.887725341240197e-008	4.983280e-017	1.000000e+000
4.917022216240197e-008	8.356159e-017	1.000000e+000
4.946319091240197e-008	1.395025e-016	1.000000e+000
4.975615966240197e-008	2.318758e-016	1.000000e+000
5.004912841240197e-008	3.837438e-016	1.000000e+000
5.034209716240197e-008	6.323444e-016	1.000000e+000
5.063506591240197e-008	1.037543e-015	1.000000e+000
5.092803466240198e-008	1.695164e-015	1.000000e+000
5.122100341240198e-008	2.757934e-015	1.000000e+000
5.151397216240198e-008	4.468229e-015	1.000000e+000
5.180694091240198e-008	7.209065e-015	1.000000e+000
5.209990966240198e-008	1.158315e-014	1.000000e+000
5.239287841240198e-008	1.853494e-014	1.000000e+000
5.268584716240198e-008	2.953820e-014	1.000000e+000
5.297881591240198e-008	4.688318e-014	1.000000e+000
5.327178466240198e-008	7.411423e-014	1.000000e+000
5.356475341240198e-008	1.166941e-013	1.000000e+000
5.385772216240198e-008	1.830080e-013	1.000000e+000
5.415069091240198e-008	2.858749e-013	1.000000e+000
5.444365966240198e-008	4.448126e-013	1.000000e+000
5.473662841240198e-008	6.894200e-013	1.000000e+000
5.502959716240198e-008	1.064404e-012	1.000000e+000
5.532256591240198e-008	1.637023e-012	1.000000e+000
5.561553466240198e-008	2.508064e-012	1.000000e+000
5.590850341240198e-008	3.827963e-012	1.000000e+000
5.620147216240198e-008	5.820380e-012	1.000000e+000
5.649444091240199e-008	8.816549e-012	1.000000e+000
5.678740966240199e-008	1.330512e-011	1.000000e+000
5.708037841240199e-008	2.000416e-011	1.000000e+000
5.737334716240199e-008	2.996485e-011	1.000000e+000
5.766631591240199e-008	4.472009e-011	1.000000e+000
5.795928466240199e-008	6.649668e-011	1.000000e+000
5.825225341240199e-008	9.851728e-011	1.000000e+000
5.854522216240199e-008	1.454279e-010	1.000000e+000
5.883819091240199e-008	2.139014e-010	1.000000e+000
5.913115966240199e-008	3.134858e-010	1.000000e+000
5.942412841240199e-008	4.577916e-010	1.000000e+000
5.971709716240198e-008	6.661476e-010	1.000000e+000
6.001006591240198e-008	9.659021e-010	1.000000e+000
6.030303466240197e-008	1.395605e-009	1.000000e+000
6.059600341240197e-008	2.009396e-009	1.000000e+000
6.088897216240196e-008	2.883027e-009	1.000000e+000
6.118194091240195e-008	4.122099e-009	1.000000e+000
6.147490966240195e-008	5.873281e-009	1.000000e+000
6.176787841240194e-008	8.339539e-009	1.000000e+000
6.206084716240194e-008	1.180071e-008	1.000000e+000
6.235381591240193e-008	1.664120e-008	1.000000e+000
6.264678466240192e-008	2.338716e-008	1.000000e+000
6.293975341240192e-008	3.275607e-008	1.000000e+000
6.323272216240191e-008	4.572283e-008	1.000000e+000
6.352569091240190e-008	6.360722e-008	1.000000e+000
6.381865966240190e-008	8.818949e-008	1.000000e+000
6.411162841240189e-008	1.218622e-007	1.000000e+000
6.440459716240189e-008	1.678294e-007	1.000000e+000
6.469756591240188e-008	2.303658e-007	1.000000e+000
6.499053466240187e-008	3.151546e-007	1.000000e+000
6.528350341240187e-008	4.297233e-007	1.000000e+000
6.557647216240186e-008	5.840071e-007	1.000000e+000
6.586944091240186e-008	7.910703e-007	1.000000e+000
6.616240966240185e-008	1.068030e-006	1.000000e+000
6.645537841240184e-008	1.437234e-006	1.000000e+000
6.674834716240184e-008	1.927746e-006	1.000000e+000
6.704131591240183e-008	2.577237e-006	1.000000e+000
6.733428466240182e-008	3.434346e-006	1.000000e+000
6.762725341240182e-008	4.561651e-006	1.000000e+000
6.792022216240181e-008	6.039365e-006	1.000000e+000
6.821319091240181e-008	7.969928e-006	1.000000e+000
6.850615966240180e-008	1.048369e-005	1.000000e+000
6.879912841240179e-008	1.374588e-005	1.000000e+000
6.909209716240179e-008	1.796522e-005	1.000000e+000
6.938506591240178e-008	2.340430e-005	1.000000e+000
6.967803466240178e-008	3.039236e-005	1.000000e+000
6.997100341240177e-008	3.934054e-005	1.000000e+000
7.026397216240176e-008	5.076042e-005	1.000000e+000
7.055694091240176e-008	6.528608e-005	1.000000e+000
7.084990966240175e-008	8.370045e-005	1.000000e+000
7.114287841240175e-008	1.069666e-004	1.000000e+000
7.143584716240174e-008	1.362645e-004	1.000000e+000
7.172881591240173e-008	1.730343e-004	1.000000e+000
7.202178466240173e-008	2.190270e-004	1.000000e+000
7.231475341240172e-008	2.763629e-004	1.000000e+000
7.260772216240171e-008	3.475991e-004	1.000000e+000
7.290069091240171e-008	4.358077e-004	1.000000e+000
7.319365966240170e-008	5.446638e-004	1.000000e+000
7.348662841240170e-008	6.785463e-004	1.000000e+000
7.377959716240169e-008	8.426509e-004	1.000000e+000
7.407256591240168e-008	1.043116e-003	1.000000e+000
7.436553466240168e-008	1.287165e-003	1.000000e+000
7.465850341240167e-008	1.583257e-003	1.000000e+000
7.495147216240167e-008	1.941259e-003	1.000000e+000
7.524444091240166e-008	2.372628e-003	1.000000e+000
7.553740966240165e-008	2.890603e-003	1.000000e+000
7.583037841240165e-008	3.510417e-003	1.000000e+000
7.612334716240164e-008	4.249513e-003	1.000000e+000
7.641631591240164e-008	5.127762e-003	1.000000e+000
7.670928466240163e-008	6.167701e-003	1.000000e+000
7.700225341240162e-008	7.394746e-003	1.000000e+000
7.729522216240162e-008	8.837427e-003	1.000000e+000
7.758819091240161e-008	1.052758e-002	1.000000e+000
7.788115966240160e-008	1.250056e-002	1.000000e+000
7.817412841240160e-008	1.479535e-002	1.000000e+000
7.846709716240159e-008	1.745476e-002	1.000000e+000
7.876006591240159e-008	2.052542e-002	1.000000e+000
7.905303466240158e-008	2.405785e-002	1.000000e+000
7.934600341240157e-008	2.810640e-002	1.000000e+000
7.963897216240157e-008	3.272906e-002	1.000000e+000
7.993194091240156e-008	3.798733e-002	1.000000e+000
8.022490966240156e-008	4.394577e-002	1.000000e+000
8.051787841240155e-008	5.067163e-002	1.000000e+000
8.081084716240154e-008	5.823425e-002	1.000000e+000
8.110381591240154e-008	6.670431e-002	1.000000e+000
8.139678466240153e-008	7.615305e-002	1.000000e+000
8.168975341240153e-008	8.665121e-002	1.000000e+000
8.198272216240152e-008	9.826793e-002	1.000000e+000
8.227569091240151e-008	1.110695e-001	1.000000e+000
8.256865966240151e-008	1.251179e-001	1.000000e+000
8.286162841240150e-008	1.404695e-001	1.000000e+000
8.315459716240149e-008	1.571731e-001	1.000000e+000
8.344756591240149e-008	1.752686e-001	1.000000e+000
8.374053466240148e-008	1.947853e-001	1.000000e+000
8.403350341240148e-008	2.157400e-001	1.000000e+000
8.432647216240147e-008	2.381354e-001	1.000000e+000
8.461944091240146e-008	2.619590e-001	1.000000e+000
8.491240966240146e-008	2.871811e-001	1.000000e+000
8.520537841240145e-008	3.137539e-001	1.000000e+000
8.549834716240145e-008	3.416106e-001	1.000000e+000
8.579131591240144e-008	3.706645e-001	1.000000e+000
8.608428466240143e-008	4.008092e-001	1.000000e+000
8.637725341240143e-008	4.319181e-001	1.000000e+000
8.667022216240142e-008	4.638453e-001	1.000000e+000
8.696319091240142e-008	4.964268e-001	1.000000e+000
8.725615966240141e-008	5.294814e-001	1.000000e+000
8.754912841240140e-008	5.628132e-001	1.000000e+000
8.784209716240140e-008	5.962139e-001	1.000000e+000
8.813506591240139e-008	6.294659e-001	1.000000e+000
8.842803466240138e-008	6.623451e-001	1.000000e+000
8.872100341240138e-008	6.946253e-001	1.000000e+000
8.901397216240137e-008	7.260817e-001	1.000000e+000
8.930694091240137e-008	7.564954e-001	1.000000e+000
8.959990966240136e-008	7.856575e-001	1.000000e+000
8.989287841240135e-008	8.133731e-001	1.000000e+000
9.018584716240135e-008	8.394662e-001	1.000000e+000
9.047881591240134e-008	8.637826e-001	1.000000e+000
9.077178466240134e-008	8.861941e-001	1.000000e+000
9.106475341240133e-008	9.066007e-001	1.000000e+000
9.135772216240132e-008	9.249338e-001	1.000000e+000
9.165069091240132e-008	9.411570e-001	1.000000e+000
9.194365966240131e-008	9.552673e-001	1.000000e+000
9.223662841240131e-008	9.672950e-001	1.000000e+000
9.252959716240130e-008	9.773027e-001	1.000000e+000
9.282256591240129e-008	9.853835e-001	1.000000e+000
9.311553466240129e-008	9.916583e-001	1.000000e+000
9.340850341240128e-008	9.962729e-001	1.000000e+000
9.370147216240127e-008	9.993932e-001	1.000000e+000
9.399444091240127e-008	1.001201e+000	1.000000e+000
9.428740966240126e-008	1.001890e+000	1.000000e+000
9.458037841240126e-008	1.001657e+000	1.000000e+000
9.487334716240125e-008	1.000702e+000	1.000000e+000
9.516631591240124e-008	9.992194e-001	1.000000e+000
9.545928466240124e-008	9.973930e-001	1.000000e+000
9.575225341240123e-008	9.953934e-001	1.000000e+000
9.604522216240123e-008	9.933734e-001	1.000000e+000
9.633819091240122e-008	9.914650e-001	1.000000e+000
9.663115966240121e-008	9.897772e-001	1.000000e+000
9.692412841240121e-008	9.883947e-001	1.000000e+000
9.721709716240120e-008	9.873779e-001	1.000000e+000
9.751006591240120e-008	9.867628e-001	1.000000e+000
9.780303466240119e-008	9.865627e-001	1.000000e+000
9.809600341240118e-008	9.867705e-001	1.000000e+000
9.838897216240118e-008	9.873609e-001	1.000000e+000
9.868194091240117e-008	9.882938e-001	1.000000e+000
9.897490966240116e-008	9.895177e-001	1.000000e+000
9.926787841240116e-008	9.909734e-001	1.000000e+000
9.956084716240115e-008	9.925973e-001	1.000000e+000
9.985381591240115e-008	9.943247e-001	1.000000e+000
1.001467846624011e-007	9.960933e-001	1.000000e+000
1.004397534124011e-007	9.978448e-001	1.000000e+000
1.007327221624011e-007	9.995277e-001	1.000000e+000
1.010256909124011e-007	1.001099e+000	1.000000e+000
