time	V(out)	V(n001)
0.000000000000000e+000	0.000000e+000	0.000000e+000
2.929687488293547e-015	0.000000e+000	3.906250e-007
5.859374976587093e-015	0.000000e+000	7.812500e-007
6.862165151151572e-012	0.000000e+000	9.149554e-004
1.371847092732656e-011	0.000000e+000	1.829129e-003
2.057477670350154e-011	0.000000e+000	2.743304e-003
2.743108247967653e-011	0.000000e+000	3.657478e-003
3.428738825585152e-011	0.000000e+000	4.571652e-003
4.114369403202650e-011	0.000000e+000	5.485826e-003
4.799999980820147e-011	0.000000e+000	6.400000e-003
9.599999961640293e-011	0.000000e+000	1.280000e-002
1.404606014236565e-010	0.000000e+000	1.872808e-002
1.783236865824398e-010	0.000000e+000	2.377649e-002
2.133624804419516e-010	0.000000e+000	2.844833e-002
2.524063542346297e-010	0.000000e+000	3.365418e-002
2.929017788970762e-010	0.000000e+000	3.905357e-002
3.425937548498220e-010	0.000000e+000	4.567917e-002
3.978514655120642e-010	0.000000e+000	5.304686e-002
4.645797710677486e-010	0.000000e+000	6.194397e-002
5.403068812387476e-010	0.000000e+000	7.204092e-002
6.307358062350090e-010	0.000000e+000	8.409811e-002
7.079893803692061e-010	0.000000e+000	9.439858e-002
7.836459236611387e-010	0.000000e+000	1.044861e-001
8.648150319715850e-010	0.000000e+000	1.153087e-001
9.533838991931495e-010	0.000000e+000	1.271179e-001
1.051271808406195e-009	0.000000e+000	1.401696e-001
1.159241009936828e-009	0.000000e+000	1.545655e-001
1.278989387682822e-009	0.000000e+000	1.705319e-001
1.396557812889042e-009	0.000000e+000	1.862077e-001
1.506237046328307e-009	0.000000e+000	2.008316e-001
1.622814105635592e-009	0.000000e+000	2.163752e-001
1.745252821730090e-009	0.000000e+000	2.327004e-001
1.878826092854392e-009	0.000000e+000	2.505102e-001
2.021722797969882e-009	0.000000e+000	2.695630e-001
2.177735489724570e-009	0.000000e+000	2.903647e-001
2.313196995441448e-009	0.000000e+000	3.084263e-001
2.459900481889272e-009	0.000000e+000	3.279867e-001
2.607287994033612e-009	0.000000e+000	3.476384e-001
2.769490394963849e-009	0.000000e+000	3.692654e-001
2.937795246810041e-009	0.000000e+000	3.917060e-001
3.121752783602838e-009	0.000000e+000	4.162337e-001
3.302567426918073e-009	0.000000e+000	4.403423e-001
3.469663158169185e-009	0.000000e+000	4.626217e-001
3.654689521797214e-009	0.000000e+000	4.872919e-001
3.840326689612211e-009	0.000000e+000	5.120435e-001
4.044539681067157e-009	0.000000e+000	5.392720e-001
4.227764994987606e-009	0.000000e+000	5.637020e-001
4.422060863015607e-009	0.000000e+000	5.896081e-001
4.617703286808859e-009	0.000000e+000	6.156937e-001
4.828249794968700e-009	0.000000e+000	6.437666e-001
5.045663481100010e-009	0.000000e+000	6.727551e-001
5.245441075231733e-009	0.000000e+000	6.993921e-001
5.458755053440760e-009	0.000000e+000	7.278340e-001
5.673038340546209e-009	0.000000e+000	7.564051e-001
5.903234374701521e-009	0.000000e+000	7.870979e-001
6.139853745656884e-009	0.000000e+000	8.186471e-001
6.361321752244273e-009	0.000000e+000	8.481762e-001
6.593822328680316e-009	0.000000e+000	8.791763e-001
6.829555108356707e-009	0.000000e+000	9.106073e-001
7.079883430092167e-009	0.000000e+000	9.439844e-001
7.241472718691558e-009	0.000000e+000	9.655297e-001
7.281792218401954e-009	0.000000e+000	9.709056e-001
7.362431217822746e-009	0.000000e+000	9.816575e-001
7.499999999999999e-009	0.000000e+000	1.000000e+000
7.513756878217725e-009	0.000000e+000	1.000000e+000
7.541270634653175e-009	0.000000e+000	1.000000e+000
7.596298147524077e-009	0.000000e+000	1.000000e+000
7.706353173265880e-009	0.000000e+000	1.000000e+000
7.926463224749485e-009	0.000000e+000	1.000000e+000
8.165171580565447e-009	0.000000e+000	1.000000e+000
8.402737421335003e-009	0.000000e+000	1.000000e+000
8.670384792129401e-009	0.000000e+000	1.000000e+000
8.933169998465607e-009	0.000000e+000	1.000000e+000
9.208781481879363e-009	0.000000e+000	1.000000e+000
9.491159325500198e-009	0.000000e+000	1.000000e+000
9.769926750783287e-009	0.000000e+000	1.000000e+000
1.004426433841710e-008	0.000000e+000	1.000000e+000
1.033306080973034e-008	0.000000e+000	1.000000e+000
1.062602955973034e-008	0.000000e+000	1.000000e+000
1.091812713245673e-008	0.000000e+000	1.000000e+000
1.120504552286782e-008	0.000000e+000	1.000000e+000
1.149801427286782e-008	0.000000e+000	1.000000e+000
1.179098302286782e-008	0.000000e+000	1.000000e+000
1.208395177286782e-008	0.000000e+000	1.000000e+000
1.237692052286782e-008	0.000000e+000	1.000000e+000
1.266988927286782e-008	0.000000e+000	1.000000e+000
1.296285802286782e-008	0.000000e+000	1.000000e+000
1.325582677286783e-008	0.000000e+000	1.000000e+000
1.354879552286783e-008	0.000000e+000	1.000000e+000
1.384176427286783e-008	0.000000e+000	1.000000e+000
1.413473302286783e-008	0.000000e+000	1.000000e+000
1.442770177286783e-008	0.000000e+000	1.000000e+000
1.472067052286783e-008	0.000000e+000	1.000000e+000
1.501363927286783e-008	0.000000e+000	1.000000e+000
1.530660802286783e-008	0.000000e+000	1.000000e+000
1.559957677286783e-008	0.000000e+000	1.000000e+000
1.589254552286783e-008	0.000000e+000	1.000000e+000
1.618551427286783e-008	0.000000e+000	1.000000e+000
1.647848302286783e-008	0.000000e+000	1.000000e+000
1.677145177286783e-008	0.000000e+000	1.000000e+000
1.706442052286783e-008	0.000000e+000	1.000000e+000
1.735738927286783e-008	0.000000e+000	1.000000e+000
1.765035802286783e-008	0.000000e+000	1.000000e+000
1.794332677286783e-008	0.000000e+000	1.000000e+000
1.823629552286783e-008	0.000000e+000	1.000000e+000
1.852926427286783e-008	0.000000e+000	1.000000e+000
1.882223302286783e-008	0.000000e+000	1.000000e+000
1.911520177286784e-008	0.000000e+000	1.000000e+000
1.940817052286784e-008	0.000000e+000	1.000000e+000
1.970113927286784e-008	0.000000e+000	1.000000e+000
1.999410802286784e-008	0.000000e+000	1.000000e+000
2.028707677286784e-008	0.000000e+000	1.000000e+000
2.058004552286784e-008	0.000000e+000	1.000000e+000
2.087301427286784e-008	0.000000e+000	1.000000e+000
2.116598302286784e-008	0.000000e+000	1.000000e+000
2.145895177286784e-008	0.000000e+000	1.000000e+000
2.175192052286784e-008	0.000000e+000	1.000000e+000
2.204488927286784e-008	0.000000e+000	1.000000e+000
2.233785802286784e-008	0.000000e+000	1.000000e+000
2.263082677286784e-008	0.000000e+000	1.000000e+000
2.292379552286784e-008	0.000000e+000	1.000000e+000
2.321676427286784e-008	0.000000e+000	1.000000e+000
2.350973302286784e-008	0.000000e+000	1.000000e+000
2.380270177286784e-008	0.000000e+000	1.000000e+000
2.409567052286784e-008	0.000000e+000	1.000000e+000
2.438863927286784e-008	0.000000e+000	1.000000e+000
2.468160802286784e-008	0.000000e+000	1.000000e+000
2.497457677286785e-008	0.000000e+000	1.000000e+000
2.526754552286785e-008	0.000000e+000	1.000000e+000
2.556051427286785e-008	0.000000e+000	1.000000e+000
2.585348302286785e-008	0.000000e+000	1.000000e+000
2.614645177286785e-008	0.000000e+000	1.000000e+000
2.643942052286785e-008	0.000000e+000	1.000000e+000
2.673238927286785e-008	0.000000e+000	1.000000e+000
2.702535802286785e-008	0.000000e+000	1.000000e+000
2.731832677286785e-008	0.000000e+000	1.000000e+000
2.761129552286785e-008	0.000000e+000	1.000000e+000
2.790426427286785e-008	0.000000e+000	1.000000e+000
2.819723302286785e-008	0.000000e+000	1.000000e+000
2.849020177286785e-008	0.000000e+000	1.000000e+000
2.878317052286785e-008	0.000000e+000	1.000000e+000
2.907613927286785e-008	0.000000e+000	1.000000e+000
2.936910802286785e-008	0.000000e+000	1.000000e+000
2.966207677286785e-008	0.000000e+000	1.000000e+000
2.995504552286785e-008	1.401298e-045	1.000000e+000
3.024801427286785e-008	2.802597e-045	1.000000e+000
3.054098302286785e-008	8.407791e-045	1.000000e+000
3.083395177286785e-008	2.242078e-044	1.000000e+000
3.112692052286785e-008	6.025583e-044	1.000000e+000
3.141988927286785e-008	1.583467e-043	1.000000e+000
3.171285802286785e-008	4.189882e-043	1.000000e+000
3.200582677286785e-008	1.098618e-042	1.000000e+000
3.229879552286785e-008	2.847438e-042	1.000000e+000
3.259176427286786e-008	7.321784e-042	1.000000e+000
3.288473302286786e-008	1.867651e-041	1.000000e+000
3.317770177286786e-008	4.725319e-041	1.000000e+000
3.347067052286786e-008	1.186059e-040	1.000000e+000
3.376363927286786e-008	2.953545e-040	1.000000e+000
3.405660802286786e-008	7.297850e-040	1.000000e+000
3.434957677286786e-008	1.789377e-039	1.000000e+000
3.464254552286786e-008	4.354196e-039	1.000000e+000
3.493551427286786e-008	1.051610e-038	1.000000e+000
3.522848302286786e-008	2.521058e-038	1.000000e+000
3.552145177286786e-008	5.999738e-038	1.000000e+000
3.581442052286786e-008	1.417562e-037	1.000000e+000
3.610738927286786e-008	3.325447e-037	1.000000e+000
3.640035802286786e-008	7.746290e-037	1.000000e+000
3.669332677286786e-008	1.791883e-036	1.000000e+000
3.698629552286786e-008	4.116551e-036	1.000000e+000
3.727926427286786e-008	9.392912e-036	1.000000e+000
3.757223302286786e-008	2.128845e-035	1.000000e+000
3.786520177286786e-008	4.792901e-035	1.000000e+000
3.815817052286786e-008	1.072004e-034	1.000000e+000
3.845113927286787e-008	2.382155e-034	1.000000e+000
3.874410802286787e-008	5.259574e-034	1.000000e+000
3.903707677286787e-008	1.153902e-033	1.000000e+000
3.933004552286787e-008	2.515682e-033	1.000000e+000
3.962301427286787e-008	5.450550e-033	1.000000e+000
3.991598302286787e-008	1.173685e-032	1.000000e+000
4.020895177286787e-008	2.511993e-032	1.000000e+000
4.050192052286787e-008	5.344023e-032	1.000000e+000
4.079488927286787e-008	1.130131e-031	1.000000e+000
4.108785802286787e-008	2.375892e-031	1.000000e+000
4.138082677286787e-008	4.965789e-031	1.000000e+000
4.167379552286787e-008	1.031905e-030	1.000000e+000
4.196676427286787e-008	2.132090e-030	1.000000e+000
4.225973302286787e-008	4.380376e-030	1.000000e+000
4.255270177286787e-008	8.949139e-030	1.000000e+000
4.284567052286787e-008	1.818190e-029	1.000000e+000
4.313863927286787e-008	3.673742e-029	1.000000e+000
4.343160802286787e-008	7.382656e-029	1.000000e+000
4.372457677286787e-008	1.475618e-028	1.000000e+000
4.401754552286787e-008	2.933691e-028	1.000000e+000
4.431051427286788e-008	5.801712e-028	1.000000e+000
4.460348302286788e-008	1.141354e-027	1.000000e+000
4.489645177286788e-008	2.233719e-027	1.000000e+000
4.518942052286788e-008	4.349114e-027	1.000000e+000
4.548238927286788e-008	8.424762e-027	1.000000e+000
4.577535802286788e-008	1.623749e-026	1.000000e+000
4.606832677286788e-008	3.113897e-026	1.000000e+000
4.636129552286788e-008	5.942002e-026	1.000000e+000
4.665426427286788e-008	1.128297e-025	1.000000e+000
4.694723302286788e-008	2.132037e-025	1.000000e+000
4.724020177286788e-008	4.009267e-025	1.000000e+000
4.753317052286788e-008	7.503296e-025	1.000000e+000
4.782613927286788e-008	1.397570e-024	1.000000e+000
4.811910802286788e-008	2.590876e-024	1.000000e+000
4.841207677286788e-008	4.780666e-024	1.000000e+000
4.870504552286788e-008	8.780427e-024	1.000000e+000
4.899801427286788e-008	1.605257e-023	1.000000e+000
4.929098302286788e-008	2.921404e-023	1.000000e+000
4.958395177286788e-008	5.292640e-023	1.000000e+000
4.987692052286789e-008	9.545584e-023	1.000000e+000
5.016988927286789e-008	1.713947e-022	1.000000e+000
5.046285802286789e-008	3.063882e-022	1.000000e+000
5.075582677286789e-008	5.453072e-022	1.000000e+000
5.104879552286789e-008	9.663172e-022	1.000000e+000
5.134176427286789e-008	1.704989e-021	1.000000e+000
5.163473302286789e-008	2.995443e-021	1.000000e+000
5.192770177286789e-008	5.240250e-021	1.000000e+000
5.222067052286789e-008	9.128678e-021	1.000000e+000
5.251363927286789e-008	1.583588e-020	1.000000e+000
5.280660802286789e-008	2.735698e-020	1.000000e+000
5.309957677286789e-008	4.706504e-020	1.000000e+000
5.339254552286789e-008	8.063918e-020	1.000000e+000
5.368551427286789e-008	1.376016e-019	1.000000e+000
5.397848302286789e-008	2.338529e-019	1.000000e+000
5.427145177286789e-008	3.958369e-019	1.000000e+000
5.456442052286789e-008	6.673534e-019	1.000000e+000
5.485738927286789e-008	1.120658e-018	1.000000e+000
5.515035802286789e-008	1.874475e-018	1.000000e+000
5.544332677286789e-008	3.123106e-018	1.000000e+000
5.573629552286790e-008	5.183290e-018	1.000000e+000
5.602926427286790e-008	8.569330e-018	1.000000e+000
5.632223302286790e-008	1.411307e-017	1.000000e+000
5.661520177286790e-008	2.315476e-017	1.000000e+000
5.690817052286790e-008	3.784541e-017	1.000000e+000
5.720113927286790e-008	6.162411e-017	1.000000e+000
5.749410802286790e-008	9.996840e-017	1.000000e+000
5.778707677286790e-008	1.615695e-016	1.000000e+000
5.808004552286790e-008	2.601657e-016	1.000000e+000
5.837301427286790e-008	4.173923e-016	1.000000e+000
5.866598302286790e-008	6.671938e-016	1.000000e+000
5.895895177286790e-008	1.062630e-015	1.000000e+000
5.925192052286790e-008	1.686332e-015	1.000000e+000
5.954488927286790e-008	2.666520e-015	1.000000e+000
5.983785802286790e-008	4.201413e-015	1.000000e+000
6.013082677286790e-008	6.596350e-015	1.000000e+000
6.042379552286789e-008	1.031996e-014	1.000000e+000
6.071676427286788e-008	1.608892e-014	1.000000e+000
6.100973302286788e-008	2.499530e-014	1.000000e+000
6.130270177286787e-008	3.869727e-014	1.000000e+000
6.159567052286787e-008	5.970363e-014	1.000000e+000
6.188863927286786e-008	9.179676e-014	1.000000e+000
6.218160802286785e-008	1.406591e-013	1.000000e+000
6.247457677286785e-008	2.147975e-013	1.000000e+000
6.276754552286784e-008	3.269034e-013	1.000000e+000
6.306051427286783e-008	4.958443e-013	1.000000e+000
6.335348302286783e-008	7.495729e-013	1.000000e+000
6.364645177286782e-008	1.129359e-012	1.000000e+000
6.393942052286782e-008	1.695926e-012	1.000000e+000
6.423238927286781e-008	2.538310e-012	1.000000e+000
6.452535802286780e-008	3.786624e-012	1.000000e+000
6.481832677286780e-008	5.630354e-012	1.000000e+000
6.511129552286779e-008	8.344524e-012	1.000000e+000
6.540426427286779e-008	1.232696e-011	1.000000e+000
6.569723302286778e-008	1.815117e-011	1.000000e+000
6.599020177286777e-008	2.664119e-011	1.000000e+000
6.628317052286777e-008	3.897705e-011	1.000000e+000
6.657613927286776e-008	5.684287e-011	1.000000e+000
6.686910802286776e-008	8.263432e-011	1.000000e+000
6.716207677286775e-008	1.197478e-010	1.000000e+000
6.745504552286774e-008	1.729828e-010	1.000000e+000
6.774801427286774e-008	2.490987e-010	1.000000e+000
6.804098302286773e-008	3.575841e-010	1.000000e+000
6.833395177286772e-008	5.117152e-010	1.000000e+000
6.862692052286772e-008	7.300061e-010	1.000000e+000
6.891988927286771e-008	1.038191e-009	1.000000e+000
6.921285802286771e-008	1.471925e-009	1.000000e+000
6.950582677286770e-008	2.080444e-009	1.000000e+000
6.979879552286769e-008	2.931519e-009	1.000000e+000
7.009176427286769e-008	4.118128e-009	1.000000e+000
7.038473302286768e-008	5.767421e-009	1.000000e+000
7.067770177286768e-008	8.052712e-009	1.000000e+000
7.097067052286767e-008	1.120948e-008	1.000000e+000
7.126363927286766e-008	1.555662e-008	1.000000e+000
7.155660802286766e-008	2.152460e-008	1.000000e+000
7.184957677286765e-008	2.969263e-008	1.000000e+000
7.214254552286765e-008	4.083754e-008	1.000000e+000
7.243551427286764e-008	5.599782e-008	1.000000e+000
7.272848302286763e-008	7.655729e-008	1.000000e+000
7.302145177286763e-008	1.043540e-007	1.000000e+000
7.331442052286762e-008	1.418214e-007	1.000000e+000
7.360738927286761e-008	1.921707e-007	1.000000e+000
7.390035802286761e-008	2.596263e-007	1.000000e+000
7.419332677286760e-008	3.497266e-007	1.000000e+000
7.448629552286760e-008	4.697100e-007	1.000000e+000
7.477926427286759e-008	6.290056e-007	1.000000e+000
7.507223302286758e-008	8.398569e-007	1.000000e+000
7.536520177286758e-008	1.118109e-006	1.000000e+000
7.565817052286757e-008	1.484204e-006	1.000000e+000
7.595113927286757e-008	1.964426e-006	1.000000e+000
7.624410802286756e-008	2.592459e-006	1.000000e+000
7.653707677286755e-008	3.411336e-006	1.000000e+000
7.683004552286755e-008	4.475844e-006	1.000000e+000
7.712301427286754e-008	5.855511e-006	1.000000e+000
7.741598302286754e-008	7.638282e-006	1.000000e+000
7.770895177286753e-008	9.935024e-006	1.000000e+000
7.800192052286752e-008	1.288504e-005	1.000000e+000
7.829488927286752e-008	1.666277e-005	1.000000e+000
7.858785802286751e-008	2.148594e-005	1.000000e+000
7.888082677286750e-008	2.762538e-005	1.000000e+000
7.917379552286750e-008	3.541681e-005	1.000000e+000
7.946676427286749e-008	4.527502e-005	1.000000e+000
7.975973302286749e-008	5.771072e-005	1.000000e+000
8.005270177286748e-008	7.335054e-005	1.000000e+000
8.034567052286747e-008	9.296070e-005	1.000000e+000
8.063863927286747e-008	1.174749e-004	1.000000e+000
8.093160802286746e-008	1.480267e-004	1.000000e+000
8.122457677286746e-008	1.859878e-004	1.000000e+000
8.151754552286745e-008	2.330119e-004	1.000000e+000
8.181051427286744e-008	2.910855e-004	1.000000e+000
8.210348302286744e-008	3.625865e-004	1.000000e+000
8.239645177286743e-008	4.503503e-004	1.000000e+000
8.268942052286743e-008	5.577459e-004	1.000000e+000
8.298238927286742e-008	6.887611e-004	1.000000e+000
8.327535802286741e-008	8.480981e-004	1.000000e+000
8.356832677286741e-008	1.041281e-003	1.000000e+000
8.386129552286740e-008	1.274772e-003	1.000000e+000
8.415426427286739e-008	1.556104e-003	1.000000e+000
8.444723302286739e-008	1.894022e-003	1.000000e+000
8.474020177286738e-008	2.298633e-003	1.000000e+000
8.503317052286738e-008	2.781575e-003	1.000000e+000
8.532613927286737e-008	3.356191e-003	1.000000e+000
8.561910802286736e-008	4.037710e-003	1.000000e+000
8.591207677286736e-008	4.843441e-003	1.000000e+000
8.620504552286735e-008	5.792965e-003	1.000000e+000
8.649801427286735e-008	6.908335e-003	1.000000e+000
8.679098302286734e-008	8.214265e-003	1.000000e+000
8.708395177286733e-008	9.738323e-003	1.000000e+000
8.737692052286733e-008	1.151110e-002	1.000000e+000
8.766988927286732e-008	1.356637e-002	1.000000e+000
8.796285802286732e-008	1.594122e-002	1.000000e+000
8.825582677286731e-008	1.867614e-002	1.000000e+000
8.854879552286730e-008	2.181508e-002	1.000000e+000
8.884176427286730e-008	2.540546e-002	1.000000e+000
8.913473302286729e-008	2.949812e-002	1.000000e+000
8.942770177286728e-008	3.414715e-002	1.000000e+000
8.972067052286728e-008	3.940974e-002	1.000000e+000
9.001363927286727e-008	4.534587e-002	1.000000e+000
9.030660802286727e-008	5.201787e-002	1.000000e+000
9.059957677286726e-008	5.948998e-002	1.000000e+000
9.089254552286725e-008	6.782769e-002	1.000000e+000
9.118551427286725e-008	7.709707e-002	1.000000e+000
9.147848302286724e-008	8.736381e-002	1.000000e+000
9.177145177286724e-008	9.869237e-002	1.000000e+000
9.206442052286723e-008	1.111448e-001	1.000000e+000
9.235738927286722e-008	1.247797e-001	1.000000e+000
9.265035802286722e-008	1.396505e-001	1.000000e+000
9.294332677286721e-008	1.558048e-001	1.000000e+000
9.323629552286721e-008	1.732822e-001	1.000000e+000
9.352926427286720e-008	1.921132e-001	1.000000e+000
9.382223302286719e-008	2.123177e-001	1.000000e+000
9.411520177286719e-008	2.339033e-001	1.000000e+000
9.440817052286718e-008	2.568644e-001	1.000000e+000
9.470113927286717e-008	2.811800e-001	1.000000e+000
9.499410802286717e-008	3.068136e-001	1.000000e+000
9.528707677286716e-008	3.337112e-001	1.000000e+000
9.558004552286716e-008	3.618014e-001	1.000000e+000
9.587301427286715e-008	3.909944e-001	1.000000e+000
9.616598302286714e-008	4.211819e-001	1.000000e+000
9.645895177286714e-008	4.522376e-001	1.000000e+000
9.675192052286713e-008	4.840174e-001	1.000000e+000
9.704488927286713e-008	5.163607e-001	1.000000e+000
9.733785802286712e-008	5.490916e-001	1.000000e+000
9.763082677286711e-008	5.820209e-001	1.000000e+000
9.792379552286711e-008	6.149483e-001	1.000000e+000
9.821676427286710e-008	6.476651e-001	1.000000e+000
9.850973302286710e-008	6.799574e-001	1.000000e+000
9.880270177286709e-008	7.116092e-001	1.000000e+000
9.909567052286708e-008	7.424061e-001	1.000000e+000
9.938863927286708e-008	7.721393e-001	1.000000e+000
9.968160802286707e-008	8.006094e-001	1.000000e+000
9.997457677286706e-008	8.276299e-001	1.000000e+000
1.002675455228671e-007	8.530319e-001	1.000000e+000
1.005605142728671e-007	8.766668e-001	1.000000e+000
1.008534830228671e-007	8.984101e-001	1.000000e+000
1.011464517728670e-007	9.181638e-001	1.000000e+000
1.014394205228670e-007	9.358593e-001	1.000000e+000
1.017323892728670e-007	9.514585e-001	1.000000e+000
1.020253580228670e-007	9.649549e-001	1.000000e+000
