time	V(out)	V(n110)
0.000000000000000e+000	0.000000e+000	0.000000e+000
2.929687488293547e-015	0.000000e+000	3.906250e-007
5.859374976587093e-015	0.000000e+000	7.812500e-007
6.862165151151572e-012	-2.554878e-036	9.149554e-004
1.371847092732656e-011	-2.271245e-036	1.829129e-003
2.057477670350154e-011	8.508983e-037	2.743304e-003
2.743108247967653e-011	6.811552e-036	3.657478e-003
3.428738825585152e-011	1.561072e-035	4.571652e-003
4.114369403202650e-011	2.724839e-035	5.485826e-003
4.799999980820147e-011	4.172458e-035	6.400000e-003
9.599999961640293e-011	1.328414e-033	1.280000e-002
1.404606014236564e-010	1.108846e-032	1.872808e-002
1.783236865824396e-010	6.090219e-032	2.377649e-002
2.133624804419512e-010	3.450267e-031	2.844833e-002
2.524063542346291e-010	2.192890e-030	3.365418e-002
2.929017788970751e-010	1.795115e-029	3.905357e-002
3.425937548498207e-010	1.879949e-028	4.567917e-002
3.978514655120629e-010	2.451749e-027	5.304686e-002
4.645797710677467e-010	3.517280e-026	6.194397e-002
5.403068812387455e-010	5.701442e-025	7.204092e-002
6.307358062350067e-010	4.677667e-024	8.409811e-002
7.079893803692038e-010	2.324803e-023	9.439858e-002
7.836459236611360e-010	1.112868e-022	1.044861e-001
8.648150319715812e-010	5.604951e-022	1.153087e-001
9.533838991931447e-010	2.972630e-021	1.271179e-001
1.051271808406190e-009	1.655413e-020	1.401696e-001
1.159241009936822e-009	9.580322e-020	1.545655e-001
1.278989387682814e-009	4.988991e-019	1.705319e-001
1.396557812889040e-009	2.022444e-018	1.862077e-001
1.506237046328306e-009	7.174562e-018	2.008316e-001
1.622814105635591e-009	2.595930e-017	2.163752e-001
1.745252821730089e-009	9.412151e-017	2.327004e-001
1.878826092854390e-009	3.517576e-016	2.505102e-001
2.021722797969882e-009	1.328711e-015	2.695630e-001
2.177735489724571e-009	4.564470e-015	2.903647e-001
2.313196995441449e-009	1.286968e-014	3.084263e-001
2.459900481889274e-009	3.763384e-014	3.279867e-001
2.607287994033612e-009	1.063729e-013	3.476384e-001
2.769490394963852e-009	3.127847e-013	3.692654e-001
2.937795246810038e-009	9.090590e-013	3.917060e-001
3.121752783602823e-009	2.651380e-012	4.162337e-001
3.302567426917904e-009	6.886573e-012	4.403423e-001
3.469663158168818e-009	1.643848e-011	4.626217e-001
3.654689521796325e-009	4.114297e-011	4.872919e-001
3.840326689610303e-009	9.966384e-011	5.120435e-001
4.044539681062960e-009	2.423687e-010	5.392720e-001
4.227764990841842e-009	5.207101e-010	5.637020e-001
4.422060856622966e-009	1.139786e-009	5.896081e-001
4.617703273332351e-009	2.437244e-009	6.156937e-001
4.828249772229197e-009	5.325398e-009	6.437666e-001
5.045663440658807e-009	1.123317e-008	6.727551e-001
5.245432756380019e-009	2.183729e-008	6.993910e-001
5.458741969749343e-009	4.332238e-008	7.278323e-001
5.673013220345513e-009	8.406779e-008	7.564018e-001
5.903196680214902e-009	1.662940e-007	7.870929e-001
6.139795083728871e-009	3.235454e-007	8.186393e-001
6.380624396246036e-009	6.110500e-007	8.507499e-001
6.603133903572156e-009	1.083559e-006	8.804179e-001
6.847718035593554e-009	1.985202e-006	9.130291e-001
7.089802146036687e-009	3.393698e-006	9.453070e-001
7.236801332389910e-009	4.588817e-006	9.649069e-001
7.287424495486998e-009	5.125356e-006	9.716566e-001
7.388670821681173e-009	6.443863e-006	9.851561e-001
7.499999999999999e-009	8.096028e-006	1.000000e+000
7.511132917831881e-009	8.294299e-006	1.000000e+000
7.533398753495646e-009	8.704464e-006	1.000000e+000
7.577930424823177e-009	9.596136e-006	1.000000e+000
7.666993767478238e-009	1.172094e-005	1.000000e+000
7.845120452788359e-009	1.743479e-005	1.000000e+000
8.098341577206087e-009	2.933678e-005	1.000000e+000
8.351834144484722e-009	4.790654e-005	1.000000e+000
8.627669502504106e-009	7.927322e-005	1.000000e+000
8.878472325072839e-009	1.234346e-004	1.000000e+000
9.160104665887638e-009	1.989696e-004	1.000000e+000
9.434073308813984e-009	3.100573e-004	1.000000e+000
9.727042058813984e-009	4.856882e-004	1.000000e+000
9.991087956773417e-009	7.173277e-004	1.000000e+000
1.028405670677342e-008	1.087272e-003	1.000000e+000
1.057186180922228e-008	1.602534e-003	1.000000e+000
1.086483055922228e-008	2.334975e-003	1.000000e+000
1.114783173763909e-008	3.307417e-003	1.000000e+000
1.144080048763909e-008	4.669595e-003	1.000000e+000
1.173376923763909e-008	6.484130e-003	1.000000e+000
1.202673798763909e-008	8.867732e-003	1.000000e+000
1.231970673763909e-008	1.195084e-002	1.000000e+000
1.261267548763909e-008	1.587924e-002	1.000000e+000
1.290564423763909e-008	2.081196e-002	1.000000e+000
1.319861298763909e-008	2.691797e-002	1.000000e+000
1.349158173763909e-008	3.437171e-002	1.000000e+000
1.378455048763909e-008	4.334749e-002	1.000000e+000
1.407751923763909e-008	5.401297e-002	1.000000e+000
1.437048798763909e-008	6.652185e-002	1.000000e+000
1.466345673763909e-008	8.100637e-002	1.000000e+000
1.495642548763909e-008	9.756979e-002	1.000000e+000
1.524939423763909e-008	1.162796e-001	1.000000e+000
1.554236298763909e-008	1.371619e-001	1.000000e+000
1.583533173763909e-008	1.601971e-001	1.000000e+000
1.612830048763910e-008	1.853180e-001	1.000000e+000
1.642126923763910e-008	2.124101e-001	1.000000e+000
1.671423798763910e-008	2.413140e-001	1.000000e+000
1.700720673763910e-008	2.718307e-001	1.000000e+000
1.730017548763910e-008	3.037283e-001	1.000000e+000
1.759314423763910e-008	3.367509e-001	1.000000e+000
1.788611298763910e-008	3.706285e-001	1.000000e+000
1.817908173763910e-008	4.050865e-001	1.000000e+000
1.847205048763910e-008	4.398558e-001	1.000000e+000
1.876501923763910e-008	4.746805e-001	1.000000e+000
1.905798798763910e-008	5.093248e-001	1.000000e+000
1.935095673763910e-008	5.435773e-001	1.000000e+000
1.964392548763910e-008	5.772517e-001	1.000000e+000
1.993689423763910e-008	6.101873e-001	1.000000e+000
2.022986298763910e-008	6.422451e-001	1.000000e+000
2.052283173763910e-008	6.733033e-001	1.000000e+000
2.081580048763910e-008	7.032527e-001	1.000000e+000
2.110876923763910e-008	7.319902e-001	1.000000e+000
2.140173798763910e-008	7.594152e-001	1.000000e+000
2.169470673763910e-008	7.854264e-001	1.000000e+000
2.198767548763911e-008	8.099214e-001	1.000000e+000
2.228064423763911e-008	8.327982e-001	1.000000e+000
2.257361298763911e-008	8.539605e-001	1.000000e+000
2.286658173763911e-008	8.733234e-001	1.000000e+000
2.315955048763911e-008	8.908221e-001	1.000000e+000
2.345251923763911e-008	9.064200e-001	1.000000e+000
2.374548798763911e-008	9.201171e-001	1.000000e+000
2.403845673763911e-008	9.319559e-001	1.000000e+000
2.433142548763911e-008	9.420249e-001	1.000000e+000
2.462439423763911e-008	9.504591e-001	1.000000e+000
2.491736298763911e-008	9.574354e-001	1.000000e+000
2.521033173763911e-008	9.631658e-001	1.000000e+000
2.550330048763911e-008	9.678851e-001	1.000000e+000
2.579626923763911e-008	9.718384e-001	1.000000e+000
2.608923798763911e-008	9.752648e-001	1.000000e+000
2.638220673763911e-008	9.783831e-001	1.000000e+000
2.667517548763911e-008	9.813778e-001	1.000000e+000
2.696814423763911e-008	9.843886e-001	1.000000e+000
2.726111298763911e-008	9.875036e-001	1.000000e+000
2.755408173763911e-008	9.907572e-001	1.000000e+000
2.784705048763912e-008	9.941334e-001	1.000000e+000
2.814001923763912e-008	9.975729e-001	1.000000e+000
2.843298798763912e-008	1.000985e+000	1.000000e+000
2.872595673763912e-008	1.004261e+000	1.000000e+000
2.901892548763912e-008	1.007289e+000	1.000000e+000
2.931189423763912e-008	1.009971e+000	1.000000e+000
2.960486298763912e-008	1.012231e+000	1.000000e+000
2.989783173763912e-008	1.014026e+000	1.000000e+000
3.019080048763912e-008	1.015353e+000	1.000000e+000
3.048376923763912e-008	1.016246e+000	1.000000e+000
3.077673798763912e-008	1.016772e+000	1.000000e+000
3.106970673763912e-008	1.017027e+000	1.000000e+000
3.136267548763912e-008	1.017116e+000	1.000000e+000
3.165564423763912e-008	1.017153e+000	1.000000e+000
3.194861298763912e-008	1.017237e+000	1.000000e+000
3.224158173763912e-008	1.017450e+000	1.000000e+000
3.253455048763912e-008	1.017847e+000	1.000000e+000
3.282751923763912e-008	1.018450e+000	1.000000e+000
3.312048798763912e-008	1.019252e+000	1.000000e+000
3.341345673763912e-008	1.020218e+000	1.000000e+000
3.370642548763912e-008	1.021294e+000	1.000000e+000
3.399939423763912e-008	1.022417e+000	1.000000e+000
3.429236298763912e-008	1.023525e+000	1.000000e+000
3.458533173763912e-008	1.024567e+000	1.000000e+000
3.487830048763912e-008	1.025510e+000	1.000000e+000
3.517126923763912e-008	1.026350e+000	1.000000e+000
3.546423798763913e-008	1.027110e+000	1.000000e+000
3.575720673763913e-008	1.027838e+000	1.000000e+000
3.605017548763913e-008	1.028609e+000	1.000000e+000
3.634314423763913e-008	1.029512e+000	1.000000e+000
3.663611298763913e-008	1.030648e+000	1.000000e+000
3.692908173763913e-008	1.032114e+000	1.000000e+000
3.722205048763913e-008	1.034003e+000	1.000000e+000
3.751501923763913e-008	1.036391e+000	1.000000e+000
3.780798798763913e-008	1.039339e+000	1.000000e+000
3.810095673763913e-008	1.042885e+000	1.000000e+000
3.839392548763913e-008	1.047053e+000	1.000000e+000
3.868689423763913e-008	1.051850e+000	1.000000e+000
3.897986298763913e-008	1.057276e+000	1.000000e+000
3.927283173763913e-008	1.063326e+000	1.000000e+000
3.956580048763913e-008	1.069996e+000	1.000000e+000
3.985876923763913e-008	1.077289e+000	1.000000e+000
4.015173798763913e-008	1.085212e+000	1.000000e+000
4.044470673763913e-008	1.093783e+000	1.000000e+000
4.073767548763913e-008	1.103016e+000	1.000000e+000
4.103064423763913e-008	1.112928e+000	1.000000e+000
4.132361298763914e-008	1.123524e+000	1.000000e+000
4.161658173763914e-008	1.134793e+000	1.000000e+000
4.190955048763914e-008	1.146700e+000	1.000000e+000
4.220251923763914e-008	1.159181e+000	1.000000e+000
4.249548798763914e-008	1.172138e+000	1.000000e+000
4.278845673763914e-008	1.185441e+000	1.000000e+000
4.308142548763914e-008	1.198928e+000	1.000000e+000
4.337439423763914e-008	1.212409e+000	1.000000e+000
4.366736298763914e-008	1.225676e+000	1.000000e+000
4.396033173763914e-008	1.238509e+000	1.000000e+000
4.425330048763914e-008	1.250685e+000	1.000000e+000
4.454626923763914e-008	1.261991e+000	1.000000e+000
4.483923798763914e-008	1.272227e+000	1.000000e+000
4.513220673763914e-008	1.281219e+000	1.000000e+000
4.542517548763914e-008	1.288820e+000	1.000000e+000
4.571814423763914e-008	1.294913e+000	1.000000e+000
4.601111298763914e-008	1.299414e+000	1.000000e+000
4.630408173763914e-008	1.302271e+000	1.000000e+000
4.659705048763914e-008	1.303461e+000	1.000000e+000
4.689001923763914e-008	1.302988e+000	1.000000e+000
4.718298798763915e-008	1.300883e+000	1.000000e+000
4.747595673763915e-008	1.297198e+000	1.000000e+000
4.776892548763915e-008	1.292005e+000	1.000000e+000
4.806189423763915e-008	1.285396e+000	1.000000e+000
4.835486298763915e-008	1.277481e+000	1.000000e+000
4.864783173763915e-008	1.268387e+000	1.000000e+000
4.894080048763915e-008	1.258256e+000	1.000000e+000
4.923376923763915e-008	1.247242e+000	1.000000e+000
4.952673798763915e-008	1.235511e+000	1.000000e+000
4.981970673763915e-008	1.223235e+000	1.000000e+000
5.011267548763915e-008	1.210588e+000	1.000000e+000
5.040564423763915e-008	1.197742e+000	1.000000e+000
5.069861298763915e-008	1.184862e+000	1.000000e+000
5.099158173763915e-008	1.172097e+000	1.000000e+000
5.128455048763915e-008	1.159582e+000	1.000000e+000
5.157751923763915e-008	1.147429e+000	1.000000e+000
5.187048798763915e-008	1.135731e+000	1.000000e+000
5.216345673763915e-008	1.124557e+000	1.000000e+000
5.245642548763915e-008	1.113959e+000	1.000000e+000
5.274939423763915e-008	1.103970e+000	1.000000e+000
5.304236298763916e-008	1.094610e+000	1.000000e+000
5.333533173763916e-008	1.085890e+000	1.000000e+000
5.362830048763916e-008	1.077816e+000	1.000000e+000
5.392126923763916e-008	1.070392e+000	1.000000e+000
5.421423798763916e-008	1.063618e+000	1.000000e+000
5.450720673763916e-008	1.057496e+000	1.000000e+000
5.480017548763916e-008	1.052024e+000	1.000000e+000
5.509314423763916e-008	1.047195e+000	1.000000e+000
5.538611298763916e-008	1.042993e+000	1.000000e+000
5.567908173763916e-008	1.039392e+000	1.000000e+000
5.597205048763916e-008	1.036350e+000	1.000000e+000
5.626501923763916e-008	1.033810e+000	1.000000e+000
5.655798798763916e-008	1.031697e+000	1.000000e+000
5.685095673763916e-008	1.029924e+000	1.000000e+000
5.714392548763916e-008	1.028394e+000	1.000000e+000
5.743689423763916e-008	1.027004e+000	1.000000e+000
5.772986298763916e-008	1.025655e+000	1.000000e+000
5.802283173763916e-008	1.024259e+000	1.000000e+000
5.831580048763916e-008	1.022743e+000	1.000000e+000
5.860876923763916e-008	1.021061e+000	1.000000e+000
5.890173798763917e-008	1.019195e+000	1.000000e+000
5.919470673763917e-008	1.017157e+000	1.000000e+000
5.948767548763917e-008	1.014990e+000	1.000000e+000
5.978064423763916e-008	1.012763e+000	1.000000e+000
6.007361298763915e-008	1.010565e+000	1.000000e+000
6.036658173763915e-008	1.008501e+000	1.000000e+000
6.065955048763914e-008	1.006677e+000	1.000000e+000
6.095251923763914e-008	1.005197e+000	1.000000e+000
6.124548798763913e-008	1.004148e+000	1.000000e+000
6.153845673763912e-008	1.003597e+000	1.000000e+000
6.183142548763912e-008	1.003583e+000	1.000000e+000
6.212439423763911e-008	1.004119e+000	1.000000e+000
6.241736298763911e-008	1.005184e+000	1.000000e+000
6.271033173763910e-008	1.006736e+000	1.000000e+000
6.300330048763909e-008	1.008707e+000	1.000000e+000
6.329626923763909e-008	1.011018e+000	1.000000e+000
6.358923798763908e-008	1.013583e+000	1.000000e+000
6.388220673763907e-008	1.016317e+000	1.000000e+000
6.417517548763907e-008	1.019147e+000	1.000000e+000
6.446814423763906e-008	1.022016e+000	1.000000e+000
6.476111298763906e-008	1.024885e+000	1.000000e+000
6.505408173763905e-008	1.027741e+000	1.000000e+000
6.534705048763904e-008	1.030593e+000	1.000000e+000
6.564001923763904e-008	1.033467e+000	1.000000e+000
6.593298798763903e-008	1.036406e+000	1.000000e+000
6.622595673763903e-008	1.039460e+000	1.000000e+000
6.651892548763902e-008	1.042680e+000	1.000000e+000
6.681189423763901e-008	1.046107e+000	1.000000e+000
6.710486298763901e-008	1.049767e+000	1.000000e+000
6.739783173763900e-008	1.053664e+000	1.000000e+000
6.769080048763900e-008	1.057774e+000	1.000000e+000
6.798376923763899e-008	1.062042e+000	1.000000e+000
6.827673798763898e-008	1.066382e+000	1.000000e+000
6.856970673763898e-008	1.070681e+000	1.000000e+000
6.886267548763897e-008	1.074800e+000	1.000000e+000
6.915564423763896e-008	1.078585e+000	1.000000e+000
6.944861298763896e-008	1.081872e+000	1.000000e+000
6.974158173763895e-008	1.084496e+000	1.000000e+000
7.003455048763895e-008	1.086305e+000	1.000000e+000
7.032751923763894e-008	1.087164e+000	1.000000e+000
7.062048798763893e-008	1.086965e+000	1.000000e+000
7.091345673763893e-008	1.085635e+000	1.000000e+000
7.120642548763892e-008	1.083132e+000	1.000000e+000
7.149939423763892e-008	1.079457e+000	1.000000e+000
7.179236298763891e-008	1.074642e+000	1.000000e+000
7.208533173763890e-008	1.068753e+000	1.000000e+000
7.237830048763890e-008	1.061881e+000	1.000000e+000
7.267126923763889e-008	1.054136e+000	1.000000e+000
7.296423798763889e-008	1.045639e+000	1.000000e+000
7.325720673763888e-008	1.036518e+000	1.000000e+000
7.355017548763887e-008	1.026897e+000	1.000000e+000
7.384314423763887e-008	1.016896e+000	1.000000e+000
7.413611298763886e-008	1.006629e+000	1.000000e+000
7.442908173763885e-008	9.961998e-001	1.000000e+000
7.472205048763885e-008	9.857070e-001	1.000000e+000
7.501501923763884e-008	9.752460e-001	1.000000e+000
7.530798798763884e-008	9.649124e-001	1.000000e+000
7.560095673763883e-008	9.548064e-001	1.000000e+000
7.589392548763882e-008	9.450352e-001	1.000000e+000
7.618689423763882e-008	9.357144e-001	1.000000e+000
7.647986298763881e-008	9.269678e-001	1.000000e+000
7.677283173763881e-008	9.189242e-001	1.000000e+000
7.706580048763880e-008	9.117125e-001	1.000000e+000
7.735876923763879e-008	9.054548e-001	1.000000e+000
7.765173798763879e-008	9.002579e-001	1.000000e+000
7.794470673763878e-008	8.962059e-001	1.000000e+000
7.823767548763878e-008	8.933513e-001	1.000000e+000
7.853064423763877e-008	8.917096e-001	1.000000e+000
7.882361298763876e-008	8.912556e-001	1.000000e+000
7.911658173763876e-008	8.919230e-001	1.000000e+000
7.940955048763875e-008	8.936068e-001	1.000000e+000
7.970251923763874e-008	8.961698e-001	1.000000e+000
7.999548798763874e-008	8.994511e-001	1.000000e+000
8.028845673763873e-008	9.032770e-001	1.000000e+000
8.058142548763873e-008	9.074727e-001	1.000000e+000
8.087439423763872e-008	9.118736e-001	1.000000e+000
8.116736298763871e-008	9.163353e-001	1.000000e+000
8.146033173763871e-008	9.207414e-001	1.000000e+000
8.175330048763870e-008	9.250076e-001	1.000000e+000
8.204626923763870e-008	9.290831e-001	1.000000e+000
8.233923798763869e-008	9.329479e-001	1.000000e+000
8.263220673763868e-008	9.366078e-001	1.000000e+000
8.292517548763868e-008	9.400864e-001	1.000000e+000
8.321814423763867e-008	9.434167e-001	1.000000e+000
8.351111298763867e-008	9.466324e-001	1.000000e+000
8.380408173763866e-008	9.497601e-001	1.000000e+000
8.409705048763865e-008	9.528133e-001	1.000000e+000
8.439001923763865e-008	9.557899e-001	1.000000e+000
8.468298798763864e-008	9.586721e-001	1.000000e+000
8.497595673763863e-008	9.614286e-001	1.000000e+000
8.526892548763863e-008	9.640205e-001	1.000000e+000
8.556189423763862e-008	9.664072e-001	1.000000e+000
8.585486298763862e-008	9.685546e-001	1.000000e+000
8.614783173763861e-008	9.704417e-001	1.000000e+000
8.644080048763860e-008	9.720659e-001	1.000000e+000
8.673376923763860e-008	9.734471e-001	1.000000e+000
8.702673798763859e-008	9.746273e-001	1.000000e+000
8.731970673763859e-008	9.756697e-001	1.000000e+000
8.761267548763858e-008	9.766529e-001	1.000000e+000
8.790564423763857e-008	9.776642e-001	1.000000e+000
8.819861298763857e-008	9.787919e-001	1.000000e+000
8.849158173763856e-008	9.801160e-001	1.000000e+000
8.878455048763856e-008	9.817008e-001	1.000000e+000
8.907751923763855e-008	9.835885e-001	1.000000e+000
8.937048798763854e-008	9.857945e-001	1.000000e+000
8.966345673763854e-008	9.883068e-001	1.000000e+000
8.995642548763853e-008	9.910862e-001	1.000000e+000
9.024939423763852e-008	9.940713e-001	1.000000e+000
9.054236298763852e-008	9.971830e-001	1.000000e+000
9.083533173763851e-008	1.000332e+000	1.000000e+000
9.112830048763851e-008	1.003427e+000	1.000000e+000
9.142126923763850e-008	1.006381e+000	1.000000e+000
9.171423798763849e-008	1.009116e+000	1.000000e+000
9.200720673763849e-008	1.011571e+000	1.000000e+000
9.230017548763848e-008	1.013699e+000	1.000000e+000
9.259314423763848e-008	1.015474e+000	1.000000e+000
9.288611298763847e-008	1.016882e+000	1.000000e+000
9.317908173763846e-008	1.017924e+000	1.000000e+000
9.347205048763846e-008	1.018609e+000	1.000000e+000
9.376501923763845e-008	1.018951e+000	1.000000e+000
9.405798798763845e-008	1.018963e+000	1.000000e+000
9.435095673763844e-008	1.018659e+000	1.000000e+000
9.464392548763843e-008	1.018044e+000	1.000000e+000
9.493689423763843e-008	1.017121e+000	1.000000e+000
9.522986298763842e-008	1.015885e+000	1.000000e+000
9.552283173763841e-008	1.014327e+000	1.000000e+000
9.581580048763841e-008	1.012435e+000	1.000000e+000
9.610876923763840e-008	1.010195e+000	1.000000e+000
9.640173798763840e-008	1.007596e+000	1.000000e+000
9.669470673763839e-008	1.004628e+000	1.000000e+000
9.698767548763838e-008	1.001285e+000	1.000000e+000
9.728064423763838e-008	9.975656e-001	1.000000e+000
9.757361298763837e-008	9.934739e-001	1.000000e+000
9.786658173763837e-008	9.890202e-001	1.000000e+000
9.815955048763836e-008	9.842207e-001	1.000000e+000
9.845251923763835e-008	9.790990e-001	1.000000e+000
9.874548798763835e-008	9.736872e-001	1.000000e+000
9.903845673763834e-008	9.680274e-001	1.000000e+000
9.933142548763834e-008	9.621735e-001	1.000000e+000
9.962439423763833e-008	9.561936e-001	1.000000e+000
9.991736298763832e-008	9.501710e-001	1.000000e+000
1.002103317376383e-007	9.442054e-001	1.000000e+000
1.005033004876383e-007	9.384123e-001	1.000000e+000
1.007962692376383e-007	9.329212e-001	1.000000e+000
1.010892379876383e-007	9.278719e-001	1.000000e+000
1.013822067376383e-007	9.234092e-001	1.000000e+000
1.016751754876383e-007	9.196755e-001	1.000000e+000
1.019681442376383e-007	9.168036e-001	1.000000e+000
