time	V(out)	V(n030)
0.000000000000000e+000	0.000000e+000	0.000000e+000
2.929687488293547e-015	0.000000e+000	3.906250e-007
5.859374976587093e-015	0.000000e+000	7.812500e-007
6.862165151151572e-012	0.000000e+000	9.149554e-004
1.371847092732656e-011	0.000000e+000	1.829129e-003
2.057477670350154e-011	0.000000e+000	2.743304e-003
2.743108247967653e-011	0.000000e+000	3.657478e-003
3.428738825585152e-011	0.000000e+000	4.571652e-003
4.114369403202650e-011	0.000000e+000	5.485826e-003
4.799999980820147e-011	0.000000e+000	6.400000e-003
9.599999961640293e-011	0.000000e+000	1.280000e-002
1.404606014236564e-010	0.000000e+000	1.872808e-002
1.783236865824397e-010	0.000000e+000	2.377649e-002
2.133624804419516e-010	0.000000e+000	2.844833e-002
2.524063542346299e-010	0.000000e+000	3.365418e-002
2.929017788970761e-010	0.000000e+000	3.905357e-002
3.425937548498223e-010	0.000000e+000	4.567917e-002
3.978514655120646e-010	0.000000e+000	5.304686e-002
4.645797710677493e-010	0.000000e+000	6.194397e-002
5.403068812387479e-010	0.000000e+000	7.204092e-002
6.307358062350097e-010	0.000000e+000	8.409811e-002
7.079893803692073e-010	0.000000e+000	9.439858e-002
7.836459236611403e-010	0.000000e+000	1.044861e-001
8.648150319715844e-010	0.000000e+000	1.153087e-001
9.533838991931499e-010	0.000000e+000	1.271179e-001
1.051271808406194e-009	0.000000e+000	1.401696e-001
1.159241009936826e-009	0.000000e+000	1.545655e-001
1.278989387682820e-009	0.000000e+000	1.705319e-001
1.396557812889040e-009	0.000000e+000	1.862077e-001
1.506237046328304e-009	0.000000e+000	2.008316e-001
1.622814105635588e-009	0.000000e+000	2.163752e-001
1.745252821730086e-009	0.000000e+000	2.327004e-001
1.878826092854385e-009	0.000000e+000	2.505102e-001
2.021722797969875e-009	0.000000e+000	2.695630e-001
2.177735489724563e-009	0.000000e+000	2.903647e-001
2.313196995441439e-009	0.000000e+000	3.084263e-001
2.459900481889264e-009	0.000000e+000	3.279867e-001
2.607287994033602e-009	0.000000e+000	3.476384e-001
2.769490394963835e-009	0.000000e+000	3.692654e-001
2.937795246810027e-009	0.000000e+000	3.917060e-001
3.121752783602827e-009	0.000000e+000	4.162337e-001
3.302567426918064e-009	0.000000e+000	4.403423e-001
3.469663158169174e-009	0.000000e+000	4.626217e-001
3.654689521797200e-009	0.000000e+000	4.872919e-001
3.840326689612194e-009	0.000000e+000	5.120435e-001
4.044539681067142e-009	0.000000e+000	5.392720e-001
4.227764994987591e-009	0.000000e+000	5.637020e-001
4.422060863015594e-009	0.000000e+000	5.896081e-001
4.617703286808844e-009	0.000000e+000	6.156937e-001
4.828249794968681e-009	0.000000e+000	6.437666e-001
5.045663481099993e-009	0.000000e+000	6.727551e-001
5.245441075231715e-009	0.000000e+000	6.993921e-001
5.458755053440745e-009	0.000000e+000	7.278340e-001
5.673038340546187e-009	0.000000e+000	7.564051e-001
5.903234374701492e-009	0.000000e+000	7.870979e-001
6.139853745656860e-009	0.000000e+000	8.186471e-001
6.361321752244246e-009	0.000000e+000	8.481762e-001
6.593822328680287e-009	0.000000e+000	8.791763e-001
6.829555108356680e-009	0.000000e+000	9.106073e-001
7.079883430092136e-009	0.000000e+000	9.439844e-001
7.241472718691561e-009	0.000000e+000	9.655297e-001
7.281792218401953e-009	0.000000e+000	9.709056e-001
7.362431217822738e-009	0.000000e+000	9.816575e-001
7.499999999999999e-009	0.000000e+000	1.000000e+000
7.513756878217726e-009	0.000000e+000	1.000000e+000
7.541270634653178e-009	0.000000e+000	1.000000e+000
7.596298147524082e-009	0.000000e+000	1.000000e+000
7.706353173265891e-009	0.000000e+000	1.000000e+000
7.926463224749510e-009	0.000000e+000	1.000000e+000
8.165171580565455e-009	0.000000e+000	1.000000e+000
8.402737421334368e-009	0.000000e+000	1.000000e+000
8.670384792128641e-009	0.000000e+000	1.000000e+000
8.922443892863074e-009	0.000000e+000	1.000000e+000
9.203252571977112e-009	0.000000e+000	1.000000e+000
9.479896087604084e-009	0.000000e+000	1.000000e+000
9.765674829652412e-009	0.000000e+000	1.000000e+000
1.003512079011702e-008	0.000000e+000	1.000000e+000
1.032786309300005e-008	0.000000e+000	1.000000e+000
1.061910649268287e-008	0.000000e+000	1.000000e+000
1.091207524268287e-008	0.000000e+000	1.000000e+000
1.119789901319864e-008	0.000000e+000	1.000000e+000
1.149086776319864e-008	0.000000e+000	1.000000e+000
1.178383651319864e-008	0.000000e+000	1.000000e+000
1.207680526319864e-008	0.000000e+000	1.000000e+000
1.236977401319864e-008	0.000000e+000	1.000000e+000
1.266274276319864e-008	0.000000e+000	1.000000e+000
1.295571151319864e-008	0.000000e+000	1.000000e+000
1.324868026319864e-008	0.000000e+000	1.000000e+000
1.354164901319864e-008	0.000000e+000	1.000000e+000
1.383461776319864e-008	0.000000e+000	1.000000e+000
1.412758651319864e-008	0.000000e+000	1.000000e+000
1.442055526319864e-008	0.000000e+000	1.000000e+000
1.471352401319864e-008	0.000000e+000	1.000000e+000
1.500649276319864e-008	0.000000e+000	1.000000e+000
1.529946151319864e-008	0.000000e+000	1.000000e+000
1.559243026319864e-008	0.000000e+000	1.000000e+000
1.588539901319864e-008	0.000000e+000	1.000000e+000
1.617836776319864e-008	0.000000e+000	1.000000e+000
1.647133651319865e-008	0.000000e+000	1.000000e+000
1.676430526319865e-008	0.000000e+000	1.000000e+000
1.705727401319865e-008	0.000000e+000	1.000000e+000
1.735024276319865e-008	0.000000e+000	1.000000e+000
1.764321151319865e-008	2.802597e-045	1.000000e+000
1.793618026319865e-008	1.261169e-044	1.000000e+000
1.822914901319865e-008	4.344025e-044	1.000000e+000
1.852211776319865e-008	1.569454e-043	1.000000e+000
1.881508651319865e-008	5.493090e-043	1.000000e+000
1.910805526319865e-008	1.897358e-042	1.000000e+000
1.940102401319865e-008	6.433361e-042	1.000000e+000
1.969399276319865e-008	2.144267e-041	1.000000e+000
1.998696151319865e-008	7.028633e-041	1.000000e+000
2.027993026319865e-008	2.267133e-040	1.000000e+000
2.057289901319865e-008	7.198624e-040	1.000000e+000
2.086586776319865e-008	2.250938e-039	1.000000e+000
2.115883651319865e-008	6.933930e-039	1.000000e+000
2.145180526319865e-008	2.104994e-038	1.000000e+000
2.174477401319865e-008	6.299775e-038	1.000000e+000
2.203774276319865e-008	1.859272e-037	1.000000e+000
2.233071151319866e-008	5.413023e-037	1.000000e+000
2.262368026319866e-008	1.555054e-036	1.000000e+000
2.291664901319866e-008	4.409450e-036	1.000000e+000
2.320961776319866e-008	1.234458e-035	1.000000e+000
2.350258651319866e-008	3.413005e-035	1.000000e+000
2.379555526319866e-008	9.321306e-035	1.000000e+000
2.408852401319866e-008	2.515375e-034	1.000000e+000
2.438149276319866e-008	6.708382e-034	1.000000e+000
2.467446151319866e-008	1.768567e-033	1.000000e+000
2.496743026319866e-008	4.610091e-033	1.000000e+000
2.526039901319866e-008	1.188433e-032	1.000000e+000
2.555336776319866e-008	3.030443e-032	1.000000e+000
2.584633651319866e-008	7.645231e-032	1.000000e+000
2.613930526319866e-008	1.908586e-031	1.000000e+000
2.643227401319866e-008	4.715747e-031	1.000000e+000
2.672524276319866e-008	1.153414e-030	1.000000e+000
2.701821151319866e-008	2.793134e-030	1.000000e+000
2.731118026319866e-008	6.697977e-030	1.000000e+000
2.760414901319866e-008	1.590788e-029	1.000000e+000
2.789711776319866e-008	3.742544e-029	1.000000e+000
2.819008651319867e-008	8.723172e-029	1.000000e+000
2.848305526319867e-008	2.014652e-028	1.000000e+000
2.877602401319867e-008	4.611125e-028	1.000000e+000
2.906899276319867e-008	1.046060e-027	1.000000e+000
2.936196151319867e-008	2.352385e-027	1.000000e+000
2.965493026319867e-008	5.244699e-027	1.000000e+000
2.994789901319867e-008	1.159443e-026	1.000000e+000
3.024086776319867e-008	2.541850e-026	1.000000e+000
3.053383651319867e-008	5.526817e-026	1.000000e+000
3.082680526319867e-008	1.192002e-025	1.000000e+000
3.111977401319867e-008	2.550387e-025	1.000000e+000
3.141274276319867e-008	5.413914e-025	1.000000e+000
3.170571151319867e-008	1.140357e-024	1.000000e+000
3.199868026319867e-008	2.383643e-024	1.000000e+000
3.229164901319867e-008	4.944904e-024	1.000000e+000
3.258461776319867e-008	1.018205e-023	1.000000e+000
3.287758651319867e-008	2.081210e-023	1.000000e+000
3.317055526319867e-008	4.223207e-023	1.000000e+000
3.346352401319867e-008	8.508550e-023	1.000000e+000
3.375649276319868e-008	1.702141e-022	1.000000e+000
3.404946151319868e-008	3.381437e-022	1.000000e+000
3.434243026319868e-008	6.671307e-022	1.000000e+000
3.463539901319868e-008	1.307258e-021	1.000000e+000
3.492836776319868e-008	2.544423e-021	1.000000e+000
3.522133651319868e-008	4.919599e-021	1.000000e+000
3.551430526319868e-008	9.449687e-021	1.000000e+000
3.580727401319868e-008	1.803375e-020	1.000000e+000
3.610024276319868e-008	3.292822e-020	1.000000e+000
3.630121405258918e-008	4.923356e-020	1.000000e+000
3.645994831094737e-008	6.857093e-020	1.000000e+000
3.662952191836461e-008	9.858505e-020	1.000000e+000
3.682052245313987e-008	1.474302e-019	1.000000e+000
3.700467473490807e-008	2.168097e-019	1.000000e+000
3.720263659753554e-008	3.279327e-019	1.000000e+000
3.740416095075221e-008	5.012558e-019	1.000000e+000
3.763699006081737e-008	8.298830e-019	1.000000e+000
3.792995881081737e-008	1.538484e-018	1.000000e+000
3.822292756081737e-008	2.792373e-018	1.000000e+000
3.851375829485698e-008	4.955966e-018	1.000000e+000
3.877053930840258e-008	8.210787e-018	1.000000e+000
3.903008381996059e-008	1.385345e-017	1.000000e+000
3.932305256996059e-008	2.480455e-017	1.000000e+000
3.961602131996059e-008	4.384451e-017	1.000000e+000
3.990899006996059e-008	7.706564e-017	1.000000e+000
4.020195881996059e-008	1.347078e-016	1.000000e+000
4.049492756996059e-008	2.341719e-016	1.000000e+000
4.078789631996059e-008	4.048652e-016	1.000000e+000
4.108086506996059e-008	6.879995e-016	1.000000e+000
4.133435987182897e-008	1.086723e-015	1.000000e+000
4.159191732348828e-008	1.724886e-015	1.000000e+000
4.183022979911300e-008	2.670366e-015	1.000000e+000
4.212319854911300e-008	4.553648e-015	1.000000e+000
4.241616729911300e-008	7.646961e-015	1.000000e+000
4.270913604911300e-008	1.277588e-014	1.000000e+000
4.300210479911300e-008	2.123660e-014	1.000000e+000
4.329507354911300e-008	3.512295e-014	1.000000e+000
4.358804229911300e-008	5.740626e-014	1.000000e+000
4.385387707079527e-008	8.902694e-014	1.000000e+000
4.410298303820817e-008	1.338474e-013	1.000000e+000
4.433195305829050e-008	1.947101e-013	1.000000e+000
4.456333116599566e-008	2.863213e-013	1.000000e+000
4.483389296153114e-008	4.492704e-013	1.000000e+000
4.512686171153114e-008	7.233480e-013	1.000000e+000
4.541983046153114e-008	1.155185e-012	1.000000e+000
4.571279921153114e-008	1.834487e-012	1.000000e+000
4.600160619392605e-008	2.857553e-012	1.000000e+000
4.624971141595412e-008	4.163429e-012	1.000000e+000
4.648434087334369e-008	5.955985e-012	1.000000e+000
4.672074695123009e-008	8.521457e-012	1.000000e+000
4.694946451622319e-008	1.201101e-011	1.000000e+000
4.717464597114051e-008	1.694497e-011	1.000000e+000
4.745336997509814e-008	2.589576e-011	1.000000e+000
4.774633872509814e-008	3.996044e-011	1.000000e+000
4.803930747509814e-008	6.080051e-011	1.000000e+000
4.828808442377122e-008	8.680980e-011	1.000000e+000
4.855213946591259e-008	1.263332e-010	1.000000e+000
4.879032200127826e-008	1.766102e-010	1.000000e+000
4.903337152103224e-008	2.478366e-010	1.000000e+000
4.925649523955334e-008	3.375238e-010	1.000000e+000
4.948401376889371e-008	4.616234e-010	1.000000e+000
4.970228874361274e-008	6.227551e-010	1.000000e+000
4.993483714027046e-008	8.616083e-010	1.000000e+000
5.022780589027046e-008	1.288394e-009	1.000000e+000
5.052077464027046e-008	1.905511e-009	1.000000e+000
5.081374339027046e-008	2.806421e-009	1.000000e+000
5.110671214027046e-008	4.081468e-009	1.000000e+000
5.133830223260867e-008	5.460959e-009	1.000000e+000
5.154295771803750e-008	7.082584e-009	1.000000e+000
5.175040831521470e-008	9.238894e-009	1.000000e+000
5.198263776845071e-008	1.238232e-008	1.000000e+000
5.219680102687233e-008	1.621717e-008	1.000000e+000
5.244953482804480e-008	2.235851e-008	1.000000e+000
5.274250357804480e-008	3.217946e-008	1.000000e+000
5.303547232804480e-008	4.595540e-008	1.000000e+000
5.332844107804480e-008	6.536632e-008	1.000000e+000
5.362140982804480e-008	9.260618e-008	1.000000e+000
5.391437857804480e-008	1.293749e-007	1.000000e+000
5.411376124460115e-008	1.618299e-007	1.000000e+000
5.428138403432571e-008	1.961857e-007	1.000000e+000
5.446866931040918e-008	2.432405e-007	1.000000e+000
5.465209915858249e-008	2.998963e-007	1.000000e+000
5.485701811281300e-008	3.784686e-007	1.000000e+000
5.506849940145743e-008	4.811793e-007	1.000000e+000
5.532475245429971e-008	6.434416e-007	1.000000e+000
5.561772120429971e-008	8.902357e-007	1.000000e+000
5.591068995429971e-008	1.223561e-006	1.000000e+000
5.620365870429971e-008	1.675243e-006	1.000000e+000
5.649662745429971e-008	2.276499e-006	1.000000e+000
5.674754036127506e-008	2.953311e-006	1.000000e+000
5.700224830552230e-008	3.840038e-006	1.000000e+000
5.723920680764515e-008	4.881149e-006	1.000000e+000
5.744932133813550e-008	6.039060e-006	1.000000e+000
5.768043517180083e-008	7.620653e-006	1.000000e+000
5.790212384340862e-008	9.535910e-006	1.000000e+000
5.819509259340862e-008	1.278206e-005	1.000000e+000
5.848806134340862e-008	1.699392e-005	1.000000e+000
5.878103009340862e-008	2.250942e-005	1.000000e+000
5.907399884340862e-008	2.970417e-005	1.000000e+000
5.936696759340862e-008	3.905324e-005	1.000000e+000
5.965993634340862e-008	5.115490e-005	1.000000e+000
5.995290509340862e-008	6.675928e-005	1.000000e+000
6.024587384340861e-008	8.680283e-005	1.000000e+000
6.053884259340860e-008	1.124495e-004	1.000000e+000
6.083181134340860e-008	1.451393e-004	1.000000e+000
6.112478009340859e-008	1.866466e-004	1.000000e+000
6.141774884340859e-008	2.391469e-004	1.000000e+000
6.171071759340858e-008	3.052966e-004	1.000000e+000
6.200368634340857e-008	3.883236e-004	1.000000e+000
6.229665509340857e-008	4.921326e-004	1.000000e+000
6.258962384340856e-008	6.214255e-004	1.000000e+000
6.288259259340856e-008	7.818366e-004	1.000000e+000
6.317556134340855e-008	9.800865e-004	1.000000e+000
6.346853009340854e-008	1.224152e-003	1.000000e+000
6.376149884340854e-008	1.523457e-003	1.000000e+000
6.405446759340853e-008	1.889076e-003	1.000000e+000
6.434743634340853e-008	2.333960e-003	1.000000e+000
6.464040509340852e-008	2.873180e-003	1.000000e+000
6.493337384340851e-008	3.524177e-003	1.000000e+000
6.522634259340851e-008	4.307030e-003	1.000000e+000
6.551931134340850e-008	5.244731e-003	1.000000e+000
6.581228009340849e-008	6.363457e-003	1.000000e+000
6.610524884340849e-008	7.692846e-003	1.000000e+000
6.639821759340848e-008	9.266251e-003	1.000000e+000
6.669118634340848e-008	1.112098e-002	1.000000e+000
6.698415509340847e-008	1.329851e-002	1.000000e+000
6.727712384340846e-008	1.584463e-002	1.000000e+000
6.757009259340846e-008	1.880959e-002	1.000000e+000
6.786306134340845e-008	2.224807e-002	1.000000e+000
6.815603009340845e-008	2.621920e-002	1.000000e+000
6.844899884340844e-008	3.078638e-002	1.000000e+000
6.874196759340843e-008	3.601700e-002	1.000000e+000
6.903493634340843e-008	4.198208e-002	1.000000e+000
6.932790509340842e-008	4.875569e-002	1.000000e+000
6.962087384340842e-008	5.641429e-002	1.000000e+000
6.991384259340841e-008	6.503583e-002	1.000000e+000
7.020681134340840e-008	7.469875e-002	1.000000e+000
7.049978009340840e-008	8.548075e-002	1.000000e+000
7.079274884340839e-008	9.745740e-002	1.000000e+000
7.108571759340838e-008	1.107007e-001	1.000000e+000
7.137868634340838e-008	1.252771e-001	1.000000e+000
7.167165509340837e-008	1.412462e-001	1.000000e+000
7.196462384340837e-008	1.586583e-001	1.000000e+000
7.225759259340836e-008	1.775528e-001	1.000000e+000
7.255056134340835e-008	1.979561e-001	1.000000e+000
7.284353009340835e-008	2.198798e-001	1.000000e+000
7.313649884340834e-008	2.433186e-001	1.000000e+000
7.342946759340834e-008	2.682488e-001	1.000000e+000
7.372243634340833e-008	2.946269e-001	1.000000e+000
7.401540509340832e-008	3.223884e-001	1.000000e+000
7.430837384340832e-008	3.514467e-001	1.000000e+000
7.460134259340831e-008	3.816934e-001	1.000000e+000
7.489431134340831e-008	4.129975e-001	1.000000e+000
7.518728009340830e-008	4.452069e-001	1.000000e+000
7.548024884340829e-008	4.781487e-001	1.000000e+000
7.577321759340829e-008	5.116317e-001	1.000000e+000
7.606618634340828e-008	5.454481e-001	1.000000e+000
7.635915509340827e-008	5.793768e-001	1.000000e+000
7.665212384340827e-008	6.131867e-001	1.000000e+000
7.694509259340826e-008	6.466405e-001	1.000000e+000
7.723806134340826e-008	6.794988e-001	1.000000e+000
7.753103009340825e-008	7.115250e-001	1.000000e+000
7.782399884340824e-008	7.424899e-001	1.000000e+000
7.811696759340824e-008	7.721762e-001	1.000000e+000
7.840993634340823e-008	8.003838e-001	1.000000e+000
7.870290509340823e-008	8.269334e-001	1.000000e+000
7.899587384340822e-008	8.516713e-001	1.000000e+000
7.928884259340821e-008	8.744724e-001	1.000000e+000
7.958181134340821e-008	8.952433e-001	1.000000e+000
7.987478009340820e-008	9.139239e-001	1.000000e+000
8.016774884340820e-008	9.304892e-001	1.000000e+000
8.046071759340819e-008	9.449488e-001	1.000000e+000
8.075368634340818e-008	9.573469e-001	1.000000e+000
8.104665509340818e-008	9.677597e-001	1.000000e+000
8.133962384340817e-008	9.762936e-001	1.000000e+000
8.163259259340816e-008	9.830809e-001	1.000000e+000
8.192556134340816e-008	9.882764e-001	1.000000e+000
8.221853009340815e-008	9.920520e-001	1.000000e+000
8.251149884340815e-008	9.945916e-001	1.000000e+000
8.280446759340814e-008	9.960859e-001	1.000000e+000
8.309743634340813e-008	9.967270e-001	1.000000e+000
8.339040509340813e-008	9.967029e-001	1.000000e+000
8.368337384340812e-008	9.961929e-001	1.000000e+000
8.397634259340812e-008	9.953630e-001	1.000000e+000
8.426931134340811e-008	9.943628e-001	1.000000e+000
8.456228009340810e-008	9.933223e-001	1.000000e+000
8.485524884340810e-008	9.923502e-001	1.000000e+000
8.514821759340809e-008	9.915328e-001	1.000000e+000
8.544118634340809e-008	9.909343e-001	1.000000e+000
8.573415509340808e-008	9.905970e-001	1.000000e+000
8.602712384340807e-008	9.905437e-001	1.000000e+000
8.632009259340807e-008	9.907787e-001	1.000000e+000
8.661306134340806e-008	9.912916e-001	1.000000e+000
8.690603009340805e-008	9.920594e-001	1.000000e+000
8.719899884340805e-008	9.930497e-001	1.000000e+000
8.749196759340804e-008	9.942203e-001	1.000000e+000
8.774710033332344e-008	9.953594e-001	1.000000e+000
8.801108379352217e-008	9.966248e-001	1.000000e+000
8.825901510664131e-008	9.978626e-001	1.000000e+000
8.851014524267287e-008	9.991395e-001	1.000000e+000
8.879478298148749e-008	1.000584e+000	1.000000e+000
8.906473605776716e-008	1.001924e+000	1.000000e+000
8.935770480776716e-008	1.003318e+000	1.000000e+000
8.965067355776715e-008	1.004627e+000	1.000000e+000
8.994364230776715e-008	1.005828e+000	1.000000e+000
9.023661105776714e-008	1.006903e+000	1.000000e+000
9.052957980776713e-008	1.007840e+000	1.000000e+000
9.082254855776713e-008	1.008626e+000	1.000000e+000
9.111551730776712e-008	1.009261e+000	1.000000e+000
9.136353677663209e-008	1.009667e+000	1.000000e+000
9.163047202395356e-008	1.009965e+000	1.000000e+000
9.188953191294583e-008	1.010130e+000	1.000000e+000
9.209520848505815e-008	1.010166e+000	1.000000e+000
9.230568908109398e-008	1.010116e+000	1.000000e+000
9.250203341736847e-008	1.009992e+000	1.000000e+000
9.273640709997569e-008	1.009756e+000	1.000000e+000
9.295714645559167e-008	1.009452e+000	1.000000e+000
9.324898430466413e-008	1.008942e+000	1.000000e+000
9.354195305466413e-008	1.008338e+000	1.000000e+000
9.383492180466412e-008	1.007663e+000	1.000000e+000
9.412789055466411e-008	1.006950e+000	1.000000e+000
9.442085930466411e-008	1.006233e+000	1.000000e+000
9.471382805466410e-008	1.005553e+000	1.000000e+000
9.500679680466409e-008	1.004946e+000	1.000000e+000
9.529976555466409e-008	1.004446e+000	1.000000e+000
9.557564287840344e-008	1.004105e+000	1.000000e+000
9.586861162840344e-008	1.003894e+000	1.000000e+000
9.609469461499479e-008	1.003853e+000	1.000000e+000
9.632499508376819e-008	1.003935e+000	1.000000e+000
9.656929435926581e-008	1.004151e+000	1.000000e+000
9.685945025329344e-008	1.004562e+000	1.000000e+000
9.715241900329343e-008	1.005119e+000	1.000000e+000
9.744538775329342e-008	1.005794e+000	1.000000e+000
9.773835650329342e-008	1.006544e+000	1.000000e+000
