time	V(out)	V(n001)
0.000000000000000e+000	0.000000e+000	0.000000e+000
2.929687488293547e-015	0.000000e+000	3.906250e-007
5.859374976587093e-015	0.000000e+000	7.812500e-007
6.862165151151572e-012	0.000000e+000	9.149554e-004
1.371847092732656e-011	0.000000e+000	1.829129e-003
2.057477670350154e-011	0.000000e+000	2.743304e-003
2.743108247967653e-011	0.000000e+000	3.657478e-003
3.428738825585152e-011	0.000000e+000	4.571652e-003
4.114369403202650e-011	0.000000e+000	5.485826e-003
4.799999980820147e-011	0.000000e+000	6.400000e-003
9.599999961640293e-011	0.000000e+000	1.280000e-002
1.404606014236565e-010	0.000000e+000	1.872808e-002
1.783236865824398e-010	0.000000e+000	2.377649e-002
2.133624804419516e-010	0.000000e+000	2.844833e-002
2.524063542346297e-010	0.000000e+000	3.365418e-002
2.929017788970762e-010	0.000000e+000	3.905357e-002
3.425937548498220e-010	0.000000e+000	4.567917e-002
3.978514655120642e-010	0.000000e+000	5.304686e-002
4.645797710677486e-010	0.000000e+000	6.194397e-002
5.403068812387476e-010	0.000000e+000	7.204092e-002
6.307358062350090e-010	0.000000e+000	8.409811e-002
7.079893803692061e-010	0.000000e+000	9.439858e-002
7.836459236611387e-010	0.000000e+000	1.044861e-001
8.648150319715850e-010	0.000000e+000	1.153087e-001
9.533838991931495e-010	0.000000e+000	1.271179e-001
1.051271808406195e-009	0.000000e+000	1.401696e-001
1.159241009936828e-009	0.000000e+000	1.545655e-001
1.278989387682822e-009	0.000000e+000	1.705319e-001
1.396557812889042e-009	0.000000e+000	1.862077e-001
1.506237046328307e-009	0.000000e+000	2.008316e-001
1.622814105635592e-009	0.000000e+000	2.163752e-001
1.745252821730090e-009	0.000000e+000	2.327004e-001
1.878826092854392e-009	0.000000e+000	2.505102e-001
2.021722797969882e-009	0.000000e+000	2.695630e-001
2.177735489724570e-009	0.000000e+000	2.903647e-001
2.313196995441448e-009	0.000000e+000	3.084263e-001
2.459900481889272e-009	0.000000e+000	3.279867e-001
2.607287994033612e-009	0.000000e+000	3.476384e-001
2.769490394963849e-009	0.000000e+000	3.692654e-001
2.937795246810041e-009	0.000000e+000	3.917060e-001
3.121752783602838e-009	0.000000e+000	4.162337e-001
3.302567426918073e-009	0.000000e+000	4.403423e-001
3.469663158169185e-009	0.000000e+000	4.626217e-001
3.654689521797214e-009	0.000000e+000	4.872919e-001
3.840326689612211e-009	0.000000e+000	5.120435e-001
4.044539681067157e-009	0.000000e+000	5.392720e-001
4.227764994987606e-009	0.000000e+000	5.637020e-001
4.422060863015607e-009	0.000000e+000	5.896081e-001
4.617703286808859e-009	0.000000e+000	6.156937e-001
4.828249794968700e-009	0.000000e+000	6.437666e-001
5.045663481100010e-009	0.000000e+000	6.727551e-001
5.245441075231733e-009	0.000000e+000	6.993921e-001
5.458755053440760e-009	0.000000e+000	7.278340e-001
5.673038340546209e-009	0.000000e+000	7.564051e-001
5.903234374701521e-009	0.000000e+000	7.870979e-001
6.139853745656884e-009	0.000000e+000	8.186471e-001
6.361321752244273e-009	0.000000e+000	8.481762e-001
6.593822328680316e-009	0.000000e+000	8.791763e-001
6.829555108356707e-009	0.000000e+000	9.106073e-001
7.079883430092167e-009	0.000000e+000	9.439844e-001
7.241472718691558e-009	0.000000e+000	9.655297e-001
7.281792218401954e-009	0.000000e+000	9.709056e-001
7.362431217822746e-009	0.000000e+000	9.816575e-001
7.499999999999999e-009	0.000000e+000	1.000000e+000
7.513756878217725e-009	0.000000e+000	1.000000e+000
7.541270634653175e-009	0.000000e+000	1.000000e+000
7.596298147524077e-009	0.000000e+000	1.000000e+000
7.706353173265880e-009	0.000000e+000	1.000000e+000
7.926463224749485e-009	0.000000e+000	1.000000e+000
8.165171580565447e-009	0.000000e+000	1.000000e+000
8.402737421335003e-009	0.000000e+000	1.000000e+000
8.670384792129401e-009	0.000000e+000	1.000000e+000
8.922443892864793e-009	0.000000e+000	1.000000e+000
9.203252571979989e-009	0.000000e+000	1.000000e+000
9.479896087609552e-009	0.000000e+000	1.000000e+000
9.765674830771160e-009	0.000000e+000	1.000000e+000
1.003512079189841e-008	0.000000e+000	1.000000e+000
1.032786309669213e-008	0.000000e+000	1.000000e+000
1.061910649875856e-008	0.000000e+000	1.000000e+000
1.091207524875856e-008	0.000000e+000	1.000000e+000
1.119789959586993e-008	0.000000e+000	1.000000e+000
1.149086834586993e-008	0.000000e+000	1.000000e+000
1.178383709586993e-008	0.000000e+000	1.000000e+000
1.207680584586993e-008	0.000000e+000	1.000000e+000
1.236977459586993e-008	0.000000e+000	1.000000e+000
1.266274334586993e-008	0.000000e+000	1.000000e+000
1.295571209586993e-008	0.000000e+000	1.000000e+000
1.324868084586993e-008	0.000000e+000	1.000000e+000
1.354164959586993e-008	0.000000e+000	1.000000e+000
1.383461834586993e-008	0.000000e+000	1.000000e+000
1.412758709586993e-008	0.000000e+000	1.000000e+000
1.442055584586993e-008	0.000000e+000	1.000000e+000
1.471352459586993e-008	0.000000e+000	1.000000e+000
1.500649334586993e-008	0.000000e+000	1.000000e+000
1.529946209586993e-008	0.000000e+000	1.000000e+000
1.559243084586993e-008	0.000000e+000	1.000000e+000
1.588539959586994e-008	0.000000e+000	1.000000e+000
1.617836834586994e-008	0.000000e+000	1.000000e+000
1.647133709586994e-008	0.000000e+000	1.000000e+000
1.676430584586994e-008	0.000000e+000	1.000000e+000
1.705727459586994e-008	0.000000e+000	1.000000e+000
1.735024334586994e-008	0.000000e+000	1.000000e+000
1.764321209586994e-008	0.000000e+000	1.000000e+000
1.793618084586994e-008	0.000000e+000	1.000000e+000
1.822914959586994e-008	0.000000e+000	1.000000e+000
1.852211834586994e-008	0.000000e+000	1.000000e+000
1.881508709586994e-008	0.000000e+000	1.000000e+000
1.910805584586994e-008	0.000000e+000	1.000000e+000
1.940102459586994e-008	0.000000e+000	1.000000e+000
1.969399334586994e-008	0.000000e+000	1.000000e+000
1.998696209586994e-008	0.000000e+000	1.000000e+000
2.027993084586994e-008	0.000000e+000	1.000000e+000
2.057289959586994e-008	0.000000e+000	1.000000e+000
2.086586834586994e-008	0.000000e+000	1.000000e+000
2.115883709586994e-008	0.000000e+000	1.000000e+000
2.145180584586994e-008	0.000000e+000	1.000000e+000
2.174477459586995e-008	0.000000e+000	1.000000e+000
2.203774334586995e-008	0.000000e+000	1.000000e+000
2.233071209586995e-008	0.000000e+000	1.000000e+000
2.262368084586995e-008	0.000000e+000	1.000000e+000
2.291664959586995e-008	0.000000e+000	1.000000e+000
2.320961834586995e-008	0.000000e+000	1.000000e+000
2.350258709586995e-008	0.000000e+000	1.000000e+000
2.379555584586995e-008	0.000000e+000	1.000000e+000
2.408852459586995e-008	0.000000e+000	1.000000e+000
2.438149334586995e-008	0.000000e+000	1.000000e+000
2.467446209586995e-008	0.000000e+000	1.000000e+000
2.496743084586995e-008	0.000000e+000	1.000000e+000
2.526039959586995e-008	0.000000e+000	1.000000e+000
2.555336834586995e-008	0.000000e+000	1.000000e+000
2.584633709586995e-008	0.000000e+000	1.000000e+000
2.613930584586995e-008	0.000000e+000	1.000000e+000
2.643227459586995e-008	0.000000e+000	1.000000e+000
2.672524334586995e-008	0.000000e+000	1.000000e+000
2.701821209586995e-008	0.000000e+000	1.000000e+000
2.731118084586995e-008	0.000000e+000	1.000000e+000
2.760414959586996e-008	0.000000e+000	1.000000e+000
2.789711834586996e-008	0.000000e+000	1.000000e+000
2.819008709586996e-008	0.000000e+000	1.000000e+000
2.848305584586996e-008	0.000000e+000	1.000000e+000
2.877602459586996e-008	0.000000e+000	1.000000e+000
2.906899334586996e-008	0.000000e+000	1.000000e+000
2.936196209586996e-008	0.000000e+000	1.000000e+000
2.965493084586996e-008	0.000000e+000	1.000000e+000
2.994789959586996e-008	1.401298e-045	1.000000e+000
3.024086834586996e-008	2.802597e-045	1.000000e+000
3.053383709586996e-008	8.407791e-045	1.000000e+000
3.082680584586996e-008	2.101948e-044	1.000000e+000
3.111977459586996e-008	5.885454e-044	1.000000e+000
3.141274334586996e-008	1.555441e-043	1.000000e+000
3.170571209586996e-008	4.091792e-043	1.000000e+000
3.199868084586996e-008	1.070592e-042	1.000000e+000
3.229164959586996e-008	2.777374e-042	1.000000e+000
3.258461834586996e-008	7.146622e-042	1.000000e+000
3.287758709586996e-008	1.823229e-041	1.000000e+000
3.317055584586997e-008	4.614196e-041	1.000000e+000
3.346352459586997e-008	1.158411e-040	1.000000e+000
3.375649334586997e-008	2.885344e-040	1.000000e+000
3.404946209586997e-008	7.130872e-040	1.000000e+000
3.434243084586997e-008	1.748812e-039	1.000000e+000
3.463539959586997e-008	4.256388e-039	1.000000e+000
3.492836834586997e-008	1.028202e-038	1.000000e+000
3.522133709586997e-008	2.465447e-038	1.000000e+000
3.551430584586997e-008	5.868579e-038	1.000000e+000
3.580727459586997e-008	1.386849e-037	1.000000e+000
3.610024334586997e-008	3.254039e-037	1.000000e+000
3.639321209586997e-008	7.581423e-037	1.000000e+000
3.668618084586997e-008	1.754082e-036	1.000000e+000
3.697914959586997e-008	4.030470e-036	1.000000e+000
3.727211834586997e-008	9.198210e-036	1.000000e+000
3.756508709586997e-008	2.085101e-035	1.000000e+000
3.785805584586997e-008	4.695268e-035	1.000000e+000
3.815102459586997e-008	1.050355e-034	1.000000e+000
3.844399334586997e-008	2.334461e-034	1.000000e+000
3.873696209586997e-008	5.155171e-034	1.000000e+000
3.902993084586998e-008	1.131193e-033	1.000000e+000
3.932289959586998e-008	2.466592e-033	1.000000e+000
3.961586834586998e-008	5.345090e-033	1.000000e+000
3.990883709586998e-008	1.151168e-032	1.000000e+000
4.020180584586998e-008	2.464204e-032	1.000000e+000
4.049477459586998e-008	5.243209e-032	1.000000e+000
4.078774334586998e-008	1.108989e-031	1.000000e+000
4.108071209586998e-008	2.331815e-031	1.000000e+000
4.137368084586998e-008	4.874430e-031	1.000000e+000
4.166664959586998e-008	1.013077e-030	1.000000e+000
4.195961834586998e-008	2.093510e-030	1.000000e+000
4.225258709586998e-008	4.301764e-030	1.000000e+000
4.254555584586998e-008	8.789852e-030	1.000000e+000
4.283852459586998e-008	1.786092e-029	1.000000e+000
4.313149334586998e-008	3.609416e-029	1.000000e+000
4.342446209586998e-008	7.254441e-029	1.000000e+000
4.371743084586998e-008	1.450198e-028	1.000000e+000
4.401039959586998e-008	2.883564e-028	1.000000e+000
4.430336834586998e-008	5.703381e-028	1.000000e+000
4.459633709586998e-008	1.122166e-027	1.000000e+000
4.488930584586999e-008	2.196468e-027	1.000000e+000
4.518227459586999e-008	4.277167e-027	1.000000e+000
4.547524334586999e-008	8.286508e-027	1.000000e+000
4.576821209586999e-008	1.597316e-026	1.000000e+000
4.606118084586999e-008	3.063609e-026	1.000000e+000
4.635414959586999e-008	5.846807e-026	1.000000e+000
4.664711834586999e-008	1.110365e-025	1.000000e+000
4.694008709586999e-008	2.098421e-025	1.000000e+000
4.723305584586999e-008	3.946554e-025	1.000000e+000
4.752602459586999e-008	7.386858e-025	1.000000e+000
4.781899334586999e-008	1.376053e-024	1.000000e+000
4.811196209586999e-008	2.551303e-024	1.000000e+000
4.840493084586999e-008	4.708222e-024	1.000000e+000
4.869789959586999e-008	8.648419e-024	1.000000e+000
4.899086834586999e-008	1.581313e-023	1.000000e+000
4.928383709586999e-008	2.878170e-023	1.000000e+000
4.957680584586999e-008	5.214930e-023	1.000000e+000
4.986977459586999e-008	9.406529e-023	1.000000e+000
5.016274334586999e-008	1.689175e-022	1.000000e+000
5.045571209586999e-008	3.019945e-022	1.000000e+000
5.074868084587000e-008	5.375487e-022	1.000000e+000
5.104164959587000e-008	9.526761e-022	1.000000e+000
5.133461834587000e-008	1.681109e-021	1.000000e+000
5.162758709587000e-008	2.953817e-021	1.000000e+000
5.192055584587000e-008	5.167996e-021	1.000000e+000
5.221352459587000e-008	9.003794e-021	1.000000e+000
5.250649334587000e-008	1.562093e-020	1.000000e+000
5.279946209587000e-008	2.698854e-020	1.000000e+000
5.309243084587000e-008	4.643614e-020	1.000000e+000
5.338539959587000e-008	7.957006e-020	1.000000e+000
5.367836834587000e-008	1.357915e-019	1.000000e+000
5.397133709587000e-008	2.308007e-019	1.000000e+000
5.426430584587000e-008	3.907110e-019	1.000000e+000
5.455727459587000e-008	6.587789e-019	1.000000e+000
5.485024334587000e-008	1.106372e-018	1.000000e+000
5.514321209587000e-008	1.850766e-018	1.000000e+000
5.543618084587000e-008	3.083914e-018	1.000000e+000
5.572914959587000e-008	5.118754e-018	1.000000e+000
5.602211834587000e-008	8.463470e-018	1.000000e+000
5.631508709587000e-008	1.394010e-017	1.000000e+000
5.660805584587001e-008	2.287319e-017	1.000000e+000
5.690102459587001e-008	3.738882e-017	1.000000e+000
5.719399334587001e-008	6.088650e-017	1.000000e+000
5.748696209587001e-008	9.878126e-017	1.000000e+000
5.777993084587001e-008	1.596659e-016	1.000000e+000
5.807289959587001e-008	2.571248e-016	1.000000e+000
5.836586834587001e-008	4.125523e-016	1.000000e+000
5.865883709587001e-008	6.595185e-016	1.000000e+000
5.895180584587001e-008	1.050502e-015	1.000000e+000
5.924477459587001e-008	1.667240e-015	1.000000e+000
5.953774334587001e-008	2.636570e-015	1.000000e+000
5.983071209587001e-008	4.154601e-015	1.000000e+000
6.012368084587000e-008	6.523441e-015	1.000000e+000
6.041664959587000e-008	1.020681e-014	1.000000e+000
6.070961834586999e-008	1.591393e-014	1.000000e+000
6.100258709586999e-008	2.472563e-014	1.000000e+000
6.129555584586998e-008	3.828313e-014	1.000000e+000
6.158852459586997e-008	5.906985e-014	1.000000e+000
6.188149334586997e-008	9.083019e-014	1.000000e+000
6.217446209586996e-008	1.391900e-013	1.000000e+000
6.246743084586996e-008	2.125725e-013	1.000000e+000
6.276039959586995e-008	3.235447e-013	1.000000e+000
6.305336834586994e-008	4.907916e-013	1.000000e+000
6.334633709586994e-008	7.419976e-013	1.000000e+000
6.363930584586993e-008	1.118040e-012	1.000000e+000
6.393227459586993e-008	1.679068e-012	1.000000e+000
6.422524334586992e-008	2.513289e-012	1.000000e+000
6.451821209586991e-008	3.749608e-012	1.000000e+000
6.481118084586991e-008	5.575774e-012	1.000000e+000
6.510414959586990e-008	8.264311e-012	1.000000e+000
6.539711834586989e-008	1.220946e-011	1.000000e+000
6.569008709586989e-008	1.797962e-011	1.000000e+000
6.598305584586988e-008	2.639154e-011	1.000000e+000
6.627602459586988e-008	3.861490e-011	1.000000e+000
6.656899334586987e-008	5.631924e-011	1.000000e+000
6.686196209586986e-008	8.187964e-011	1.000000e+000
6.715493084586986e-008	1.186636e-010	1.000000e+000
6.744789959586985e-008	1.714302e-010	1.000000e+000
6.774086834586985e-008	2.468823e-010	1.000000e+000
6.803383709586984e-008	3.544303e-010	1.000000e+000
6.832680584586983e-008	5.072416e-010	1.000000e+000
6.861977459586983e-008	7.236804e-010	1.000000e+000
6.891274334586982e-008	1.029275e-009	1.000000e+000
6.920571209586982e-008	1.459397e-009	1.000000e+000
6.949868084586981e-008	2.062895e-009	1.000000e+000
6.979164959586980e-008	2.907013e-009	1.000000e+000
7.008461834586980e-008	4.084014e-009	1.000000e+000
7.037758709586979e-008	5.720080e-009	1.000000e+000
7.067055584586978e-008	7.987220e-009	1.000000e+000
7.096352459586978e-008	1.111915e-008	1.000000e+000
7.125649334586977e-008	1.543242e-008	1.000000e+000
7.154946209586977e-008	2.135436e-008	1.000000e+000
7.184243084586976e-008	2.946000e-008	1.000000e+000
7.213539959586975e-008	4.052063e-008	1.000000e+000
7.242836834586975e-008	5.556739e-008	1.000000e+000
7.272133709586974e-008	7.597447e-008	1.000000e+000
7.301430584586974e-008	1.035672e-007	1.000000e+000
7.330727459586973e-008	1.407625e-007	1.000000e+000
7.360024334586972e-008	1.907500e-007	1.000000e+000
7.389321209586972e-008	2.577258e-007	1.000000e+000
7.418618084586971e-008	3.471919e-007	1.000000e+000
7.447914959586971e-008	4.663398e-007	1.000000e+000
7.477211834586970e-008	6.245381e-007	1.000000e+000
7.506508709586969e-008	8.339524e-007	1.000000e+000
7.535805584586969e-008	1.110329e-006	1.000000e+000
7.565102459586968e-008	1.473984e-006	1.000000e+000
7.594399334586967e-008	1.951039e-006	1.000000e+000
7.623696209586967e-008	2.574979e-006	1.000000e+000
7.652993084586966e-008	3.388578e-006	1.000000e+000
7.682289959586966e-008	4.446305e-006	1.000000e+000
7.711586834586965e-008	5.817285e-006	1.000000e+000
7.740883709586964e-008	7.588962e-006	1.000000e+000
7.770180584586964e-008	9.871581e-006	1.000000e+000
7.799477459586963e-008	1.280367e-005	1.000000e+000
7.828774334586963e-008	1.655873e-005	1.000000e+000
7.858071209586962e-008	2.135331e-005	1.000000e+000
7.887368084586961e-008	2.745681e-005	1.000000e+000
7.916664959586961e-008	3.520321e-005	1.000000e+000
7.945961834586960e-008	4.500517e-005	1.000000e+000
7.975258709586960e-008	5.737083e-005	1.000000e+000
8.004555584586959e-008	7.292372e-005	1.000000e+000
8.033852459586958e-008	9.242634e-005	1.000000e+000
8.063149334586958e-008	1.168079e-004	1.000000e+000
8.092446209586957e-008	1.471967e-004	1.000000e+000
8.121743084586956e-008	1.849581e-004	1.000000e+000
8.151039959586956e-008	2.317383e-004	1.000000e+000
8.180336834586955e-008	2.895151e-004	1.000000e+000
8.209633709586955e-008	3.606559e-004	1.000000e+000
8.238930584586954e-008	4.479842e-004	1.000000e+000
8.268227459586953e-008	5.548550e-004	1.000000e+000
8.297524334586953e-008	6.852399e-004	1.000000e+000
8.326821209586952e-008	8.438224e-004	1.000000e+000
8.356118084586952e-008	1.036105e-003	1.000000e+000
8.385414959586951e-008	1.268526e-003	1.000000e+000
8.414711834586950e-008	1.548590e-003	1.000000e+000
8.444008709586950e-008	1.885010e-003	1.000000e+000
8.473305584586949e-008	2.287859e-003	1.000000e+000
8.502602459586949e-008	2.768737e-003	1.000000e+000
8.531899334586948e-008	3.340940e-003	1.000000e+000
8.561196209586947e-008	4.019651e-003	1.000000e+000
8.590493084586947e-008	4.822124e-003	1.000000e+000
8.619789959586946e-008	5.767884e-003	1.000000e+000
8.649086834586945e-008	6.878920e-003	1.000000e+000
8.678383709586945e-008	8.179882e-003	1.000000e+000
8.707680584586944e-008	9.698262e-003	1.000000e+000
8.736977459586944e-008	1.146458e-002	1.000000e+000
8.766274334586943e-008	1.351253e-002	1.000000e+000
8.795571209586942e-008	1.587911e-002	1.000000e+000
8.824868084586942e-008	1.860473e-002	1.000000e+000
8.854164959586941e-008	2.173326e-002	1.000000e+000
8.883461834586941e-008	2.531203e-002	1.000000e+000
8.912758709586940e-008	2.939180e-002	1.000000e+000
8.942055584586939e-008	3.402658e-002	1.000000e+000
8.971352459586939e-008	3.927350e-002	1.000000e+000
9.000649334586938e-008	4.519247e-002	1.000000e+000
9.029946209586938e-008	5.184576e-002	1.000000e+000
9.059243084586937e-008	5.929757e-002	1.000000e+000
9.088539959586936e-008	6.761339e-002	1.000000e+000
9.117836834586936e-008	7.685925e-002	1.000000e+000
9.147133709586935e-008	8.710089e-002	1.000000e+000
9.176430584586934e-008	9.840281e-002	1.000000e+000
9.205727459586934e-008	1.108271e-001	1.000000e+000
9.235024334586933e-008	1.244325e-001	1.000000e+000
9.264321209586933e-008	1.392726e-001	1.000000e+000
9.293618084586932e-008	1.553951e-001	1.000000e+000
9.322914959586931e-008	1.728398e-001	1.000000e+000
9.352211834586931e-008	1.916376e-001	1.000000e+000
9.381508709586930e-008	2.118084e-001	1.000000e+000
9.410805584586930e-008	2.333604e-001	1.000000e+000
9.440102459586929e-008	2.562881e-001	1.000000e+000
9.469399334586928e-008	2.805712e-001	1.000000e+000
9.498696209586928e-008	3.061731e-001	1.000000e+000
9.527993084586927e-008	3.330408e-001	1.000000e+000
9.557289959586926e-008	3.611029e-001	1.000000e+000
9.586586834586926e-008	3.902702e-001	1.000000e+000
9.615883709586925e-008	4.204350e-001	1.000000e+000
9.645180584586925e-008	4.514712e-001	1.000000e+000
9.674477459586924e-008	4.832352e-001	1.000000e+000
9.703774334586923e-008	5.155668e-001	1.000000e+000
9.733071209586923e-008	5.482904e-001	1.000000e+000
9.762368084586922e-008	5.812172e-001	1.000000e+000
9.791664959586922e-008	6.141471e-001	1.000000e+000
9.820961834586921e-008	6.468717e-001	1.000000e+000
9.850258709586920e-008	6.791769e-001	1.000000e+000
9.879555584586920e-008	7.108469e-001	1.000000e+000
9.908852459586919e-008	7.416672e-001	1.000000e+000
9.938149334586919e-008	7.714287e-001	1.000000e+000
9.967446209586918e-008	7.999317e-001	1.000000e+000
9.996743084586917e-008	8.269897e-001	1.000000e+000
1.002603995958692e-007	8.524330e-001	1.000000e+000
1.005533683458692e-007	8.761126e-001	1.000000e+000
1.008463370958692e-007	8.979032e-001	1.000000e+000
1.011393058458692e-007	9.177064e-001	1.000000e+000
1.014322745958691e-007	9.354526e-001	1.000000e+000
1.017252433458691e-007	9.511030e-001	1.000000e+000
1.020182120958691e-007	9.646504e-001	1.000000e+000
