time	V(out)	V(n046)
0.000000000000000e+000	0.000000e+000	0.000000e+000
2.929687488293547e-015	0.000000e+000	3.906250e-007
5.859374976587093e-015	0.000000e+000	7.812500e-007
6.862165151151572e-012	0.000000e+000	9.149554e-004
1.371847092732656e-011	0.000000e+000	1.829129e-003
2.057477670350154e-011	0.000000e+000	2.743304e-003
2.743108247967653e-011	0.000000e+000	3.657478e-003
3.428738825585152e-011	0.000000e+000	4.571652e-003
4.114369403202650e-011	0.000000e+000	5.485826e-003
4.799999980820147e-011	0.000000e+000	6.400000e-003
9.599999961640293e-011	0.000000e+000	1.280000e-002
1.404606014236564e-010	0.000000e+000	1.872808e-002
1.783236865824396e-010	0.000000e+000	2.377649e-002
2.133624804419512e-010	0.000000e+000	2.844833e-002
2.524063542346291e-010	0.000000e+000	3.365418e-002
2.929017788970751e-010	0.000000e+000	3.905357e-002
3.425937548498207e-010	0.000000e+000	4.567917e-002
3.978514655120629e-010	0.000000e+000	5.304686e-002
4.645797710677467e-010	0.000000e+000	6.194397e-002
5.403068812387455e-010	0.000000e+000	7.204092e-002
6.307358062350067e-010	0.000000e+000	8.409811e-002
7.079893803692037e-010	0.000000e+000	9.439858e-002
7.836459236611358e-010	0.000000e+000	1.044861e-001
8.648150319715818e-010	0.000000e+000	1.153087e-001
9.533838991931454e-010	0.000000e+000	1.271179e-001
1.051271808406191e-009	0.000000e+000	1.401696e-001
1.159241009936823e-009	0.000000e+000	1.545655e-001
1.278989387682815e-009	0.000000e+000	1.705319e-001
1.396557812889038e-009	0.000000e+000	1.862077e-001
1.506237046328303e-009	0.000000e+000	2.008316e-001
1.622814105635588e-009	0.000000e+000	2.163752e-001
1.745252821730085e-009	0.000000e+000	2.327004e-001
1.878826092854386e-009	0.000000e+000	2.505102e-001
2.021722797969876e-009	0.000000e+000	2.695630e-001
2.177735489724566e-009	0.000000e+000	2.903647e-001
2.313196995441442e-009	0.000000e+000	3.084263e-001
2.459900481889272e-009	0.000000e+000	3.279867e-001
2.607287994033606e-009	0.000000e+000	3.476384e-001
2.769490394963843e-009	0.000000e+000	3.692654e-001
2.937795246810035e-009	0.000000e+000	3.917060e-001
3.121752783602833e-009	0.000000e+000	4.162337e-001
3.302567426918069e-009	0.000000e+000	4.403423e-001
3.469663158169179e-009	0.000000e+000	4.626217e-001
3.654689521797208e-009	0.000000e+000	4.872919e-001
3.840326689612200e-009	0.000000e+000	5.120435e-001
4.044539681067148e-009	0.000000e+000	5.392720e-001
4.227764994987598e-009	0.000000e+000	5.637020e-001
4.422060863015600e-009	0.000000e+000	5.896081e-001
4.617703286808851e-009	0.000000e+000	6.156937e-001
4.828249794968690e-009	0.000000e+000	6.437666e-001
5.045663481100002e-009	0.000000e+000	6.727551e-001
5.245441075231728e-009	0.000000e+000	6.993921e-001
5.458755053440756e-009	0.000000e+000	7.278340e-001
5.673038340546200e-009	0.000000e+000	7.564051e-001
5.903234374701504e-009	0.000000e+000	7.870979e-001
6.139853745656873e-009	0.000000e+000	8.186471e-001
6.361321752244257e-009	0.000000e+000	8.481762e-001
6.593822328680296e-009	0.000000e+000	8.791763e-001
6.829555108356687e-009	0.000000e+000	9.106073e-001
7.079883430092151e-009	0.000000e+000	9.439844e-001
7.241472718691562e-009	0.000000e+000	9.655297e-001
7.281792218401959e-009	0.000000e+000	9.709056e-001
7.362431217822754e-009	0.000000e+000	9.816575e-001
7.499999999999999e-009	0.000000e+000	1.000000e+000
7.513756878217725e-009	0.000000e+000	1.000000e+000
7.541270634653173e-009	0.000000e+000	1.000000e+000
7.596298147524072e-009	0.000000e+000	1.000000e+000
7.706353173265868e-009	0.000000e+000	1.000000e+000
7.926463224749460e-009	0.000000e+000	1.000000e+000
8.165171580565411e-009	0.000000e+000	1.000000e+000
8.402737421334976e-009	0.000000e+000	1.000000e+000
8.670384792129379e-009	0.000000e+000	1.000000e+000
8.922443892864773e-009	0.000000e+000	1.000000e+000
9.203252571979961e-009	0.000000e+000	1.000000e+000
9.479896087609527e-009	0.000000e+000	1.000000e+000
9.765674830771149e-009	0.000000e+000	1.000000e+000
1.003512079189839e-008	0.000000e+000	1.000000e+000
1.032786309669212e-008	0.000000e+000	1.000000e+000
1.061910649875858e-008	0.000000e+000	1.000000e+000
1.091207524875858e-008	0.000000e+000	1.000000e+000
1.119789959586996e-008	0.000000e+000	1.000000e+000
1.149086834586996e-008	0.000000e+000	1.000000e+000
1.178383709586996e-008	2.802597e-045	1.000000e+000
1.207680584586997e-008	1.121039e-044	1.000000e+000
1.236977459586997e-008	6.025583e-044	1.000000e+000
1.266274334586997e-008	2.970753e-043	1.000000e+000
1.295571209586997e-008	1.409706e-042	1.000000e+000
1.324868084586997e-008	6.468394e-042	1.000000e+000
1.354164959586997e-008	2.871401e-041	1.000000e+000
1.383461834586997e-008	1.234544e-040	1.000000e+000
1.412758709586997e-008	5.149365e-040	1.000000e+000
1.442055584586997e-008	2.086626e-039	1.000000e+000
1.471352459586997e-008	8.225172e-039	1.000000e+000
1.500649334586997e-008	3.157685e-038	1.000000e+000
1.529946209586997e-008	1.181923e-037	1.000000e+000
1.559243084586997e-008	4.317596e-037	1.000000e+000
1.588539959586997e-008	1.540747e-036	1.000000e+000
1.617836834586997e-008	5.375661e-036	1.000000e+000
1.647133709586997e-008	1.835240e-035	1.000000e+000
1.676430584586997e-008	6.135356e-035	1.000000e+000
1.705727459586997e-008	2.009915e-034	1.000000e+000
1.735024334586997e-008	6.456436e-034	1.000000e+000
1.764321209586997e-008	2.034951e-033	1.000000e+000
1.793618084586998e-008	6.296719e-033	1.000000e+000
1.822914959586998e-008	1.913872e-032	1.000000e+000
1.852211834586998e-008	5.717097e-032	1.000000e+000
1.881508709586998e-008	1.679253e-031	1.000000e+000
1.910805584586998e-008	4.852186e-031	1.000000e+000
1.940102459586998e-008	1.379850e-030	1.000000e+000
1.969399334586998e-008	3.863515e-030	1.000000e+000
1.998696209586998e-008	1.065525e-029	1.000000e+000
2.027993084586998e-008	2.895619e-029	1.000000e+000
2.057289959586998e-008	7.756646e-029	1.000000e+000
2.086586834586998e-008	2.048862e-028	1.000000e+000
2.115883709586998e-008	5.338294e-028	1.000000e+000
2.145180584586998e-008	1.372403e-027	1.000000e+000
2.174477459586998e-008	3.482434e-027	1.000000e+000
2.203774334586998e-008	8.724355e-027	1.000000e+000
2.233071209586998e-008	2.158514e-026	1.000000e+000
2.262368084586998e-008	5.275514e-026	1.000000e+000
2.291664959586998e-008	1.274018e-025	1.000000e+000
2.320961834586998e-008	3.040854e-025	1.000000e+000
2.350258709586998e-008	7.175113e-025	1.000000e+000
2.379555584586999e-008	1.674078e-024	1.000000e+000
2.408852459586999e-008	3.863070e-024	1.000000e+000
2.438149334586999e-008	8.818463e-024	1.000000e+000
2.467446209586999e-008	1.991803e-023	1.000000e+000
2.496743084586999e-008	4.452252e-023	1.000000e+000
2.526039959586999e-008	9.850919e-023	1.000000e+000
2.555336834586999e-008	2.157835e-022	1.000000e+000
2.584633709586999e-008	4.680392e-022	1.000000e+000
2.613930584586999e-008	1.005413e-021	1.000000e+000
2.643227459586999e-008	2.139332e-021	1.000000e+000
2.672524334586999e-008	4.509764e-021	1.000000e+000
2.701821209586999e-008	9.419763e-021	1.000000e+000
2.731118084586999e-008	1.949858e-020	1.000000e+000
2.760414959586999e-008	4.000436e-020	1.000000e+000
2.789711834586999e-008	8.136079e-020	1.000000e+000
2.819008709586999e-008	1.640540e-019	1.000000e+000
2.848305584586999e-008	3.280052e-019	1.000000e+000
2.877602459586999e-008	6.503604e-019	1.000000e+000
2.906899334586999e-008	1.278974e-018	1.000000e+000
2.936196209586999e-008	2.494924e-018	1.000000e+000
2.965493084587000e-008	4.828285e-018	1.000000e+000
2.994789959586999e-008	9.270834e-018	1.000000e+000
3.024086834586999e-008	1.766380e-017	1.000000e+000
3.053383709586999e-008	3.339923e-017	1.000000e+000
3.082680584586999e-008	6.267902e-017	1.000000e+000
3.111977459586999e-008	1.167579e-016	1.000000e+000
3.141274334587000e-008	2.159099e-016	1.000000e+000
3.170571209587000e-008	3.963908e-016	1.000000e+000
3.199868084587000e-008	7.225712e-016	1.000000e+000
3.229164959587000e-008	1.307929e-015	1.000000e+000
3.258461834587000e-008	2.351112e-015	1.000000e+000
3.287758709587000e-008	4.197457e-015	1.000000e+000
3.317055584587000e-008	7.443207e-015	1.000000e+000
3.346352459587000e-008	1.311085e-014	1.000000e+000
3.375649334587000e-008	2.294215e-014	1.000000e+000
3.404946209587000e-008	3.988446e-014	1.000000e+000
3.434243084587000e-008	6.889270e-014	1.000000e+000
3.463539959587000e-008	1.182429e-013	1.000000e+000
3.492836834587000e-008	2.016699e-013	1.000000e+000
3.522133709587000e-008	3.418234e-013	1.000000e+000
3.551430584587000e-008	5.758210e-013	1.000000e+000
3.580727459587000e-008	9.641118e-013	1.000000e+000
3.610024334587000e-008	1.604538e-012	1.000000e+000
3.639321209587000e-008	2.654502e-012	1.000000e+000
3.668618084587000e-008	4.365698e-012	1.000000e+000
3.697914959587000e-008	7.138193e-012	1.000000e+000
3.727211834587001e-008	1.160413e-011	1.000000e+000
3.756508709587001e-008	1.875648e-011	1.000000e+000
3.785805584587001e-008	3.014599e-011	1.000000e+000
3.815102459587001e-008	4.818040e-011	1.000000e+000
3.844399334587001e-008	7.657684e-011	1.000000e+000
3.873696209587001e-008	1.210412e-010	1.000000e+000
3.902993084587001e-008	1.902828e-010	1.000000e+000
3.932289959587001e-008	2.975212e-010	1.000000e+000
3.961586834587001e-008	4.627105e-010	1.000000e+000
3.990883709587001e-008	7.158039e-010	1.000000e+000
4.020180584587001e-008	1.101519e-009	1.000000e+000
4.049477459587001e-008	1.686251e-009	1.000000e+000
4.078774334587001e-008	2.568052e-009	1.000000e+000
4.108071209587001e-008	3.890944e-009	1.000000e+000
4.137368084587001e-008	5.865343e-009	1.000000e+000
4.166664959587001e-008	8.797039e-009	1.000000e+000
4.195961834587001e-008	1.312808e-008	1.000000e+000
4.225258709587001e-008	1.949413e-008	1.000000e+000
4.254555584587001e-008	2.880450e-008	1.000000e+000
4.283852459587001e-008	4.235321e-008	1.000000e+000
4.313149334587002e-008	6.197219e-008	1.000000e+000
4.342446209587002e-008	9.024156e-008	1.000000e+000
4.371743084587002e-008	1.307765e-007	1.000000e+000
4.401039959587002e-008	1.886167e-007	1.000000e+000
4.430336834587002e-008	2.707518e-007	1.000000e+000
4.459633709587002e-008	3.868266e-007	1.000000e+000
4.488930584587002e-008	5.500823e-007	1.000000e+000
4.518227459587002e-008	7.786060e-007	1.000000e+000
4.547524334587002e-008	1.096979e-006	1.000000e+000
4.576821209587002e-008	1.538441e-006	1.000000e+000
4.606118084587002e-008	2.147715e-006	1.000000e+000
4.635414959587002e-008	2.984671e-006	1.000000e+000
4.664711834587002e-008	4.129054e-006	1.000000e+000
4.694008709587002e-008	5.686553e-006	1.000000e+000
4.723305584587002e-008	7.796538e-006	1.000000e+000
4.752602459587002e-008	1.064187e-005	1.000000e+000
4.781899334587002e-008	1.446127e-005	1.000000e+000
4.811196209587002e-008	1.956484e-005	1.000000e+000
4.840493084587002e-008	2.635334e-005	1.000000e+000
4.869789959587002e-008	3.534211e-005	1.000000e+000
4.899086834587003e-008	4.719049e-005	1.000000e+000
4.928383709587003e-008	6.273775e-005	1.000000e+000
4.957680584587003e-008	8.304682e-005	1.000000e+000
4.986977459587003e-008	1.094570e-004	1.000000e+000
5.016274334587003e-008	1.436469e-004	1.000000e+000
5.045571209587003e-008	1.877103e-004	1.000000e+000
5.074868084587003e-008	2.442442e-004	1.000000e+000
5.104164959587003e-008	3.164538e-004	1.000000e+000
5.133461834587003e-008	4.082738e-004	1.000000e+000
5.162758709587003e-008	5.245087e-004	1.000000e+000
5.192055584587003e-008	6.689506e-004	1.000000e+000
5.215401928795157e-008	8.088929e-004	1.000000e+000
5.235786709043311e-008	9.548102e-004	1.000000e+000
5.257033527764935e-008	1.134033e-003	1.000000e+000
5.279533441559221e-008	1.358076e-003	1.000000e+000
5.304378538952502e-008	1.652650e-003	1.000000e+000
5.330840894856818e-008	2.030236e-003	1.000000e+000
5.359572802105393e-008	2.527498e-003	1.000000e+000
5.388869677105393e-008	3.142154e-003	1.000000e+000
5.416333565131180e-008	3.835200e-003	1.000000e+000
5.441334149609249e-008	4.585858e-003	1.000000e+000
5.465942305186180e-008	5.455406e-003	1.000000e+000
5.490369352616912e-008	6.468956e-003	1.000000e+000
5.517788904012939e-008	7.809734e-003	1.000000e+000
5.547085779012939e-008	9.503422e-003	1.000000e+000
5.576382654012939e-008	1.151048e-002	1.000000e+000
5.605679529012939e-008	1.388365e-002	1.000000e+000
5.634976404012939e-008	1.667674e-002	1.000000e+000
5.664273279012939e-008	1.994879e-002	1.000000e+000
5.693570154012939e-008	2.375337e-002	1.000000e+000
5.720935485166424e-008	2.784829e-002	1.000000e+000
5.746774125442977e-008	3.226221e-002	1.000000e+000
5.771938460210252e-008	3.714345e-002	1.000000e+000
5.799620744919730e-008	4.323215e-002	1.000000e+000
5.828917619919730e-008	5.053674e-002	1.000000e+000
5.858214494919730e-008	5.881455e-002	1.000000e+000
5.887511369919731e-008	6.816437e-002	1.000000e+000
5.916808244919731e-008	7.864740e-002	1.000000e+000
5.943780678295714e-008	8.938216e-002	1.000000e+000
5.969670893684391e-008	1.007620e-001	1.000000e+000
5.996071098236163e-008	1.134683e-001	1.000000e+000
6.020396524584976e-008	1.262139e-001	1.000000e+000
6.045110827682209e-008	1.402410e-001	1.000000e+000
6.069589736569270e-008	1.552673e-001	1.000000e+000
6.098886611569269e-008	1.747042e-001	1.000000e+000
6.128183486569269e-008	1.956773e-001	1.000000e+000
6.157480361569268e-008	2.182589e-001	1.000000e+000
6.186777236569267e-008	2.424054e-001	1.000000e+000
6.213633783070352e-008	2.659024e-001	1.000000e+000
6.239180496627280e-008	2.894488e-001	1.000000e+000
6.263088719540190e-008	3.125044e-001	1.000000e+000
6.287432501523853e-008	3.369289e-001	1.000000e+000
6.311139307549749e-008	3.615541e-001	1.000000e+000
6.334608586425789e-008	3.867213e-001	1.000000e+000
6.363232300471411e-008	4.183001e-001	1.000000e+000
6.392529175471411e-008	4.514025e-001	1.000000e+000
6.418921197045072e-008	4.818022e-001	1.000000e+000
6.448218072045072e-008	5.159908e-001	1.000000e+000
6.477514947045071e-008	5.504000e-001	1.000000e+000
6.503059633036731e-008	5.804104e-001	1.000000e+000
6.529141561229274e-008	6.108819e-001	1.000000e+000
6.552949825624683e-008	6.383919e-001	1.000000e+000
6.576872492263341e-008	6.655960e-001	1.000000e+000
6.599667718255230e-008	6.909645e-001	1.000000e+000
6.625436499174574e-008	7.188639e-001	1.000000e+000
6.650559759848293e-008	7.451287e-001	1.000000e+000
6.678255234744963e-008	7.728247e-001	1.000000e+000
6.707552109744963e-008	8.006553e-001	1.000000e+000
6.732067726807512e-008	8.226293e-001	1.000000e+000
6.755380332303406e-008	8.422428e-001	1.000000e+000
6.778829204453898e-008	8.606697e-001	1.000000e+000
6.803898025517999e-008	8.789420e-001	1.000000e+000
6.827748448072254e-008	8.949443e-001	1.000000e+000
6.850809527377033e-008	9.090847e-001	1.000000e+000
6.873188129030632e-008	9.214678e-001	1.000000e+000
6.902031354333883e-008	9.356375e-001	1.000000e+000
6.931328229333882e-008	9.482338e-001	1.000000e+000
6.956137577023208e-008	9.574022e-001	1.000000e+000
6.981347731883957e-008	9.653375e-001	1.000000e+000
7.005797493623705e-008	9.718586e-001	1.000000e+000
7.028898300512100e-008	9.770166e-001	1.000000e+000
7.051431918647929e-008	9.811770e-001	1.000000e+000
7.074155946547315e-008	9.845886e-001	1.000000e+000
7.097688418202889e-008	9.874047e-001	1.000000e+000
7.119818384125783e-008	9.894290e-001	1.000000e+000
7.148712182498651e-008	9.913340e-001	1.000000e+000
7.178009057498650e-008	9.926389e-001	1.000000e+000
7.203218410238147e-008	9.933133e-001	1.000000e+000
7.229985766641604e-008	9.936828e-001	1.000000e+000
7.254717015335634e-008	9.938104e-001	1.000000e+000
7.278177426589456e-008	9.937993e-001	1.000000e+000
7.302146236987315e-008	9.937162e-001	1.000000e+000
7.326688128205863e-008	9.936079e-001	1.000000e+000
7.349544219310240e-008	9.935217e-001	1.000000e+000
7.371788382830167e-008	9.934807e-001	1.000000e+000
7.395212199462144e-008	9.935060e-001	1.000000e+000
7.419836431254249e-008	9.936222e-001	1.000000e+000
7.442852037862127e-008	9.938331e-001	1.000000e+000
7.472148912862126e-008	9.942403e-001	1.000000e+000
7.495826828827610e-008	9.946813e-001	1.000000e+000
7.517978055583052e-008	9.951965e-001	1.000000e+000
7.540283652062889e-008	9.958071e-001	1.000000e+000
7.562169125109981e-008	9.964896e-001	1.000000e+000
7.584439465622266e-008	9.972627e-001	1.000000e+000
7.606524891672264e-008	9.980994e-001	1.000000e+000
7.628210618356175e-008	9.989855e-001	1.000000e+000
7.656892873318326e-008	1.000235e+000	1.000000e+000
7.686189748318325e-008	1.001574e+000	1.000000e+000
7.708872256320749e-008	1.002647e+000	1.000000e+000
7.729658139882633e-008	1.003650e+000	1.000000e+000
7.750543006517732e-008	1.004663e+000	1.000000e+000
7.772794468964128e-008	1.005738e+000	1.000000e+000
7.795443825670817e-008	1.006814e+000	1.000000e+000
7.817494476603409e-008	1.007830e+000	1.000000e+000
7.839995560985542e-008	1.008822e+000	1.000000e+000
7.861648439334126e-008	1.009720e+000	1.000000e+000
7.883189553181999e-008	1.010543e+000	1.000000e+000
7.905108818435713e-008	1.011294e+000	1.000000e+000
7.930379630629459e-008	1.012039e+000	1.000000e+000
7.955997816884762e-008	1.012645e+000	1.000000e+000
7.985294691884761e-008	1.013143e+000	1.000000e+000
8.011741167044477e-008	1.013407e+000	1.000000e+000
8.036664201756493e-008	1.013477e+000	1.000000e+000
8.062214765854309e-008	1.013379e+000	1.000000e+000
8.083721885254542e-008	1.013167e+000	1.000000e+000
8.105472837423938e-008	1.012834e+000	1.000000e+000
8.126438955116368e-008	1.012413e+000	1.000000e+000
8.154363819317076e-008	1.011733e+000	1.000000e+000
8.183660694317076e-008	1.010925e+000	1.000000e+000
8.212957569317075e-008	1.010062e+000	1.000000e+000
8.242254444317075e-008	1.009202e+000	1.000000e+000
8.271551319317074e-008	1.008399e+000	1.000000e+000
8.298603483185177e-008	1.007751e+000	1.000000e+000
8.319462624899243e-008	1.007339e+000	1.000000e+000
8.335686303907470e-008	1.007091e+000	1.000000e+000
8.352964634771120e-008	1.006905e+000	1.000000e+000
8.370879602852975e-008	1.006800e+000	1.000000e+000
8.391824965027531e-008	1.006796e+000	1.000000e+000
8.416228297862522e-008	1.006943e+000	1.000000e+000
8.440646675287981e-008	1.007250e+000	1.000000e+000
8.467415854659804e-008	1.007757e+000	1.000000e+000
8.495369272390935e-008	1.008441e+000	1.000000e+000
8.524666147390935e-008	1.009280e+000	1.000000e+000
8.551899977704866e-008	1.010122e+000	1.000000e+000
8.574262769171660e-008	1.010823e+000	1.000000e+000
8.594549838996785e-008	1.011438e+000	1.000000e+000
8.615005421707644e-008	1.012007e+000	1.000000e+000
8.637966329304778e-008	1.012552e+000	1.000000e+000
8.667263204304778e-008	1.013077e+000	1.000000e+000
8.696560079304777e-008	1.013386e+000	1.000000e+000
8.725856954304776e-008	1.013442e+000	1.000000e+000
8.755153829304776e-008	1.013241e+000	1.000000e+000
8.784450704304775e-008	1.012805e+000	1.000000e+000
8.809357483924114e-008	1.012267e+000	1.000000e+000
8.834599932117029e-008	1.011597e+000	1.000000e+000
8.854323448699589e-008	1.011012e+000	1.000000e+000
8.874362238059360e-008	1.010384e+000	1.000000e+000
8.894776276012068e-008	1.009743e+000	1.000000e+000
8.922631908295601e-008	1.008914e+000	1.000000e+000
8.951928783295601e-008	1.008150e+000	1.000000e+000
8.981225658295600e-008	1.007556e+000	1.000000e+000
9.010522533295599e-008	1.007180e+000	1.000000e+000
9.039819408295599e-008	1.007051e+000	1.000000e+000
9.069116283295598e-008	1.007173e+000	1.000000e+000
9.098413158295598e-008	1.007532e+000	1.000000e+000
9.127710033295597e-008	1.008090e+000	1.000000e+000
9.157006908295596e-008	1.008793e+000	1.000000e+000
9.186303783295596e-008	1.009572e+000	1.000000e+000
9.215600658295595e-008	1.010354e+000	1.000000e+000
9.244897533295594e-008	1.011064e+000	1.000000e+000
9.274194408295594e-008	1.011634e+000	1.000000e+000
9.303491283295593e-008	1.012010e+000	1.000000e+000
9.332788158295593e-008	1.012157e+000	1.000000e+000
9.362085033295592e-008	1.012059e+000	1.000000e+000
9.391381908295591e-008	1.011725e+000	1.000000e+000
9.420678783295591e-008	1.011185e+000	1.000000e+000
9.449975658295590e-008	1.010490e+000	1.000000e+000
9.479272533295590e-008	1.009704e+000	1.000000e+000
9.508569408295589e-008	1.008898e+000	1.000000e+000
9.537866283295588e-008	1.008147e+000	1.000000e+000
9.567163158295588e-008	1.007519e+000	1.000000e+000
9.596460033295587e-008	1.007068e+000	1.000000e+000
