time	V(out)	V(n062)
0.000000000000000e+000	0.000000e+000	0.000000e+000
2.929687488293547e-015	0.000000e+000	3.906250e-007
5.859374976587093e-015	0.000000e+000	7.812500e-007
6.862165151151572e-012	0.000000e+000	9.149554e-004
1.371847092732656e-011	0.000000e+000	1.829129e-003
2.057477670350154e-011	0.000000e+000	2.743304e-003
2.743108247967653e-011	0.000000e+000	3.657478e-003
3.428738825585152e-011	0.000000e+000	4.571652e-003
4.114369403202650e-011	0.000000e+000	5.485826e-003
4.799999980820147e-011	0.000000e+000	6.400000e-003
9.599999961640293e-011	0.000000e+000	1.280000e-002
1.404606014236564e-010	0.000000e+000	1.872808e-002
1.783236865824396e-010	0.000000e+000	2.377649e-002
2.133624804419512e-010	0.000000e+000	2.844833e-002
2.524063542346291e-010	0.000000e+000	3.365418e-002
2.929017788970751e-010	0.000000e+000	3.905357e-002
3.425937548498207e-010	0.000000e+000	4.567917e-002
3.978514655120629e-010	0.000000e+000	5.304686e-002
4.645797710677467e-010	0.000000e+000	6.194397e-002
5.403068812387455e-010	0.000000e+000	7.204092e-002
6.307358062350067e-010	0.000000e+000	8.409811e-002
7.079893803692038e-010	0.000000e+000	9.439858e-002
7.836459236611360e-010	0.000000e+000	1.044861e-001
8.648150319715812e-010	0.000000e+000	1.153087e-001
9.533838991931447e-010	0.000000e+000	1.271179e-001
1.051271808406190e-009	0.000000e+000	1.401696e-001
1.159241009936822e-009	0.000000e+000	1.545655e-001
1.278989387682815e-009	0.000000e+000	1.705319e-001
1.396557812889038e-009	0.000000e+000	1.862077e-001
1.506237046328305e-009	0.000000e+000	2.008316e-001
1.622814105635589e-009	0.000000e+000	2.163752e-001
1.745252821730084e-009	0.000000e+000	2.327004e-001
1.878826092854386e-009	0.000000e+000	2.505102e-001
2.021722797969877e-009	0.000000e+000	2.695630e-001
2.177735489724566e-009	0.000000e+000	2.903647e-001
2.313196995441441e-009	0.000000e+000	3.084263e-001
2.459900481889268e-009	0.000000e+000	3.279867e-001
2.607287994033604e-009	0.000000e+000	3.476384e-001
2.769490394963839e-009	0.000000e+000	3.692654e-001
2.937795246810022e-009	0.000000e+000	3.917060e-001
3.121752783602816e-009	0.000000e+000	4.162337e-001
3.302567426918057e-009	0.000000e+000	4.403423e-001
3.469663158169166e-009	0.000000e+000	4.626217e-001
3.654689521797194e-009	0.000000e+000	4.872919e-001
3.840326689612186e-009	0.000000e+000	5.120435e-001
4.044539681067134e-009	0.000000e+000	5.392720e-001
4.227764994987585e-009	0.000000e+000	5.637020e-001
4.422060863015585e-009	0.000000e+000	5.896081e-001
4.617703286808835e-009	0.000000e+000	6.156937e-001
4.828249794968673e-009	0.000000e+000	6.437666e-001
5.045663481099977e-009	0.000000e+000	6.727551e-001
5.245441075231698e-009	0.000000e+000	6.993921e-001
5.458755053440721e-009	0.000000e+000	7.278340e-001
5.673038340546161e-009	0.000000e+000	7.564051e-001
5.903234374701468e-009	0.000000e+000	7.870979e-001
6.139853745656832e-009	0.000000e+000	8.186471e-001
6.361321752244213e-009	0.000000e+000	8.481762e-001
6.593822328680251e-009	0.000000e+000	8.791763e-001
6.829555108356630e-009	1.401298e-045	9.106073e-001
7.079883430092093e-009	5.605194e-045	9.439844e-001
7.241472718691571e-009	1.121039e-044	9.655297e-001
7.281792218401937e-009	1.401298e-044	9.709056e-001
7.362431217822669e-009	2.662467e-044	9.816575e-001
7.499999999999999e-009	5.745324e-044	1.000000e+000
7.513756878217733e-009	6.305843e-044	1.000000e+000
7.541270634653200e-009	7.567012e-044	1.000000e+000
7.596298147524132e-009	1.107026e-043	1.000000e+000
7.706353173265996e-009	2.998779e-043	1.000000e+000
7.926463224749725e-009	1.803471e-042	1.000000e+000
8.165171580565621e-009	9.596092e-042	1.000000e+000
8.402737421335067e-009	5.633360e-041	1.000000e+000
8.670384792129498e-009	3.323025e-040	1.000000e+000
8.922443892864862e-009	1.937299e-039	1.000000e+000
9.203252571980085e-009	1.210090e-038	1.000000e+000
9.479896087609625e-009	7.030316e-038	1.000000e+000
9.765674830771240e-009	3.708923e-037	1.000000e+000
1.003512079189848e-008	1.895766e-036	1.000000e+000
1.032786309669220e-008	1.029263e-035	1.000000e+000
1.061910649875864e-008	5.162099e-035	1.000000e+000
1.091207524875864e-008	2.414763e-034	1.000000e+000
1.119789959587001e-008	1.072969e-033	1.000000e+000
1.149086834587001e-008	4.736993e-033	1.000000e+000
1.178383709587001e-008	1.994916e-032	1.000000e+000
1.207680584587001e-008	8.085517e-032	1.000000e+000
1.236977459587001e-008	3.161477e-031	1.000000e+000
1.266274334587001e-008	1.195050e-030	1.000000e+000
1.295571209587001e-008	4.375307e-030	1.000000e+000
1.324868084587001e-008	1.554122e-029	1.000000e+000
1.354164959587001e-008	5.363778e-029	1.000000e+000
1.383461834587001e-008	1.801190e-028	1.000000e+000
1.412758709587001e-008	5.892395e-028	1.000000e+000
1.442055584587001e-008	1.880020e-027	1.000000e+000
1.471352459587001e-008	5.856328e-027	1.000000e+000
1.500649334587001e-008	1.782789e-026	1.000000e+000
1.529946209587001e-008	5.308519e-026	1.000000e+000
1.559243084587001e-008	1.547410e-025	1.000000e+000
1.588539959587001e-008	4.419072e-025	1.000000e+000
1.617836834587002e-008	1.237264e-024	1.000000e+000
1.647133709587002e-008	3.398533e-024	1.000000e+000
1.676430584587002e-008	9.164160e-024	1.000000e+000
1.705727459587002e-008	2.427297e-023	1.000000e+000
1.735024334587002e-008	6.318655e-023	1.000000e+000
1.764321209587002e-008	1.617432e-022	1.000000e+000
1.793618084587002e-008	4.073267e-022	1.000000e+000
1.822914959587002e-008	1.009669e-021	1.000000e+000
1.852211834587002e-008	2.464497e-021	1.000000e+000
1.881508709587002e-008	5.926159e-021	1.000000e+000
1.910805584587002e-008	1.404393e-020	1.000000e+000
1.940102459587002e-008	3.281254e-020	1.000000e+000
1.969399334587002e-008	7.561091e-020	1.000000e+000
1.998696209587002e-008	1.718988e-019	1.000000e+000
2.027993084587002e-008	3.856990e-019	1.000000e+000
2.057289959587002e-008	8.543744e-019	1.000000e+000
2.086586834587002e-008	1.868972e-018	1.000000e+000
2.115883709587002e-008	4.038663e-018	1.000000e+000
2.145180584587002e-008	8.623277e-018	1.000000e+000
2.174477459587002e-008	1.819793e-017	1.000000e+000
2.203774334587003e-008	3.796614e-017	1.000000e+000
2.233071209587003e-008	7.832521e-017	1.000000e+000
2.262368084587003e-008	1.598228e-016	1.000000e+000
2.291664959587003e-008	3.226305e-016	1.000000e+000
2.320961834587003e-008	6.444590e-016	1.000000e+000
2.350258709587003e-008	1.274085e-015	1.000000e+000
2.379555584587003e-008	2.493457e-015	1.000000e+000
2.408852459587003e-008	4.831574e-015	1.000000e+000
2.438149334587003e-008	9.271273e-015	1.000000e+000
2.467446209587003e-008	1.762104e-014	1.000000e+000
2.496743084587003e-008	3.317723e-014	1.000000e+000
2.526039959587003e-008	6.189236e-014	1.000000e+000
2.555336834587003e-008	1.144173e-013	1.000000e+000
2.584633709587003e-008	2.096388e-013	1.000000e+000
2.613930584587003e-008	3.807513e-013	1.000000e+000
2.643227459587003e-008	6.855887e-013	1.000000e+000
2.672524334587003e-008	1.224050e-012	1.000000e+000
2.701821209587003e-008	2.167235e-012	1.000000e+000
2.731118084587003e-008	3.805757e-012	1.000000e+000
2.760414959587003e-008	6.629168e-012	1.000000e+000
2.789711834587004e-008	1.145546e-011	1.000000e+000
2.819008709587004e-008	1.964053e-011	1.000000e+000
2.848305584587004e-008	3.341414e-011	1.000000e+000
2.877602459587004e-008	5.641462e-011	1.000000e+000
2.906899334587004e-008	9.453311e-011	1.000000e+000
2.936196209587004e-008	1.572360e-010	1.000000e+000
2.965493084587004e-008	2.596207e-010	1.000000e+000
2.994789959587004e-008	4.255866e-010	1.000000e+000
3.024086834587004e-008	6.926901e-010	1.000000e+000
3.053383709587004e-008	1.119520e-009	1.000000e+000
3.082680584587004e-008	1.796820e-009	1.000000e+000
3.111977459587004e-008	2.864142e-009	1.000000e+000
3.141274334587004e-008	4.534587e-009	1.000000e+000
3.170571209587004e-008	7.131303e-009	1.000000e+000
3.199868084587004e-008	1.114094e-008	1.000000e+000
3.229164959587004e-008	1.729136e-008	1.000000e+000
3.258461834587004e-008	2.666383e-008	1.000000e+000
3.287758709587004e-008	4.085384e-008	1.000000e+000
3.317055584587004e-008	6.219990e-008	1.000000e+000
3.346352459587004e-008	9.410697e-008	1.000000e+000
3.375649334587005e-008	1.415002e-007	1.000000e+000
3.404946209587005e-008	2.114573e-007	1.000000e+000
3.434243084587005e-008	3.140831e-007	1.000000e+000
3.463539959587005e-008	4.637119e-007	1.000000e+000
3.492836834587005e-008	6.805469e-007	1.000000e+000
3.522133709587005e-008	9.928824e-007	1.000000e+000
3.551430584587005e-008	1.440092e-006	1.000000e+000
3.580727459587005e-008	2.076624e-006	1.000000e+000
3.610024334587005e-008	2.977295e-006	1.000000e+000
3.639321209587005e-008	4.244271e-006	1.000000e+000
3.668618084587005e-008	6.016189e-006	1.000000e+000
3.697914959587005e-008	8.480010e-006	1.000000e+000
3.727211834587005e-008	1.188629e-005	1.000000e+000
3.756508709587005e-008	1.656875e-005	1.000000e+000
3.785805584587005e-008	2.296907e-005	1.000000e+000
3.815102459587005e-008	3.166829e-005	1.000000e+000
3.844399334587005e-008	4.342591e-005	1.000000e+000
3.873696209587005e-008	5.922871e-005	1.000000e+000
3.902993084587005e-008	8.035065e-005	1.000000e+000
3.932289959587006e-008	1.084263e-004	1.000000e+000
3.961586834587006e-008	1.455398e-004	1.000000e+000
3.990883709587006e-008	1.943318e-004	1.000000e+000
4.020180584587006e-008	2.581273e-004	1.000000e+000
4.049477459587006e-008	3.410859e-004	1.000000e+000
4.078774334587006e-008	4.483789e-004	1.000000e+000
4.108071209587006e-008	5.863935e-004	1.000000e+000
4.137368084587006e-008	7.629677e-004	1.000000e+000
4.166664959587006e-008	9.876578e-004	1.000000e+000
4.195961834587006e-008	1.272037e-003	1.000000e+000
4.225258709587006e-008	1.630027e-003	1.000000e+000
4.254555584587006e-008	2.078263e-003	1.000000e+000
4.283852459587006e-008	2.636483e-003	1.000000e+000
4.313149334587006e-008	3.327946e-003	1.000000e+000
4.342446209587006e-008	4.179859e-003	1.000000e+000
4.371743084587006e-008	5.223816e-003	1.000000e+000
4.401039959587006e-008	6.496235e-003	1.000000e+000
4.430336834587006e-008	8.038766e-003	1.000000e+000
4.459633709587006e-008	9.898665e-003	1.000000e+000
4.488930584587006e-008	1.212911e-002	1.000000e+000
4.518227459587007e-008	1.478944e-002	1.000000e+000
4.547524334587007e-008	1.794525e-002	1.000000e+000
4.576821209587007e-008	2.166842e-002	1.000000e+000
4.606118084587007e-008	2.603690e-002	1.000000e+000
4.635414959587007e-008	3.113434e-002	1.000000e+000
4.664711834587007e-008	3.704950e-002	1.000000e+000
4.694008709587007e-008	4.387542e-002	1.000000e+000
4.723305584587007e-008	5.170830e-002	1.000000e+000
4.752602459587007e-008	6.064611e-002	1.000000e+000
4.781899334587007e-008	7.078693e-002	1.000000e+000
4.811196209587007e-008	8.222701e-002	1.000000e+000
4.840493084587007e-008	9.505852e-002	1.000000e+000
4.869789959587007e-008	1.093671e-001	1.000000e+000
4.899086834587007e-008	1.252294e-001	1.000000e+000
4.928383709587007e-008	1.427099e-001	1.000000e+000
4.957680584587007e-008	1.618586e-001	1.000000e+000
4.986977459587007e-008	1.827076e-001	1.000000e+000
5.016274334587007e-008	2.052691e-001	1.000000e+000
5.045571209587007e-008	2.295322e-001	1.000000e+000
5.074868084587007e-008	2.554614e-001	1.000000e+000
5.104164959587008e-008	2.829945e-001	1.000000e+000
5.133461834587008e-008	3.120416e-001	1.000000e+000
5.162758709587008e-008	3.424846e-001	1.000000e+000
5.192055584587008e-008	3.741773e-001	1.000000e+000
5.221352459587008e-008	4.069470e-001	1.000000e+000
5.250649334587008e-008	4.405955e-001	1.000000e+000
5.279946209587008e-008	4.749027e-001	1.000000e+000
5.309243084587008e-008	5.096299e-001	1.000000e+000
5.338539959587008e-008	5.445237e-001	1.000000e+000
5.367836834587008e-008	5.793214e-001	1.000000e+000
5.397133709587008e-008	6.137568e-001	1.000000e+000
5.426430584587008e-008	6.475652e-001	1.000000e+000
5.455727459587008e-008	6.804904e-001	1.000000e+000
5.485024334587008e-008	7.122896e-001	1.000000e+000
5.514321209587008e-008	7.427399e-001	1.000000e+000
5.543618084587008e-008	7.716436e-001	1.000000e+000
5.572914959587008e-008	7.988317e-001	1.000000e+000
5.602211834587008e-008	8.241686e-001	1.000000e+000
5.631508709587008e-008	8.475537e-001	1.000000e+000
5.660805584587008e-008	8.689234e-001	1.000000e+000
5.690102459587009e-008	8.882511e-001	1.000000e+000
5.719399334587009e-008	9.055461e-001	1.000000e+000
5.748696209587009e-008	9.208513e-001	1.000000e+000
5.777993084587009e-008	9.342403e-001	1.000000e+000
5.807289959587009e-008	9.458129e-001	1.000000e+000
5.836586834587009e-008	9.556909e-001	1.000000e+000
5.865883709587009e-008	9.640121e-001	1.000000e+000
5.895180584587009e-008	9.709262e-001	1.000000e+000
5.924477459587009e-008	9.765882e-001	1.000000e+000
5.953774334587009e-008	9.811548e-001	1.000000e+000
5.983071209587009e-008	9.847792e-001	1.000000e+000
6.012368084587008e-008	9.876081e-001	1.000000e+000
6.041664959587008e-008	9.897782e-001	1.000000e+000
6.070961834587007e-008	9.914153e-001	1.000000e+000
6.100258709587007e-008	9.926322e-001	1.000000e+000
6.129555584587006e-008	9.935336e-001	1.000000e+000
6.156194513511518e-008	9.941491e-001	1.000000e+000
6.181255444315547e-008	9.945994e-001	1.000000e+000
6.205811586428282e-008	9.949647e-001	1.000000e+000
6.230331528625624e-008	9.952916e-001	1.000000e+000
6.254074655363767e-008	9.956030e-001	1.000000e+000
6.283371530363767e-008	9.960174e-001	1.000000e+000
6.312668405363766e-008	9.964980e-001	1.000000e+000
6.341965280363765e-008	9.970731e-001	1.000000e+000
6.366382581338710e-008	9.976381e-001	1.000000e+000
6.382228510360416e-008	9.980602e-001	1.000000e+000
6.398325657115463e-008	9.985434e-001	1.000000e+000
6.417610070192961e-008	9.991844e-001	1.000000e+000
6.435175531104371e-008	9.998289e-001	1.000000e+000
6.454431955723614e-008	1.000604e+000	1.000000e+000
6.472706412258133e-008	1.001406e+000	1.000000e+000
6.496563748921789e-008	1.002545e+000	1.000000e+000
6.525083244606816e-008	1.004013e+000	1.000000e+000
6.554380119606816e-008	1.005616e+000	1.000000e+000
6.583676994606815e-008	1.007281e+000	1.000000e+000
6.612973869606814e-008	1.008963e+000	1.000000e+000
6.637690793504539e-008	1.010354e+000	1.000000e+000
6.664783255087837e-008	1.011806e+000	1.000000e+000
6.689366177607500e-008	1.013013e+000	1.000000e+000
6.718551498248449e-008	1.014267e+000	1.000000e+000
6.746417213690683e-008	1.015244e+000	1.000000e+000
6.775714088690682e-008	1.015997e+000	1.000000e+000
6.805010963690681e-008	1.016469e+000	1.000000e+000
6.826199872821357e-008	1.016620e+000	1.000000e+000
6.843485486662100e-008	1.016603e+000	1.000000e+000
6.863623941680081e-008	1.016445e+000	1.000000e+000
6.882665246465424e-008	1.016167e+000	1.000000e+000
6.908378893340658e-008	1.015624e+000	1.000000e+000
6.934034312834813e-008	1.014936e+000	1.000000e+000
6.963331187834813e-008	1.014022e+000	1.000000e+000
6.990467051039570e-008	1.013115e+000	1.000000e+000
7.014630513192024e-008	1.012305e+000	1.000000e+000
7.034983742867764e-008	1.011660e+000	1.000000e+000
7.057387148414647e-008	1.011027e+000	1.000000e+000
7.080610667432828e-008	1.010492e+000	1.000000e+000
7.108989297290893e-008	1.010040e+000	1.000000e+000
7.138286172290892e-008	1.009828e+000	1.000000e+000
7.167583047290892e-008	1.009900e+000	1.000000e+000
7.196879922290891e-008	1.010252e+000	1.000000e+000
7.224529917339049e-008	1.010816e+000	1.000000e+000
7.249704419739263e-008	1.011500e+000	1.000000e+000
7.275428914690161e-008	1.012322e+000	1.000000e+000
7.304648204780616e-008	1.013329e+000	1.000000e+000
7.331606706727355e-008	1.014263e+000	1.000000e+000
7.357638093597100e-008	1.015102e+000	1.000000e+000
7.386934968597099e-008	1.015902e+000	1.000000e+000
7.416231843597098e-008	1.016505e+000	1.000000e+000
7.440588134607383e-008	1.016811e+000	1.000000e+000
7.464090636095616e-008	1.016910e+000	1.000000e+000
7.487673368179137e-008	1.016820e+000	1.000000e+000
7.509188159738321e-008	1.016573e+000	1.000000e+000
7.533412745380962e-008	1.016126e+000	1.000000e+000
7.556632834140842e-008	1.015559e+000	1.000000e+000
7.583392569690506e-008	1.014783e+000	1.000000e+000
7.608371904300529e-008	1.013991e+000	1.000000e+000
7.633709999613113e-008	1.013172e+000	1.000000e+000
7.658115640563501e-008	1.012427e+000	1.000000e+000
7.687412515563501e-008	1.011650e+000	1.000000e+000
7.714378113182577e-008	1.011087e+000	1.000000e+000
7.736362765421356e-008	1.010772e+000	1.000000e+000
7.755120846921700e-008	1.010631e+000	1.000000e+000
7.776254867079572e-008	1.010614e+000	1.000000e+000
7.798197213750264e-008	1.010749e+000	1.000000e+000
7.824918824171840e-008	1.011098e+000	1.000000e+000
7.850693590390441e-008	1.011591e+000	1.000000e+000
7.875590430301135e-008	1.012185e+000	1.000000e+000
7.898816586268463e-008	1.012803e+000	1.000000e+000
7.922334999075712e-008	1.013448e+000	1.000000e+000
7.946759456011356e-008	1.014090e+000	1.000000e+000
7.971389722057372e-008	1.014655e+000	1.000000e+000
8.000686597057372e-008	1.015172e+000	1.000000e+000
8.029983472057371e-008	1.015480e+000	1.000000e+000
8.059280347057371e-008	1.015552e+000	1.000000e+000
8.084210224800391e-008	1.015414e+000	1.000000e+000
8.109603234465866e-008	1.015085e+000	1.000000e+000
8.136153420080541e-008	1.014581e+000	1.000000e+000
8.162631724014766e-008	1.013957e+000	1.000000e+000
8.186547931359648e-008	1.013328e+000	1.000000e+000
8.206080401348222e-008	1.012795e+000	1.000000e+000
8.225274075594563e-008	1.012284e+000	1.000000e+000
8.245990920469811e-008	1.011772e+000	1.000000e+000
8.266243666694584e-008	1.011335e+000	1.000000e+000
8.288166954919572e-008	1.010956e+000	1.000000e+000
8.310167820644675e-008	1.010695e+000	1.000000e+000
8.334659964429012e-008	1.010555e+000	1.000000e+000
8.358536041291944e-008	1.010575e+000	1.000000e+000
8.383665241852415e-008	1.010757e+000	1.000000e+000
8.407060091939901e-008	1.011057e+000	1.000000e+000
8.431456236258394e-008	1.011480e+000	1.000000e+000
8.454993761063482e-008	1.011959e+000	1.000000e+000
8.478297154451878e-008	1.012466e+000	1.000000e+000
8.502000659804596e-008	1.012974e+000	1.000000e+000
8.528377768251023e-008	1.013485e+000	1.000000e+000
8.552118191362186e-008	1.013861e+000	1.000000e+000
8.576175241483191e-008	1.014121e+000	1.000000e+000
8.603932461537553e-008	1.014259e+000	1.000000e+000
8.627150123505490e-008	1.014237e+000	1.000000e+000
8.647329330240013e-008	1.014098e+000	1.000000e+000
8.670546246003775e-008	1.013819e+000	1.000000e+000
8.693747981967317e-008	1.013440e+000	1.000000e+000
8.717073738240472e-008	1.012979e+000	1.000000e+000
8.739923034230648e-008	1.012481e+000	1.000000e+000
8.767196054084244e-008	1.011874e+000	1.000000e+000
8.792512207129677e-008	1.011343e+000	1.000000e+000
8.817965599553588e-008	1.010886e+000	1.000000e+000
8.845830369260538e-008	1.010508e+000	1.000000e+000
8.870033726491262e-008	1.010308e+000	1.000000e+000
8.894701329458941e-008	1.010250e+000	1.000000e+000
8.921376024327045e-008	1.010340e+000	1.000000e+000
8.946902012800980e-008	1.010560e+000	1.000000e+000
8.970068259320866e-008	1.010857e+000	1.000000e+000
8.993039380080309e-008	1.011220e+000	1.000000e+000
9.016386470586087e-008	1.011625e+000	1.000000e+000
9.040098101993045e-008	1.012036e+000	1.000000e+000
9.068628716991718e-008	1.012486e+000	1.000000e+000
9.094724549026880e-008	1.012819e+000	1.000000e+000
9.117936211260837e-008	1.013019e+000	1.000000e+000
9.141289775046286e-008	1.013110e+000	1.000000e+000
9.165553484861846e-008	1.013081e+000	1.000000e+000
9.190129412959431e-008	1.012929e+000	1.000000e+000
9.213096205075358e-008	1.012683e+000	1.000000e+000
9.236558070328361e-008	1.012346e+000	1.000000e+000
9.258789660755814e-008	1.011968e+000	1.000000e+000
9.283697537392235e-008	1.011510e+000	1.000000e+000
9.310359831543244e-008	1.011019e+000	1.000000e+000
9.333433248621296e-008	1.010627e+000	1.000000e+000
9.356695654094722e-008	1.010295e+000	1.000000e+000
9.383498718861137e-008	1.010012e+000	1.000000e+000
9.406656744381077e-008	1.009869e+000	1.000000e+000
9.430185333566689e-008	1.009834e+000	1.000000e+000
9.453434327025526e-008	1.009903e+000	1.000000e+000
9.476453428761036e-008	1.010065e+000	1.000000e+000
9.498551170431827e-008	1.010294e+000	1.000000e+000
9.520628740587572e-008	1.010575e+000	1.000000e+000
9.549896234505045e-008	1.010984e+000	1.000000e+000
