time	V(-1)	V(1)
0.000000000000000e+000	0.000000e+000	0.000000e+000
2.929687488293547e-015	0.000000e+000	3.906250e-007
5.859374976587093e-015	0.000000e+000	7.812500e-007
6.862165151151572e-012	0.000000e+000	9.149554e-004
1.371847092732656e-011	0.000000e+000	1.829129e-003
2.057477670350154e-011	0.000000e+000	2.743304e-003
2.743108247967653e-011	0.000000e+000	3.657478e-003
3.428738825585152e-011	0.000000e+000	4.571652e-003
4.114369403202650e-011	0.000000e+000	5.485826e-003
4.799999980820147e-011	0.000000e+000	6.400000e-003
9.599999961640293e-011	0.000000e+000	1.280000e-002
1.424853462539465e-010	0.000000e+000	1.899805e-002
1.840883150635621e-010	0.000000e+000	2.454511e-002
2.235567937027595e-010	0.000000e+000	2.980757e-002
2.637021756364108e-010	0.000000e+000	3.516029e-002
3.090462910193217e-010	0.000000e+000	4.120617e-002
3.593252334091483e-010	0.000000e+000	4.791003e-002
4.191041229688584e-010	0.000000e+000	5.588055e-002
4.874260418669963e-010	0.000000e+000	6.499014e-002
5.682086710220129e-010	0.000000e+000	7.576115e-002
6.614021670491825e-010	0.000000e+000	8.818696e-002
7.712496029798589e-010	0.000000e+000	1.028333e-001
8.615582216019424e-010	0.000000e+000	1.148744e-001
9.625586648171608e-010	0.000000e+000	1.283412e-001
1.056961990914411e-009	0.000000e+000	1.409283e-001
1.170193641136402e-009	0.000000e+000	1.560258e-001
1.286083676918068e-009	0.000000e+000	1.714778e-001
1.421646366999334e-009	0.000000e+000	1.895528e-001
1.565096390030733e-009	0.000000e+000	2.086795e-001
1.691098113470676e-009	0.000000e+000	2.254798e-001
1.820433582611557e-009	0.000000e+000	2.427245e-001
1.958305872095603e-009	0.000000e+000	2.611074e-001
2.106077389501087e-009	0.000000e+000	2.808103e-001
2.265640616494621e-009	0.000000e+000	3.020854e-001
2.437790789849183e-009	0.000000e+000	3.250388e-001
2.624281853484959e-009	0.000000e+000	3.499042e-001
2.787098687642391e-009	0.000000e+000	3.716131e-001
2.962403963408446e-009	0.000000e+000	3.949872e-001
3.139273645171482e-009	0.000000e+000	4.185698e-001
3.333037268543417e-009	0.000000e+000	4.444050e-001
3.534453637837042e-009	0.000000e+000	4.712605e-001
3.753820081659250e-009	0.000000e+000	5.005093e-001
3.949936786480446e-009	0.000000e+000	5.266582e-001
4.157483284238551e-009	0.000000e+000	5.543311e-001
4.367702256788600e-009	0.000000e+000	5.823603e-001
4.594448884191843e-009	0.000000e+000	6.125932e-001
4.829905566779668e-009	0.000000e+000	6.439874e-001
5.050486933319404e-009	0.000000e+000	6.733983e-001
5.294527889092573e-009	0.000000e+000	7.059370e-001
5.520652372459199e-009	0.000000e+000	7.360870e-001
5.776205043739255e-009	0.000000e+000	7.701607e-001
6.028343386880428e-009	0.000000e+000	8.037791e-001
6.278631199695920e-009	0.000000e+000	8.371508e-001
6.549636526466774e-009	0.000000e+000	8.732849e-001
6.798638637186384e-009	0.000000e+000	9.064851e-001
7.078468344634671e-009	0.000000e+000	9.437958e-001
7.225141580704013e-009	0.000000e+000	9.633522e-001
7.499999999999999e-009	0.000000e+000	1.000000e+000
7.527485841929598e-009	0.000000e+000	1.000000e+000
7.582457525788795e-009	0.000000e+000	1.000000e+000
7.692400893507189e-009	0.000000e+000	1.000000e+000
7.870873159097911e-009	0.000000e+000	1.000000e+000
8.130664609149040e-009	0.000000e+000	1.000000e+000
8.403966701574940e-009	0.000000e+000	1.000000e+000
8.696935451574941e-009	0.000000e+000	1.000000e+000
8.989904201574941e-009	0.000000e+000	1.000000e+000
9.282872951574942e-009	0.000000e+000	1.000000e+000
9.575841701574942e-009	0.000000e+000	1.000000e+000
9.868810451574943e-009	0.000000e+000	1.000000e+000
1.016177920157494e-008	0.000000e+000	1.000000e+000
1.045474795157494e-008	0.000000e+000	1.000000e+000
1.074771670157494e-008	0.000000e+000	1.000000e+000
1.104068545157494e-008	0.000000e+000	1.000000e+000
1.133365420157495e-008	0.000000e+000	1.000000e+000
1.162662295157495e-008	0.000000e+000	1.000000e+000
1.191959170157495e-008	0.000000e+000	1.000000e+000
1.221256045157495e-008	0.000000e+000	1.000000e+000
1.250552920157495e-008	0.000000e+000	1.000000e+000
1.279849795157495e-008	0.000000e+000	1.000000e+000
1.309146670157495e-008	0.000000e+000	1.000000e+000
1.338443545157495e-008	0.000000e+000	1.000000e+000
1.367740420157495e-008	0.000000e+000	1.000000e+000
1.397037295157495e-008	0.000000e+000	1.000000e+000
1.426334170157495e-008	0.000000e+000	1.000000e+000
1.455631045157495e-008	0.000000e+000	1.000000e+000
1.484927920157495e-008	0.000000e+000	1.000000e+000
1.514224795157495e-008	0.000000e+000	1.000000e+000
1.543521670157495e-008	0.000000e+000	1.000000e+000
1.572818545157495e-008	0.000000e+000	1.000000e+000
1.602115420157495e-008	0.000000e+000	1.000000e+000
1.631412295157495e-008	0.000000e+000	1.000000e+000
1.660709170157495e-008	0.000000e+000	1.000000e+000
1.690006045157496e-008	0.000000e+000	1.000000e+000
1.719302920157496e-008	0.000000e+000	1.000000e+000
1.748599795157496e-008	0.000000e+000	1.000000e+000
1.777896670157496e-008	0.000000e+000	1.000000e+000
1.807193545157496e-008	0.000000e+000	1.000000e+000
1.836490420157496e-008	0.000000e+000	1.000000e+000
1.865787295157496e-008	0.000000e+000	1.000000e+000
1.895084170157496e-008	0.000000e+000	1.000000e+000
1.924381045157496e-008	0.000000e+000	1.000000e+000
1.953677920157496e-008	0.000000e+000	1.000000e+000
1.982974795157496e-008	0.000000e+000	1.000000e+000
2.012271670157496e-008	0.000000e+000	1.000000e+000
2.041568545157496e-008	0.000000e+000	1.000000e+000
2.070865420157496e-008	0.000000e+000	1.000000e+000
2.100162295157496e-008	0.000000e+000	1.000000e+000
2.129459170157496e-008	0.000000e+000	1.000000e+000
2.158756045157496e-008	0.000000e+000	1.000000e+000
2.188052920157496e-008	0.000000e+000	1.000000e+000
2.217349795157496e-008	0.000000e+000	1.000000e+000
2.246646670157496e-008	0.000000e+000	1.000000e+000
2.275943545157497e-008	0.000000e+000	1.000000e+000
2.305240420157497e-008	0.000000e+000	1.000000e+000
2.334537295157497e-008	0.000000e+000	1.000000e+000
2.363834170157497e-008	0.000000e+000	1.000000e+000
2.393131045157497e-008	0.000000e+000	1.000000e+000
2.422427920157497e-008	0.000000e+000	1.000000e+000
2.451724795157497e-008	0.000000e+000	1.000000e+000
2.481021670157497e-008	0.000000e+000	1.000000e+000
2.510318545157497e-008	0.000000e+000	1.000000e+000
2.539615420157497e-008	0.000000e+000	1.000000e+000
2.568912295157497e-008	0.000000e+000	1.000000e+000
2.598209170157497e-008	0.000000e+000	1.000000e+000
2.627506045157497e-008	0.000000e+000	1.000000e+000
2.656802920157497e-008	0.000000e+000	1.000000e+000
2.686099795157497e-008	0.000000e+000	1.000000e+000
2.715396670157497e-008	0.000000e+000	1.000000e+000
2.744693545157497e-008	0.000000e+000	1.000000e+000
2.773990420157497e-008	0.000000e+000	1.000000e+000
2.803287295157497e-008	0.000000e+000	1.000000e+000
2.832584170157497e-008	0.000000e+000	1.000000e+000
2.861881045157498e-008	0.000000e+000	1.000000e+000
2.891177920157498e-008	0.000000e+000	1.000000e+000
2.920474795157498e-008	0.000000e+000	1.000000e+000
2.949771670157498e-008	0.000000e+000	1.000000e+000
2.979068545157498e-008	0.000000e+000	1.000000e+000
3.008365420157498e-008	0.000000e+000	1.000000e+000
3.037662295157498e-008	0.000000e+000	1.000000e+000
3.066959170157498e-008	0.000000e+000	1.000000e+000
3.096256045157498e-008	0.000000e+000	1.000000e+000
3.125552920157498e-008	0.000000e+000	1.000000e+000
3.154849795157498e-008	0.000000e+000	1.000000e+000
3.184146670157498e-008	0.000000e+000	1.000000e+000
3.213443545157498e-008	0.000000e+000	1.000000e+000
3.242740420157498e-008	0.000000e+000	1.000000e+000
3.272037295157498e-008	0.000000e+000	1.000000e+000
3.301334170157498e-008	0.000000e+000	1.000000e+000
3.330631045157498e-008	0.000000e+000	1.000000e+000
3.359927920157498e-008	0.000000e+000	1.000000e+000
3.389224795157498e-008	0.000000e+000	1.000000e+000
3.418521670157498e-008	0.000000e+000	1.000000e+000
3.447818545157499e-008	0.000000e+000	1.000000e+000
3.477115420157499e-008	0.000000e+000	1.000000e+000
3.506412295157499e-008	0.000000e+000	1.000000e+000
3.535709170157499e-008	0.000000e+000	1.000000e+000
3.565006045157499e-008	0.000000e+000	1.000000e+000
3.594302920157499e-008	0.000000e+000	1.000000e+000
3.623599795157499e-008	0.000000e+000	1.000000e+000
3.652896670157499e-008	0.000000e+000	1.000000e+000
3.682193545157499e-008	0.000000e+000	1.000000e+000
3.711490420157499e-008	0.000000e+000	1.000000e+000
3.740787295157499e-008	0.000000e+000	1.000000e+000
3.770084170157499e-008	0.000000e+000	1.000000e+000
3.799381045157499e-008	0.000000e+000	1.000000e+000
3.828677920157499e-008	0.000000e+000	1.000000e+000
3.857974795157499e-008	1.401298e-045	1.000000e+000
3.887271670157499e-008	2.802597e-045	1.000000e+000
3.916568545157499e-008	7.006492e-045	1.000000e+000
3.945865420157499e-008	1.681558e-044	1.000000e+000
3.975162295157499e-008	3.643376e-044	1.000000e+000
4.004459170157499e-008	7.987401e-044	1.000000e+000
4.033756045157500e-008	1.751623e-043	1.000000e+000
4.063052920157500e-008	3.839558e-043	1.000000e+000
4.092349795157500e-008	8.351739e-043	1.000000e+000
4.121646670157500e-008	1.810478e-042	1.000000e+000
4.150943545157500e-008	3.904018e-042	1.000000e+000
4.180240420157500e-008	8.375561e-042	1.000000e+000
4.209537295157500e-008	1.787076e-041	1.000000e+000
4.238834170157500e-008	3.792754e-041	1.000000e+000
4.268131045157500e-008	8.007440e-041	1.000000e+000
4.297427920157500e-008	1.681810e-040	1.000000e+000
4.326724795157500e-008	3.514190e-040	1.000000e+000
4.356021670157500e-008	7.305810e-040	1.000000e+000
4.385318545157500e-008	1.511212e-039	1.000000e+000
4.414615420157500e-008	3.110429e-039	1.000000e+000
4.443912295157500e-008	6.370506e-039	1.000000e+000
4.473209170157500e-008	1.298397e-038	1.000000e+000
4.502506045157500e-008	2.633555e-038	1.000000e+000
4.531802920157500e-008	5.316165e-038	1.000000e+000
4.561099795157500e-008	1.068062e-037	1.000000e+000
4.590396670157500e-008	2.135775e-037	1.000000e+000
4.619693545157501e-008	4.251047e-037	1.000000e+000
4.648990420157501e-008	8.422414e-037	1.000000e+000
4.678287295157501e-008	1.661102e-036	1.000000e+000
4.707584170157501e-008	3.261323e-036	1.000000e+000
4.736881045157501e-008	6.374518e-036	1.000000e+000
4.766177920157501e-008	1.240438e-035	1.000000e+000
4.795474795157501e-008	2.403224e-035	1.000000e+000
4.824771670157501e-008	4.635780e-035	1.000000e+000
4.854068545157501e-008	8.903847e-035	1.000000e+000
4.883365420157501e-008	1.702847e-034	1.000000e+000
4.912662295157501e-008	3.242900e-034	1.000000e+000
4.941959170157501e-008	6.149893e-034	1.000000e+000
4.971256045157501e-008	1.161432e-033	1.000000e+000
5.000552920157501e-008	2.184381e-033	1.000000e+000
5.029849795157501e-008	4.091538e-033	1.000000e+000
5.059146670157501e-008	7.632799e-033	1.000000e+000
5.088443545157501e-008	1.418193e-032	1.000000e+000
5.117740420157501e-008	2.624558e-032	1.000000e+000
5.147037295157501e-008	4.837942e-032	1.000000e+000
5.176334170157502e-008	8.883079e-032	1.000000e+000
5.205631045157502e-008	1.624721e-031	1.000000e+000
5.234927920157502e-008	2.960198e-031	1.000000e+000
5.264224795157502e-008	5.372830e-031	1.000000e+000
5.293521670157502e-008	9.714923e-031	1.000000e+000
5.322818545157502e-008	1.750020e-030	1.000000e+000
5.352115420157502e-008	3.140707e-030	1.000000e+000
5.381412295157502e-008	5.615718e-030	1.000000e+000
5.410709170157502e-008	1.000437e-029	1.000000e+000
5.440006045157502e-008	1.775797e-029	1.000000e+000
5.469302920157502e-008	3.140714e-029	1.000000e+000
5.498599795157502e-008	5.534868e-029	1.000000e+000
5.527896670157502e-008	9.719460e-029	1.000000e+000
5.557193545157502e-008	1.700767e-028	1.000000e+000
5.586490420157502e-008	2.965700e-028	1.000000e+000
5.615787295157502e-008	5.153482e-028	1.000000e+000
5.645084170157502e-008	8.924359e-028	1.000000e+000
5.674381045157502e-008	1.540165e-027	1.000000e+000
5.703677920157502e-008	2.649002e-027	1.000000e+000
5.732974795157502e-008	4.540810e-027	1.000000e+000
5.762271670157503e-008	7.757666e-027	1.000000e+000
5.791568545157503e-008	1.320950e-026	1.000000e+000
5.820865420157503e-008	2.241864e-026	1.000000e+000
5.850162295157503e-008	3.792368e-026	1.000000e+000
5.879459170157503e-008	6.394404e-026	1.000000e+000
5.908756045157503e-008	1.074702e-025	1.000000e+000
5.938052920157503e-008	1.800464e-025	1.000000e+000
5.967349795157502e-008	3.006763e-025	1.000000e+000
5.996646670157502e-008	5.005431e-025	1.000000e+000
6.025943545157501e-008	8.306560e-025	1.000000e+000
6.055240420157500e-008	1.374193e-024	1.000000e+000
6.084537295157500e-008	2.266365e-024	1.000000e+000
6.113834170157499e-008	3.726296e-024	1.000000e+000
6.143131045157499e-008	6.107996e-024	1.000000e+000
6.172427920157498e-008	9.981670e-024	1.000000e+000
6.201724795157497e-008	1.626295e-023	1.000000e+000
6.231021670157497e-008	2.641775e-023	1.000000e+000
6.260318545157496e-008	4.278594e-023	1.000000e+000
6.289615420157495e-008	6.909136e-023	1.000000e+000
6.318912295157495e-008	1.112428e-022	1.000000e+000
6.348209170157494e-008	1.785887e-022	1.000000e+000
6.377506045157494e-008	2.858760e-022	1.000000e+000
6.406802920157493e-008	4.563008e-022	1.000000e+000
6.436099795157492e-008	7.262438e-022	1.000000e+000
6.465396670157492e-008	1.152601e-021	1.000000e+000
6.494693545157491e-008	1.824100e-021	1.000000e+000
6.523990420157491e-008	2.878716e-021	1.000000e+000
6.553287295157490e-008	4.530405e-021	1.000000e+000
6.582584170157489e-008	7.110016e-021	1.000000e+000
6.611881045157489e-008	1.112773e-020	1.000000e+000
6.641177920157488e-008	1.736812e-020	1.000000e+000
6.670474795157488e-008	2.703432e-020	1.000000e+000
6.699771670157487e-008	4.196643e-020	1.000000e+000
6.729068545157486e-008	6.497094e-020	1.000000e+000
6.758365420157486e-008	1.003168e-019	1.000000e+000
6.787662295157485e-008	1.544800e-019	1.000000e+000
6.816959170157484e-008	2.372585e-019	1.000000e+000
6.846256045157484e-008	3.634363e-019	1.000000e+000
6.875552920157483e-008	5.552626e-019	1.000000e+000
6.904849795157483e-008	8.461327e-019	1.000000e+000
6.934146670157482e-008	1.286041e-018	1.000000e+000
6.963443545157481e-008	1.949635e-018	1.000000e+000
6.992740420157481e-008	2.948088e-018	1.000000e+000
7.022037295157480e-008	4.446538e-018	1.000000e+000
7.051334170157480e-008	6.689657e-018	1.000000e+000
7.080631045157479e-008	1.003904e-017	1.000000e+000
7.109927920157478e-008	1.502768e-017	1.000000e+000
7.139224795157478e-008	2.243932e-017	1.000000e+000
7.168521670157477e-008	3.342341e-017	1.000000e+000
7.197818545157477e-008	4.966158e-017	1.000000e+000
7.227115420157476e-008	7.360793e-017	1.000000e+000
7.256412295157475e-008	1.088349e-016	1.000000e+000
7.285709170157475e-008	1.605303e-016	1.000000e+000
7.315006045157474e-008	2.362086e-016	1.000000e+000
7.344302920157473e-008	3.467289e-016	1.000000e+000
7.373599795157473e-008	5.077439e-016	1.000000e+000
7.402896670157472e-008	7.417625e-016	1.000000e+000
7.432193545157472e-008	1.081074e-015	1.000000e+000
7.461490420157471e-008	1.571888e-015	1.000000e+000
7.490787295157470e-008	2.280172e-015	1.000000e+000
7.520084170157470e-008	3.299884e-015	1.000000e+000
7.549381045157469e-008	4.764523e-015	1.000000e+000
7.578677920157469e-008	6.863322e-015	1.000000e+000
7.607974795157468e-008	9.863887e-015	1.000000e+000
7.637271670157467e-008	1.414377e-014	1.000000e+000
7.666568545157467e-008	2.023438e-014	1.000000e+000
7.695865420157466e-008	2.888197e-014	1.000000e+000
7.725162295157466e-008	4.113202e-014	1.000000e+000
7.754459170157465e-008	5.844590e-014	1.000000e+000
7.783756045157464e-008	8.286151e-014	1.000000e+000
7.813052920157464e-008	1.172143e-013	1.000000e+000
7.842349795157463e-008	1.654403e-013	1.000000e+000
7.871646670157462e-008	2.329910e-013	1.000000e+000
7.900943545157462e-008	3.273995e-013	1.000000e+000
7.930240420157461e-008	4.590519e-013	1.000000e+000
7.959537295157461e-008	6.422353e-013	1.000000e+000
7.988834170157460e-008	8.965595e-013	1.000000e+000
8.018131045157459e-008	1.248879e-012	1.000000e+000
8.047427920157459e-008	1.735886e-012	1.000000e+000
8.076724795157458e-008	2.407607e-012	1.000000e+000
8.106021670157458e-008	3.332092e-012	1.000000e+000
8.135318545157457e-008	4.601707e-012	1.000000e+000
8.164615420157456e-008	6.341542e-012	1.000000e+000
8.193912295157456e-008	8.720634e-012	1.000000e+000
8.223209170157455e-008	1.196691e-011	1.000000e+000
8.252506045157455e-008	1.638701e-011	1.000000e+000
8.281802920157454e-008	2.239261e-011	1.000000e+000
8.311099795157453e-008	3.053514e-011	1.000000e+000
8.340396670157453e-008	4.155169e-011	1.000000e+000
8.369693545157452e-008	5.642530e-011	1.000000e+000
8.398990420157451e-008	7.646429e-011	1.000000e+000
8.428287295157451e-008	1.034060e-010	1.000000e+000
8.457584170157450e-008	1.395528e-010	1.000000e+000
8.486881045157450e-008	1.879487e-010	1.000000e+000
8.516177920157449e-008	2.526104e-010	1.000000e+000
8.545474795157448e-008	3.388262e-010	1.000000e+000
8.574771670157448e-008	4.535439e-010	1.000000e+000
8.604068545157447e-008	6.058718e-010	1.000000e+000
8.633365420157447e-008	8.077258e-010	1.000000e+000
8.662662295157446e-008	1.074661e-009	1.000000e+000
8.691959170157445e-008	1.426941e-009	1.000000e+000
8.721256045157445e-008	1.890905e-009	1.000000e+000
8.750552920157444e-008	2.500721e-009	1.000000e+000
8.779849795157444e-008	3.300614e-009	1.000000e+000
8.809146670157443e-008	4.347710e-009	1.000000e+000
8.838443545157442e-008	5.715643e-009	1.000000e+000
8.867740420157442e-008	7.499124e-009	1.000000e+000
8.897037295157441e-008	9.819717e-009	1.000000e+000
8.926334170157440e-008	1.283313e-008	1.000000e+000
8.955631045157440e-008	1.673838e-008	1.000000e+000
8.984927920157439e-008	2.178930e-008	1.000000e+000
9.014224795157439e-008	2.830900e-008	1.000000e+000
9.043521670157438e-008	3.670784e-008	1.000000e+000
9.072818545157437e-008	4.750596e-008	1.000000e+000
9.102115420157437e-008	6.136125e-008	1.000000e+000
9.131412295157436e-008	7.910408e-008	1.000000e+000
9.160709170157436e-008	1.017803e-007	1.000000e+000
9.190006045157435e-008	1.307046e-007	1.000000e+000
9.219302920157434e-008	1.675258e-007	1.000000e+000
9.248599795157434e-008	2.143075e-007	1.000000e+000
9.277896670157433e-008	2.736277e-007	1.000000e+000
9.307193545157433e-008	3.486991e-007	1.000000e+000
9.336490420157432e-008	4.435181e-007	1.000000e+000
9.365787295157431e-008	5.630448e-007	1.000000e+000
9.395084170157431e-008	7.134227e-007	1.000000e+000
9.424381045157430e-008	9.022451e-007	1.000000e+000
9.453677920157429e-008	1.138878e-006	1.000000e+000
9.482974795157429e-008	1.434848e-006	1.000000e+000
9.512271670157428e-008	1.804313e-006	1.000000e+000
9.541568545157428e-008	2.264624e-006	1.000000e+000
9.570865420157427e-008	2.837003e-006	1.000000e+000
9.600162295157426e-008	3.547349e-006	1.000000e+000
9.629459170157426e-008	4.427203e-006	1.000000e+000
9.658756045157425e-008	5.514893e-006	1.000000e+000
9.688052920157425e-008	6.856901e-006	1.000000e+000
9.717349795157424e-008	8.509469e-006	1.000000e+000
9.746646670157423e-008	1.054051e-005	1.000000e+000
9.775943545157423e-008	1.303185e-005	1.000000e+000
9.805240420157422e-008	1.608187e-005	1.000000e+000
9.834537295157421e-008	1.980858e-005	1.000000e+000
9.863834170157421e-008	2.435327e-005	1.000000e+000
9.893131045157420e-008	2.988468e-005	1.000000e+000
9.922427920157420e-008	3.660395e-005	1.000000e+000
9.951724795157419e-008	4.475026e-005	1.000000e+000
9.981021670157418e-008	5.460743e-005	1.000000e+000
1.001031854515742e-007	6.651150e-005	1.000000e+000
1.003961542015742e-007	8.085945e-005	1.000000e+000
1.006891229515742e-007	9.811921e-005	1.000000e+000
1.009820917015742e-007	1.188411e-004	1.000000e+000
1.012750604515742e-007	1.436708e-004	1.000000e+000
1.015680292015742e-007	1.733642e-004	1.000000e+000
1.018609979515741e-007	2.088045e-004	1.000000e+000
1.021539667015741e-007	2.510205e-004	1.000000e+000
1.024469354515741e-007	3.012086e-004	1.000000e+000
1.027399042015741e-007	3.607564e-004	1.000000e+000
1.030328729515741e-007	4.312699e-004	1.000000e+000
1.033258417015741e-007	5.146026e-004	1.000000e+000
1.036188104515741e-007	6.128896e-004	1.000000e+000
1.039117792015741e-007	7.285836e-004	1.000000e+000
1.042047479515741e-007	8.644958e-004	1.000000e+000
