time	V(-1)	V(1)
0.000000000000000e+000	0.000000e+000	0.000000e+000
2.929687488293547e-015	0.000000e+000	3.906250e-007
5.859374976587093e-015	0.000000e+000	7.812500e-007
6.862165151151572e-012	0.000000e+000	9.149554e-004
1.371847092732656e-011	0.000000e+000	1.829129e-003
2.057477670350154e-011	0.000000e+000	2.743304e-003
2.743108247967653e-011	0.000000e+000	3.657478e-003
3.428738825585152e-011	0.000000e+000	4.571652e-003
4.114369403202650e-011	0.000000e+000	5.485826e-003
4.799999980820147e-011	0.000000e+000	6.400000e-003
9.599999961640293e-011	0.000000e+000	1.280000e-002
1.416034087588800e-010	0.000000e+000	1.888045e-002
1.815403592997371e-010	0.000000e+000	2.420538e-002
2.190026546282704e-010	0.000000e+000	2.920035e-002
2.586466041744767e-010	0.000000e+000	3.448622e-002
3.006377456770162e-010	0.000000e+000	4.008503e-002
3.511046216967965e-010	0.000000e+000	4.681395e-002
4.080790723112299e-010	0.000000e+000	5.441054e-002
4.760207817153445e-010	0.000000e+000	6.346944e-002
5.537958501666571e-010	0.000000e+000	7.383945e-002
6.458975582232118e-010	0.000000e+000	8.611967e-002
7.374197847133350e-010	0.000000e+000	9.832264e-002
8.168415258987278e-010	0.000000e+000	1.089122e-001
9.088948688559602e-010	0.000000e+000	1.211860e-001
9.981704472648312e-010	0.000000e+000	1.330894e-001
1.104339811620614e-009	0.000000e+000	1.472453e-001
1.214303819776729e-009	0.000000e+000	1.619072e-001
1.342025802755382e-009	0.000000e+000	1.789368e-001
1.478149918861255e-009	0.000000e+000	1.970867e-001
1.591932256731436e-009	0.000000e+000	2.122576e-001
1.714507089166341e-009	0.000000e+000	2.286009e-001
1.843013589453528e-009	0.000000e+000	2.457351e-001
1.983479604919193e-009	0.000000e+000	2.644640e-001
2.133245568852534e-009	0.000000e+000	2.844327e-001
2.296738744979816e-009	0.000000e+000	3.062318e-001
2.472540203501071e-009	0.000000e+000	3.296720e-001
2.639352309597124e-009	0.000000e+000	3.519136e-001
2.799650326822602e-009	0.000000e+000	3.732867e-001
2.973939557301055e-009	0.000000e+000	3.965253e-001
3.153647137560602e-009	0.000000e+000	4.204863e-001
3.349688351221376e-009	0.000000e+000	4.466251e-001
3.532193929034523e-009	0.000000e+000	4.709592e-001
3.731606012219969e-009	0.000000e+000	4.975475e-001
3.915958173790314e-009	0.000000e+000	5.221277e-001
4.125323570261461e-009	0.000000e+000	5.500432e-001
4.332839627699929e-009	0.000000e+000	5.777119e-001
4.563795795244663e-009	0.000000e+000	6.085061e-001
4.787696457371435e-009	0.000000e+000	6.383595e-001
4.999098144804460e-009	0.000000e+000	6.665464e-001
5.228353658637087e-009	0.000000e+000	6.971138e-001
5.460014836387929e-009	0.000000e+000	7.280020e-001
5.710859408803579e-009	0.000000e+000	7.614479e-001
5.957676416884737e-009	0.000000e+000	7.943569e-001
6.190887267665009e-009	0.000000e+000	8.254516e-001
6.443443219565095e-009	0.000000e+000	8.591257e-001
6.697622940768318e-009	0.000000e+000	8.930164e-001
6.971990239891634e-009	0.000000e+000	9.295987e-001
7.219162114972256e-009	0.000000e+000	9.625549e-001
7.259813637084272e-009	0.000000e+000	9.679751e-001
7.314015666566961e-009	0.000000e+000	9.752021e-001
7.391595941034622e-009	0.000000e+000	9.855461e-001
7.499999999999999e-009	0.000000e+000	1.000000e+000
7.510840405896538e-009	0.000000e+000	1.000000e+000
7.532521217689613e-009	0.000000e+000	1.000000e+000
7.575882841275764e-009	0.000000e+000	1.000000e+000
7.662606088448066e-009	0.000000e+000	1.000000e+000
7.836052582792671e-009	0.000000e+000	1.000000e+000
8.086711878438368e-009	0.000000e+000	1.000000e+000
8.368672577543370e-009	0.000000e+000	1.000000e+000
8.628830195285590e-009	0.000000e+000	1.000000e+000
8.921798945285590e-009	0.000000e+000	1.000000e+000
9.207991494543200e-009	0.000000e+000	1.000000e+000
9.500960244543200e-009	0.000000e+000	1.000000e+000
9.780610386131280e-009	0.000000e+000	1.000000e+000
1.007357913613128e-008	0.000000e+000	1.000000e+000
1.036654788613128e-008	0.000000e+000	1.000000e+000
1.065951663613128e-008	0.000000e+000	1.000000e+000
1.095248538613128e-008	0.000000e+000	1.000000e+000
1.124545413613128e-008	0.000000e+000	1.000000e+000
1.153842288613128e-008	0.000000e+000	1.000000e+000
1.183139163613128e-008	0.000000e+000	1.000000e+000
1.212436038613128e-008	0.000000e+000	1.000000e+000
1.241732913613128e-008	0.000000e+000	1.000000e+000
1.271029788613129e-008	0.000000e+000	1.000000e+000
1.300326663613129e-008	0.000000e+000	1.000000e+000
1.329623538613129e-008	0.000000e+000	1.000000e+000
1.358920413613129e-008	0.000000e+000	1.000000e+000
1.388217288613129e-008	0.000000e+000	1.000000e+000
1.417514163613129e-008	0.000000e+000	1.000000e+000
1.446811038613129e-008	0.000000e+000	1.000000e+000
1.476107913613129e-008	0.000000e+000	1.000000e+000
1.505404788613129e-008	0.000000e+000	1.000000e+000
1.534701663613129e-008	0.000000e+000	1.000000e+000
1.563998538613129e-008	0.000000e+000	1.000000e+000
1.593295413613129e-008	0.000000e+000	1.000000e+000
1.622592288613129e-008	0.000000e+000	1.000000e+000
1.651889163613129e-008	0.000000e+000	1.000000e+000
1.681186038613129e-008	0.000000e+000	1.000000e+000
1.710482913613129e-008	0.000000e+000	1.000000e+000
1.739779788613129e-008	0.000000e+000	1.000000e+000
1.769076663613129e-008	0.000000e+000	1.000000e+000
1.798373538613129e-008	0.000000e+000	1.000000e+000
1.827670413613129e-008	0.000000e+000	1.000000e+000
1.856967288613130e-008	0.000000e+000	1.000000e+000
1.886264163613130e-008	0.000000e+000	1.000000e+000
1.915561038613130e-008	0.000000e+000	1.000000e+000
1.944857913613130e-008	0.000000e+000	1.000000e+000
1.974154788613130e-008	0.000000e+000	1.000000e+000
2.003451663613130e-008	0.000000e+000	1.000000e+000
2.032748538613130e-008	0.000000e+000	1.000000e+000
2.062045413613130e-008	0.000000e+000	1.000000e+000
2.091342288613130e-008	0.000000e+000	1.000000e+000
2.120639163613130e-008	0.000000e+000	1.000000e+000
2.149936038613130e-008	0.000000e+000	1.000000e+000
2.179232913613130e-008	0.000000e+000	1.000000e+000
2.208529788613130e-008	0.000000e+000	1.000000e+000
2.237826663613130e-008	0.000000e+000	1.000000e+000
2.267123538613130e-008	0.000000e+000	1.000000e+000
2.296420413613130e-008	0.000000e+000	1.000000e+000
2.325717288613130e-008	0.000000e+000	1.000000e+000
2.355014163613130e-008	0.000000e+000	1.000000e+000
2.384311038613130e-008	0.000000e+000	1.000000e+000
2.413607913613130e-008	0.000000e+000	1.000000e+000
2.442904788613131e-008	0.000000e+000	1.000000e+000
2.472201663613131e-008	0.000000e+000	1.000000e+000
2.501498538613131e-008	0.000000e+000	1.000000e+000
2.530795413613131e-008	0.000000e+000	1.000000e+000
2.560092288613131e-008	0.000000e+000	1.000000e+000
2.589389163613131e-008	0.000000e+000	1.000000e+000
2.618686038613131e-008	0.000000e+000	1.000000e+000
2.647982913613131e-008	0.000000e+000	1.000000e+000
2.677279788613131e-008	0.000000e+000	1.000000e+000
2.706576663613131e-008	0.000000e+000	1.000000e+000
2.735873538613131e-008	0.000000e+000	1.000000e+000
2.765170413613131e-008	0.000000e+000	1.000000e+000
2.794467288613131e-008	0.000000e+000	1.000000e+000
2.823764163613131e-008	0.000000e+000	1.000000e+000
2.853061038613131e-008	0.000000e+000	1.000000e+000
2.882357913613131e-008	0.000000e+000	1.000000e+000
2.911654788613131e-008	0.000000e+000	1.000000e+000
2.940951663613131e-008	0.000000e+000	1.000000e+000
2.970248538613131e-008	0.000000e+000	1.000000e+000
2.999545413613131e-008	0.000000e+000	1.000000e+000
3.028842288613132e-008	0.000000e+000	1.000000e+000
3.058139163613132e-008	0.000000e+000	1.000000e+000
3.087436038613132e-008	0.000000e+000	1.000000e+000
3.116732913613132e-008	0.000000e+000	1.000000e+000
3.146029788613132e-008	0.000000e+000	1.000000e+000
3.175326663613132e-008	0.000000e+000	1.000000e+000
3.204623538613132e-008	0.000000e+000	1.000000e+000
3.233920413613132e-008	0.000000e+000	1.000000e+000
3.263217288613132e-008	0.000000e+000	1.000000e+000
3.292514163613132e-008	0.000000e+000	1.000000e+000
3.321811038613132e-008	0.000000e+000	1.000000e+000
3.351107913613132e-008	0.000000e+000	1.000000e+000
3.380404788613132e-008	0.000000e+000	1.000000e+000
3.409701663613132e-008	0.000000e+000	1.000000e+000
3.438998538613132e-008	0.000000e+000	1.000000e+000
3.468295413613132e-008	1.401298e-045	1.000000e+000
3.497592288613132e-008	5.605194e-045	1.000000e+000
3.526889163613132e-008	1.261169e-044	1.000000e+000
3.556186038613132e-008	3.082857e-044	1.000000e+000
3.585482913613132e-008	7.286752e-044	1.000000e+000
3.614779788613133e-008	1.737610e-043	1.000000e+000
3.644076663613133e-008	4.091792e-043	1.000000e+000
3.673373538613133e-008	9.640933e-043	1.000000e+000
3.702670413613133e-008	2.249084e-042	1.000000e+000
3.731967288613133e-008	5.218435e-042	1.000000e+000
3.761264163613133e-008	1.203155e-041	1.000000e+000
3.790561038613133e-008	2.756074e-041	1.000000e+000
3.819857913613133e-008	6.273473e-041	1.000000e+000
3.849154788613133e-008	1.419025e-040	1.000000e+000
3.878451663613133e-008	3.189916e-040	1.000000e+000
3.907748538613133e-008	7.126976e-040	1.000000e+000
3.937045413613133e-008	1.582708e-039	1.000000e+000
3.966342288613133e-008	3.493762e-039	1.000000e+000
3.995639163613133e-008	7.666756e-039	1.000000e+000
4.024936038613133e-008	1.672569e-038	1.000000e+000
4.054232913613133e-008	3.627754e-038	1.000000e+000
4.083529788613133e-008	7.823486e-038	1.000000e+000
4.112826663613133e-008	1.677636e-037	1.000000e+000
4.142123538613133e-008	3.577310e-037	1.000000e+000
4.171420413613134e-008	7.585810e-037	1.000000e+000
4.200717288613134e-008	1.599776e-036	1.000000e+000
4.230014163613134e-008	3.355468e-036	1.000000e+000
4.259311038613134e-008	7.000154e-036	1.000000e+000
4.288607913613134e-008	1.452602e-035	1.000000e+000
4.317904788613134e-008	2.998428e-035	1.000000e+000
4.347201663613134e-008	6.157029e-035	1.000000e+000
4.376498538613134e-008	1.257773e-034	1.000000e+000
4.405795413613134e-008	2.556281e-034	1.000000e+000
4.435092288613134e-008	5.169068e-034	1.000000e+000
4.464389163613134e-008	1.040003e-033	1.000000e+000
4.493686038613134e-008	2.082075e-033	1.000000e+000
4.522982913613134e-008	4.147806e-033	1.000000e+000
4.552279788613134e-008	8.222826e-033	1.000000e+000
4.581576663613134e-008	1.622274e-032	1.000000e+000
4.610873538613134e-008	3.185279e-032	1.000000e+000
4.640170413613134e-008	6.224582e-032	1.000000e+000
4.669467288613134e-008	1.210685e-031	1.000000e+000
4.698764163613134e-008	2.343846e-031	1.000000e+000
4.728061038613134e-008	4.516713e-031	1.000000e+000
4.757357913613135e-008	8.664216e-031	1.000000e+000
4.786654788613135e-008	1.654502e-030	1.000000e+000
4.815951663613135e-008	3.145239e-030	1.000000e+000
4.845248538613135e-008	5.952588e-030	1.000000e+000
4.874545413613135e-008	1.121607e-029	1.000000e+000
4.903842288613135e-008	2.104140e-029	1.000000e+000
4.933139163613135e-008	3.930288e-029	1.000000e+000
4.962436038613135e-008	7.309803e-029	1.000000e+000
4.991732913613135e-008	1.353738e-028	1.000000e+000
5.021029788613135e-008	2.496470e-028	1.000000e+000
5.050326663613135e-008	4.584551e-028	1.000000e+000
5.079623538613135e-008	8.384182e-028	1.000000e+000
5.108920413613135e-008	1.526978e-027	1.000000e+000
5.138217288613135e-008	2.769671e-027	1.000000e+000
5.167514163613135e-008	5.003348e-027	1.000000e+000
5.196811038613135e-008	9.002122e-027	1.000000e+000
5.226107913613135e-008	1.613224e-026	1.000000e+000
5.255404788613135e-008	2.879543e-026	1.000000e+000
5.284701663613135e-008	5.119708e-026	1.000000e+000
5.313998538613135e-008	9.067194e-026	1.000000e+000
5.343295413613136e-008	1.599631e-025	1.000000e+000
5.372592288613136e-008	2.811247e-025	1.000000e+000
5.401889163613136e-008	4.921787e-025	1.000000e+000
5.431186038613136e-008	8.584283e-025	1.000000e+000
5.460482913613136e-008	1.491609e-024	1.000000e+000
5.489779788613136e-008	2.582186e-024	1.000000e+000
5.519076663613136e-008	4.453629e-024	1.000000e+000
5.548373538613136e-008	7.653253e-024	1.000000e+000
5.577670413613136e-008	1.310374e-023	1.000000e+000
5.606967288613136e-008	2.235492e-023	1.000000e+000
5.636264163613136e-008	3.800062e-023	1.000000e+000
5.665561038613136e-008	6.436642e-023	1.000000e+000
5.694857913613136e-008	1.086400e-022	1.000000e+000
5.724154788613136e-008	1.827229e-022	1.000000e+000
5.753451663613136e-008	3.062524e-022	1.000000e+000
5.782748538613136e-008	5.115164e-022	1.000000e+000
5.812045413613136e-008	8.514198e-022	1.000000e+000
5.841342288613136e-008	1.412349e-021	1.000000e+000
5.870639163613136e-008	2.334879e-021	1.000000e+000
5.899936038613136e-008	3.846988e-021	1.000000e+000
5.929232913613137e-008	6.317147e-021	1.000000e+000
5.958529788613137e-008	1.033890e-020	1.000000e+000
5.987826663613137e-008	1.686515e-020	1.000000e+000
6.017123538613136e-008	2.742068e-020	1.000000e+000
6.046420413613135e-008	4.443726e-020	1.000000e+000
6.075717288613135e-008	7.178048e-020	1.000000e+000
6.105014163613134e-008	1.155751e-019	1.000000e+000
6.134311038613134e-008	1.854942e-019	1.000000e+000
6.163607913613133e-008	2.967648e-019	1.000000e+000
6.192904788613132e-008	4.732813e-019	1.000000e+000
6.222201663613132e-008	7.524186e-019	1.000000e+000
6.251498538613131e-008	1.192452e-018	1.000000e+000
6.280795413613131e-008	1.883962e-018	1.000000e+000
6.310092288613130e-008	2.967296e-018	1.000000e+000
6.339389163613129e-008	4.659239e-018	1.000000e+000
6.368686038613129e-008	7.293607e-018	1.000000e+000
6.397982913613128e-008	1.138284e-017	1.000000e+000
6.427279788613127e-008	1.771117e-017	1.000000e+000
6.456576663613127e-008	2.747512e-017	1.000000e+000
6.485873538613126e-008	4.249475e-017	1.000000e+000
6.515170413613126e-008	6.553016e-017	1.000000e+000
6.544467288613125e-008	1.007546e-016	1.000000e+000
6.573764163613124e-008	1.544588e-016	1.000000e+000
6.603061038613124e-008	2.360978e-016	1.000000e+000
6.632357913613123e-008	3.598399e-016	1.000000e+000
6.661654788613123e-008	5.468543e-016	1.000000e+000
6.690951663613122e-008	8.286771e-016	1.000000e+000
6.720248538613121e-008	1.252152e-015	1.000000e+000
6.749545413613121e-008	1.886657e-015	1.000000e+000
6.778842288613120e-008	2.834650e-015	1.000000e+000
6.808139163613120e-008	4.247005e-015	1.000000e+000
6.837436038613119e-008	6.345253e-015	1.000000e+000
6.866732913613118e-008	9.453748e-015	1.000000e+000
6.896029788613118e-008	1.404604e-014	1.000000e+000
6.925326663613117e-008	2.081156e-014	1.000000e+000
6.954623538613116e-008	3.075116e-014	1.000000e+000
6.983920413613116e-008	4.531380e-014	1.000000e+000
7.013217288613115e-008	6.659123e-014	1.000000e+000
7.042514163613115e-008	9.759479e-014	1.000000e+000
7.071811038613114e-008	1.426477e-013	1.000000e+000
7.101107913613113e-008	2.079392e-013	1.000000e+000
7.130404788613113e-008	3.023061e-013	1.000000e+000
7.159701663613112e-008	4.383303e-013	1.000000e+000
7.188998538613112e-008	6.338773e-013	1.000000e+000
7.218295413613111e-008	9.142458e-013	1.000000e+000
7.247592288613110e-008	1.315163e-012	1.000000e+000
7.276889163613110e-008	1.886948e-012	1.000000e+000
7.306186038613109e-008	2.700279e-012	1.000000e+000
7.335482913613109e-008	3.854165e-012	1.000000e+000
7.364779788613108e-008	5.486933e-012	1.000000e+000
7.394076663613107e-008	7.791320e-012	1.000000e+000
7.423373538613107e-008	1.103516e-011	1.000000e+000
7.452670413613106e-008	1.558969e-011	1.000000e+000
7.481967288613105e-008	2.196802e-011	1.000000e+000
7.511264163613105e-008	3.087761e-011	1.000000e+000
7.540561038613104e-008	4.329119e-011	1.000000e+000
7.569857913613104e-008	6.054283e-011	1.000000e+000
7.599154788613103e-008	8.445729e-011	1.000000e+000
7.628451663613102e-008	1.175240e-010	1.000000e+000
7.657748538613102e-008	1.631304e-010	1.000000e+000
7.687045413613101e-008	2.258736e-010	1.000000e+000
7.716342288613101e-008	3.119769e-010	1.000000e+000
7.745639163613100e-008	4.298423e-010	1.000000e+000
7.774936038613099e-008	5.907845e-010	1.000000e+000
7.804232913613099e-008	8.100012e-010	1.000000e+000
7.833529788613098e-008	1.107853e-009	1.000000e+000
7.862826663613098e-008	1.511548e-009	1.000000e+000
7.892123538613097e-008	2.057351e-009	1.000000e+000
7.921420413613096e-008	2.793472e-009	1.000000e+000
7.950717288613096e-008	3.783841e-009	1.000000e+000
7.980014163613095e-008	5.113017e-009	1.000000e+000
8.009311038613094e-008	6.892552e-009	1.000000e+000
8.038607913613094e-008	9.269245e-009	1.000000e+000
8.067904788613093e-008	1.243578e-008	1.000000e+000
8.097201663613093e-008	1.664441e-008	1.000000e+000
8.126498538613092e-008	2.222457e-008	1.000000e+000
8.155795413613091e-008	2.960537e-008	1.000000e+000
8.185092288613091e-008	3.934434e-008	1.000000e+000
8.214389163613090e-008	5.216403e-008	1.000000e+000
8.243686038613090e-008	6.899847e-008	1.000000e+000
8.272982913613089e-008	9.105201e-008	1.000000e+000
8.302279788613088e-008	1.198736e-007	1.000000e+000
8.331576663613088e-008	1.574503e-007	1.000000e+000
8.360873538613087e-008	2.063250e-007	1.000000e+000
8.390170413613086e-008	2.697431e-007	1.000000e+000
8.419467288613086e-008	3.518365e-007	1.000000e+000
8.448764163613085e-008	4.578525e-007	1.000000e+000
8.478061038613085e-008	5.944372e-007	1.000000e+000
8.507357913613084e-008	7.699880e-007	1.000000e+000
8.536654788613083e-008	9.950872e-007	1.000000e+000
8.565951663613083e-008	1.283037e-006	1.000000e+000
8.595248538613082e-008	1.650515e-006	1.000000e+000
8.624545413613082e-008	2.118378e-006	1.000000e+000
8.653842288613081e-008	2.712643e-006	1.000000e+000
8.683139163613080e-008	3.465680e-006	1.000000e+000
8.712436038613080e-008	4.417655e-006	1.000000e+000
8.741732913613079e-008	5.618288e-006	1.000000e+000
8.771029788613079e-008	7.128959e-006	1.000000e+000
8.800326663613078e-008	9.025248e-006	1.000000e+000
8.829623538613077e-008	1.139998e-005	1.000000e+000
8.858920413613077e-008	1.436686e-005	1.000000e+000
8.888217288613076e-008	1.806480e-005	1.000000e+000
8.917514163613075e-008	2.266306e-005	1.000000e+000
8.946811038613075e-008	2.836736e-005	1.000000e+000
8.976107913613074e-008	3.542704e-005	1.000000e+000
9.005404788613074e-008	4.414349e-005	1.000000e+000
9.034701663613073e-008	5.488010e-005	1.000000e+000
9.063998538613072e-008	6.807376e-005	1.000000e+000
9.093295413613072e-008	8.424838e-005	1.000000e+000
9.122592288613071e-008	1.040304e-004	1.000000e+000
9.151889163613071e-008	1.281671e-004	1.000000e+000
9.181186038613070e-008	1.575469e-004	1.000000e+000
9.210482913613069e-008	1.932237e-004	1.000000e+000
9.239779788613069e-008	2.364438e-004	1.000000e+000
9.269076663613068e-008	2.886770e-004	1.000000e+000
9.298373538613068e-008	3.516518e-004	1.000000e+000
9.327670413613067e-008	4.273951e-004	1.000000e+000
9.356967288613066e-008	5.182768e-004	1.000000e+000
9.386264163613066e-008	6.270598e-004	1.000000e+000
9.415561038613065e-008	7.569557e-004	1.000000e+000
9.444857913613064e-008	9.116864e-004	1.000000e+000
9.474154788613064e-008	1.095552e-003	1.000000e+000
9.503451663613063e-008	1.313508e-003	1.000000e+000
9.532748538613063e-008	1.571241e-003	1.000000e+000
9.562045413613062e-008	1.875264e-003	1.000000e+000
9.591342288613061e-008	2.233009e-003	1.000000e+000
9.620639163613061e-008	2.652929e-003	1.000000e+000
9.649936038613060e-008	3.144607e-003	1.000000e+000
9.679232913613060e-008	3.718872e-003	1.000000e+000
9.708529788613059e-008	4.387919e-003	1.000000e+000
9.737826663613058e-008	5.165434e-003	1.000000e+000
9.767123538613058e-008	6.066721e-003	1.000000e+000
9.796420413613057e-008	7.108833e-003	1.000000e+000
9.825717288613057e-008	8.310702e-003	1.000000e+000
9.855014163613056e-008	9.693263e-003	1.000000e+000
9.884311038613055e-008	1.127958e-002	1.000000e+000
9.913607913613055e-008	1.309497e-002	1.000000e+000
9.942904788613054e-008	1.516708e-002	1.000000e+000
9.972201663613053e-008	1.752600e-002	1.000000e+000
1.000149853861305e-007	2.020434e-002	1.000000e+000
1.003079541361305e-007	2.323722e-002	1.000000e+000
1.006009228861305e-007	2.666239e-002	1.000000e+000
1.008938916361305e-007	3.052011e-002	1.000000e+000
1.011868603861305e-007	3.485317e-002	1.000000e+000
1.014798291361305e-007	3.970674e-002	1.000000e+000
1.017727978861305e-007	4.512829e-002	1.000000e+000
1.020657666361305e-007	5.116733e-002	1.000000e+000
1.023587353861305e-007	5.787516e-002	1.000000e+000
1.026517041361305e-007	6.530461e-002	1.000000e+000
